!CSV A.01.01
!Keysight Technologies,N5247A,US56070710,A.10.64.09
!Date: Saturday, November 19, 2022 02:20:11
!Source: Standard

BEGIN CH1_DATA
Freq(Hz),S33(DB),S33(DEG),S34(DB),S34(DEG),S43(DB),S43(DEG),S44(DB),S44(DEG)
3000000000,-14.41399,-158.59218,-66.547714,-59.956242,-67.946487,-61.023075,-13.021417,-150.97731
3005000000,-10.611797,95.012794,-69.290268,170.85918,-69.530991,170.47966,-24.301771,-166.54675
3010000000,-15.10882,132.58051,-68.212715,16.210522,-68.528831,19.015108,-11.560397,161.38937
3015000000,-11.100386,143.09174,-74.249931,-24.075085,-71.27713,-14.31633,-13.818701,-140.91425
3020000000,-13.942652,59.424599,-66.007858,-118.31699,-66.69545,-124.19077,-19.416506,147.69098
3025000000,-9.7861004,137.44223,-64.092339,136.74693,-64.141975,136.56642,-10.735422,172.36656
3030000000,-18.198751,59.736904,-64.692436,26.396044,-64.602249,26.653725,-18.884718,-142.8941
3035000000,-15.506023,112.63874,-73.171638,-14.21674,-73.633621,-25.533142,-14.978435,138.90598
3040000000,-7.4010477,134.1221,-70.017807,144.27605,-69.374474,144.65079,-11.962924,177.91789
3045000000,-14.525989,45.510147,-70.299942,59.975018,-71.070862,58.93853,-22.301516,149.89587
3050000000,-11.349182,103.38236,-67.381477,-39.661568,-68.612556,-39.765278,-11.680784,140.18538
3055000000,-13.476598,119.2971,-66.656464,-142.86778,-66.6689,-140.81052,-13.214801,-170.18071
3060000000,-18.230072,92.174667,-74.18042,97.177689,-74.562042,86.389473,-16.544466,131.31123
3065000000,-6.993207,108.07637,-85.717979,52.740894,-82.67411,19.873898,-12.726318,150.72675
3070000000,-23.402388,82.039749,-69.931419,-122.59827,-68.507454,-122.55061,-16.640867,-166.20349
3075000000,-9.0321827,94.886734,-71.939522,151.30058,-74.427452,161.00031,-14.635369,109.90745
3080000000,-9.6972065,90.11628,-72.94857,131.66849,-76.541473,122.56383,-11.574973,157.01997
3085000000,-16.101345,-165.51147,-67.51976,9.6950741,-69.176918,7.6153526,-24.801495,153.28911
3090000000,-5.5262976,83.386559,-81.730667,88.756081,-84.608147,76.592682,-12.544482,123.55292
3095000000,-17.737463,143.09535,-64.122696,65.155724,-63.517445,68.539665,-12.644122,164.00444
3100000000,-8.8061647,89.975182,-72.816422,33.225548,-73.520088,37.428982,-20.424952,97.729057
3105000000,-10.541913,64.720924,-65.440292,-71.518639,-65.736084,-76.121201,-12.842,139.03029
3110000000,-10.347631,140.45732,-77.790848,-163.03918,-77.322899,-146.80911,-16.383604,157.05098
3115000000,-9.7730656,50.482975,-72.552437,173.00121,-70.738075,168.56346,-18.424784,91.516121
3120000000,-8.7399664,111.84551,-74.310112,-85.327797,-72.805069,-94.281097,-12.141694,127.57857
3125000000,-12.163188,94.047768,-72.083122,169.7639,-74.179459,171.04688,-20.269791,171.21457
3130000000,-8.4872971,50.17643,-70.733597,161.42299,-71.070694,156.77386,-12.77696,99.333961
3135000000,-9.6999359,112.71728,-78.339104,117.4744,-75.965332,98.367462,-13.862543,147.10246
3140000000,-13.129562,66.518028,-78.71312,147.31064,-79.66832,158.47226,-25.43778,126.67316
3145000000,-10.929793,78.793083,-67.666451,-53.791218,-68.23185,-52.37447,-12.364529,113.90158
3150000000,-6.8953838,99.443642,-73.02977,55.779602,-72.623146,75.701042,-16.892609,158.84683
3155000000,-10.844426,30.188406,-77.818993,93.136269,-74.220535,75.028374,-20.646114,74.490524
3160000000,-8.324275,88.521622,-68.920753,-50.929016,-68.902786,-57.110535,-12.628592,121.76689
3165000000,-13.909506,56.069008,-69.756989,-110.454,-68.987434,-106.75172,-19.21981,145.8291
3170000000,-10.681228,101.39587,-74.008026,123.30859,-78.828094,114.98035,-15.767199,88.796486
3175000000,-6.5442553,69.572449,-71.58712,-2.8545465,-70.440384,-5.5493803,-13.546605,136.45769
3180000000,-18.570087,37.865849,-77.563103,-119.96084,-79.689621,-102.48694,-19.086933,150.3842
3185000000,-5.4664874,60.180004,-72.175446,79.263893,-69.140739,72.071068,-15.548856,87.436241
3190000000,-17.02033,62.453754,-66.371223,60.795406,-67.047081,60.148895,-14.231634,156.32715
3195000000,-12.865341,90.074463,-67.881271,-55.781586,-67.429794,-62.166134,-25.741825,44.173157
3200000000,-4.8911738,59.086842,-70.129448,-157.51321,-68.101349,-173.77861,-11.923491,105.47529
3205000000,-12.286187,98.158173,-66.185074,132.46521,-66.914268,126.89819,-20.416603,164.45192
3210000000,-6.3884115,26.224611,-69.948639,-9.556078,-69.777405,-10.213854,-17.305573,79.547302
3215000000,-15.802339,83.009361,-66.681366,-116.36701,-67.847374,-115.73003,-12.767364,120.8059
3220000000,-9.4380884,82.579041,-70.428818,114.60226,-70.166405,103.06194,-21.113916,150.23491
3225000000,-7.1289716,38.58688,-72.001816,25.04814,-70.14769,46.254959,-17.170614,83.982765
3230000000,-9.2086239,69.078079,-70.769089,-84.601822,-70.57299,-79.026283,-13.273003,139.44968
3235000000,-10.30433,36.822712,-68.882759,-173.58755,-68.237785,174.02679,-27.065735,72.171249
3240000000,-8.3625269,35.118286,-65.906937,84.399818,-65.403999,81.105042,-14.047549,96.786209
3245000000,-10.266335,90.233383,-67.342606,1.5355277,-66.324356,-0.096010312,-15.5595,150.87738
3250000000,-9.9786444,18.915392,-70.138855,-106.46977,-70.114021,-101.06226,-19.209942,68.327255
3255000000,-6.2555904,72.179077,-75.044449,138.32896,-75.48613,159.50781,-12.619594,107.44873
3260000000,-7.0108314,25.24272,-69.072884,-9.164772,-68.988602,-14.533901,-18.031136,151.99976
3265000000,-12.826738,-6.1110458,-68.744934,-104.02163,-69.513367,-105.05431,-17.339651,87.217812
3270000000,-6.073072,69.995735,-68.28418,174.70087,-69.245712,175.49533,-13.324244,115.80787
3275000000,-14.6891,11.707363,-71.200172,92.806671,-68.860588,93.777924,-29.049517,137.95157
3280000000,-6.2502494,57.267719,-70.902901,-6.4980135,-68.995224,-10.671167,-13.356038,89.191498
3285000000,-7.4173031,23.993292,-73.654175,-81.749458,-76.06572,-83.874229,-14.79514,121.43422
3290000000,-17.683344,-17.760944,-75.182045,139.11353,-71.641518,135.92809,-20.829552,89.485252
3295000000,-5.8772182,32.643841,-70.986618,14.049405,-71.390228,23.059843,-13.444839,95.222008
3300000000,-15.910187,65.021355,-74.952744,-81.136208,-75.777153,-69.09407,-14.968798,129.64154
3305000000,-7.2523646,32.45594,-71.795868,-175.99229,-71.519722,-177.89978,-18.708797,77.740486
3310000000,-6.9759436,25.467388,-73.397865,84.040398,-71.219658,79.182137,-13.55882,102.57882
3315000000,-14.069868,44.478172,-70.957481,9.4238567,-70.153755,12.008616,-19.387537,147.13481
3320000000,-7.4456887,0.45331705,-70.122139,-122.43246,-70.425003,-122.42368,-13.214469,63.455448
3325000000,-14.861057,54.91721,-78.447777,87.844414,-74.976997,116.03934,-15.310525,112.56634
3330000000,-9.896781,33.323654,-79.57782,57.784645,-77.207237,43.198135,-16.17975,94.598648
3335000000,-5.0304227,11.129275,-76.416649,-97.24453,-72.533501,-92.259331,-15.574731,75.106209
3340000000,-11.570903,30.913605,-74.363411,-135.41406,-75.164162,-125.61229,-12.00237,110.2006
3345000000,-8.9767656,-12.894094,-73.369514,95.820419,-75.020805,89.661804,-28.884291,30.942572
3350000000,-11.100192,19.367008,-69.957085,-14.722676,-69.916626,-11.114914,-11.62089,87.007286
3355000000,-8.2513084,55.040199,-76.394836,-135.35997,-72.309814,-141.24983,-20.824453,113.17931
3360000000,-6.8572435,-19.766481,-78.941986,102.44519,-75.491776,119.09024,-16.55217,44.34502
3365000000,-5.956152,33.226631,-75.370247,98.126724,-74.958946,89.421776,-12.332449,83.839203
3370000000,-7.9975462,-37.95433,-75.814438,-47.604977,-72.469963,-54.871128,-19.826258,94.254501
3375000000,-12.389801,38.677311,-71.29525,-134.14194,-70.747147,-142.89171,-14.309746,57.06345
3380000000,-6.8360553,26.594225,-77.360146,111.55775,-75.400436,94.828339,-13.917272,100.4596
3385000000,-15.430074,-19.555485,-77.626274,13.523797,-80.592415,-2.3895781,-25.558617,50.418789
3390000000,-3.9306846,6.3338828,-77.586548,-88.633003,-77.051704,-107.22634,-12.778459,59.984383
3395000000,-15.355482,-30.572006,-74.489784,-173.45572,-73.903847,173.99536,-17.604042,105.93275
3400000000,-13.290993,-11.615976,-76.118408,85.789108,-71.834244,74.53318,-20.147593,29.856482
3405000000,-7.3124018,0.9401505,-71.614616,-31.432995,-72.548035,-38.360558,-12.408547,60.018669
3410000000,-13.894336,33.011646,-72.060486,-121.7892,-71.634666,-118.93485,-20.808149,109.49593
3415000000,-3.8062766,-10.855614,-71.207497,126.22821,-71.956085,117.42296,-14.721351,35.948315
3420000000,-11.829339,-13.033998,-70.111061,26.945557,-70.996056,16.657362,-14.882132,83.494675
3425000000,-17.869713,-12.166553,-72.682556,-77.929001,-71.790436,-86.072174,-25.819851,78.202728
3430000000,-6.9355927,-7.3642607,-69.078728,173.29588,-69.928535,174.97972,-15.052286,33.263611
3435000000,-14.525949,23.53446,-68.444183,78.494949,-68.935471,80.678757,-17.232899,102.17155
3440000000,-6.0217924,-16.458038,-71.075012,-38.975056,-70.015297,-47.679768,-18.662699,-5.5717955
3445000000,-8.5374117,-28.592834,-68.260658,-157.66328,-67.319679,-164.4321,-14.336189,55.997238
3450000000,-11.624642,16.081158,-66.085403,125.78377,-66.01078,116.32621,-21.307545,86.41423
3455000000,-8.2672663,-52.716263,-69.642799,23.801916,-68.56488,13.250193,-19.890324,13.050414
3460000000,-8.9043617,43.430393,-69.295464,-82.321404,-69.090279,-92.292152,-14.397847,66.93187
3465000000,-5.0865231,-24.887604,-69.335335,150.91341,-69.169716,132.69205,-25.694323,158.48404
3470000000,-11.059417,-58.172176,-65.306908,39.441936,-65.343079,31.884201,-16.437922,15.303278
3475000000,-8.1072674,9.4171753,-67.960999,-53.289234,-68.717003,-51.384941,-18.084436,105.54327
3480000000,-9.4398718,-71.679459,-67.017227,-158.06393,-68.153511,-164.79466,-21.243711,-28.397749
3485000000,-6.6360288,12.952089,-68.398163,89.076019,-69.350319,98.015656,-16.281738,45.476952
3490000000,-10.38783,-32.552769,-69.246338,-16.452709,-70.313141,-14.668145,-21.316843,98.975044
3495000000,-12.390321,-30.054083,-67.718468,-117.11753,-67.260002,-115.0991,-21.713837,-7.0862584
3500000000,-6.3253121,-23.490427,-70.439278,128.14667,-69.197205,121.26868,-14.476451,67.95282
3505000000,-24.074137,-79.277473,-68.281013,40.456589,-67.334419,35.010628,-23.042141,169.72594
3510000000,-7.7253008,-29.157299,-72.155022,-75.204483,-71.748917,-84.295494,-20.922712,17.121401
3515000000,-9.5932322,-5.8479548,-73.89975,179.04567,-74.463501,163.29588,-19.835705,85.262611
3520000000,-16.808256,-53.851582,-76.052391,86.89341,-74.568474,77.233086,-32.662838,-93.699265
3525000000,-6.1727748,-32.221134,-73.038345,-49.144333,-74.885818,-44.919727,-17.108021,25.721317
3530000000,-14.873786,-53.362789,-73.880302,-131.02026,-74.200508,-143.63936,-16.858738,96.181068
3535000000,-10.800886,-24.809214,-79.720695,171.93692,-74.771927,152.06194,-35.630077,-86.346016
3540000000,-8.2046785,-53.626301,-84.605667,-166.67386,-91.818924,-144.31267,-16.036455,58.758766
3545000000,-10.700895,47.481213,-93.790596,-130.18085,-88.082123,144.35545,-19.316492,151.93945
3550000000,-3.629297,-44.93269,-82.015114,-125.10731,-89.44416,-113.20852,-24.035686,17.075619
3555000000,-21.3445,-70.005989,-76.780853,122.98194,-78.581985,127.89576,-21.213938,77.428787
3560000000,-10.255917,-31.091158,-76.481628,4.4270992,-81.119057,19.773409,-25.411722,129.90083
3565000000,-13.113343,-97.957451,-77.288521,-39.916592,-80.54158,-2.8671339,-21.34181,12.423406
3570000000,-5.1983533,13.321096,-69.419296,-134.41307,-70.687996,-147.69922,-17.150715,78.408394
3575000000,-7.0473738,-79.874306,-79.360054,139.19565,-76.62886,126.85254,-24.81469,122.3754
3580000000,-11.47473,-36.815552,-71.159668,28.348902,-71.353806,31.479134,-20.052452,32.890499
3585000000,-10.240389,-45.607979,-73.216629,-84.738625,-73.344643,-98.4049,-14.990291,112.96869
3590000000,-14.950912,-147.75548,-71.5186,132.55173,-72.477493,127.12623,-22.270182,-65.953842
3595000000,-4.451375,-7.0224733,-69.340195,87.429581,-70.192131,88.026451,-16.197411,68.325424
3600000000,-10.877137,-67.949173,-67.236366,-47.481247,-68.528893,-46.4175,-24.204344,127.0313
3605000000,-7.032753,-59.249268,-68.996544,-141.45581,-69.504662,-132.53331,-24.397997,-3.8548307
3610000000,-15.69344,-51.191563,-65.758003,105.60867,-65.255722,110.51199,-15.461313,56.369915
3615000000,-31.261677,127.67455,-67.522598,1.7413361,-68.49012,1.6413282,-20.960344,139.19577
3620000000,-5.9080272,-17.296633,-66.491158,-80.096863,-66.379509,-72.628128,-18.663294,22.844336
3625000000,-6.7049828,-65.221672,-66.35627,150.92105,-65.815514,140.81172,-15.949638,95.222534
3630000000,-29.585976,-141.9567,-66.126785,50.085449,-65.365494,52.565586,-26.454975,-123.02051
3635000000,-5.7926736,-70.669983,-64.377373,-59.301849,-65.231522,-58.912487,-15.646426,52.120831
3640000000,-15.200149,62.13723,-66.382156,-164.545,-66.34845,-174.81364,-21.09411,135.86974
3645000000,-4.1537123,-48.891262,-66.39003,95.704872,-66.287254,95.133812,-24.069139,-37.469803
3650000000,-16.201057,-112.50248,-65.806068,-9.1561899,-64.60463,-10.631077,-16.415249,49.681347
3655000000,-5.5496879,-12.798063,-62.536976,-110.09853,-62.708996,-115.65516,-23.145969,121.83729
3660000000,-4.333529,-100.67422,-63.041115,151.25528,-62.526478,141.94533,-20.481369,8.7011108
3665000000,-9.1298256,47.059917,-63.203182,32.724064,-63.497345,35.088566,-19.098206,68.004166
3670000000,-8.4080391,-66.667274,-62.667755,-74.881477,-62.925095,-74.526375,-20.001383,127.36555
3675000000,-12.335934,-42.844154,-64.236221,169.33942,-64.190338,170.92276,-18.161972,-17.600975
3680000000,-6.4082456,-45.781124,-62.068172,60.666,-61.675457,55.02779,-16.375986,109.8633
3685000000,-8.9482298,-114.97356,-60.550774,-31.726437,-61.255516,-38.52047,-20.229895,-74.000908
3690000000,-11.580015,-13.834716,-61.736248,-134.32376,-62.257038,-135.74059,-16.653639,39.244503
3695000000,-10.113898,-34.895805,-62.518814,129.65492,-61.914608,123.70158,-23.543175,95.26693
3700000000,-10.226081,-81.049438,-63.46624,3.9125395,-63.961254,6.0477324,-29.667475,-71.492256
3705000000,-6.0967832,-36.499626,-62.280666,-112.13443,-63.150566,-112.63277,-15.749286,53.429993
3710000000,-11.334713,-134.6084,-60.333355,152.82216,-60.38129,150.94586,-22.772903,168.19882
3715000000,-8.1197309,-32.042767,-62.661179,49.736176,-61.703674,45.208157,-22.144985,-1.2577903
3720000000,-8.1467113,-67.783363,-63.524021,-40.312641,-63.199009,-50.653736,-19.05654,104.36887
3725000000,-25.80072,115.68919,-62.921162,-148.81831,-62.577763,-158.15329,-28.823978,-76.925987
3730000000,-2.2830665,-49.884121,-64.009621,94.016556,-63.408642,91.127502,-20.690121,23.506929
3735000000,-13.898445,-159.8748,-64.019623,-11.316059,-63.531193,-17.002056,-18.049047,108.8759
3740000000,-7.2564373,-43.697643,-63.516792,-116.60514,-63.420811,-121.04266,-28.946764,-118.21058
3745000000,-8.1929655,-93.388039,-62.662247,138.87193,-62.639843,135.71378,-18.370865,41.63768
3750000000,-9.6650019,26.490442,-62.877689,41.64756,-62.127022,39.7687,-18.73176,152.08971
3755000000,-3.507215,-89.269341,-62.846325,-64.829865,-62.177181,-68.743118,-30.580338,-5.3369489
3760000000,-13.898233,-19.791801,-64.647507,-161.58241,-65.229431,-169.29764,-21.0488,75.770882
3765000000,-6.0092087,-71.928841,-63.878979,79.615814,-63.831608,73.013962,-23.141319,-174.48026
3770000000,-10.294147,-130.61929,-67.053238,-38.307907,-66.337952,-40.776508,-22.938431,8.5864401
3775000000,-5.4847078,-7.0035486,-66.057129,-121.84918,-66.680511,-115.57947,-16.164625,88.982826
3780000000,-6.0504961,-101.65502,-63.282856,127.61366,-64.01638,125.82599,-22.764999,-152.55295
3785000000,-9.0504885,-56.777828,-65.138557,25.343719,-63.801426,22.11112,-18.563171,46.514992
3790000000,-9.9154921,-70.141136,-65.119125,-82.424347,-65.319832,-83.441338,-15.450292,126.14536
3795000000,-8.7697096,-117.73396,-67.194771,-163.18645,-67.36869,-169.37862,-31.782761,-109.65269
3800000000,-7.6137719,-20.031544,-69.409561,60.536335,-67.746857,56.157635,-21.093307,75.507423
3805000000,-6.5546927,-85.076225,-67.392792,-31.929779,-67.07608,-35.729336,-18.543627,141.37788
3810000000,-13.819468,-94.976883,-65.346626,-126.49194,-65.358284,-137.38574,-24.259563,14.743182
3815000000,-3.882571,-67.523514,-65.053528,127.04223,-65.220047,126.64799,-19.424057,83.343376
3820000000,-10.651354,176.45261,-68.128891,28.004461,-67.061317,30.731997,-18.891222,125.30946
3825000000,-3.9348135,-45.705055,-70.940689,-87.443855,-69.895988,-99.306549,-21.776369,37.792789
3830000000,-8.4224606,-116.10677,-69.837692,-168.35545,-69.422523,-162.88026,-12.81456,105.93971
3835000000,-10.605061,-46.607471,-67.207199,75.666809,-69.065926,76.460045,-18.819605,-142.69748
3840000000,-3.5000479,-99.704674,-69.236,-30.383366,-69.096146,-33.314491,-17.722942,68.092728
3845000000,-20.46546,70.654762,-68.396332,-134.42131,-68.026215,-131.1534,-20.449289,101.9217
3850000000,-3.2856524,-82.641365,-68.330421,121.02464,-68.123383,98.665154,-28.896118,-144.96494
3855000000,-13.933262,-128.79645,-74.004463,4.6207027,-72.327782,1.2775179,-15.337099,49.125114
3860000000,-6.0842819,-58.189594,-71.350487,-81.989998,-69.760689,-74.292099,-17.214975,117.67748
3865000000,-4.9503989,-114.47234,-71.048126,160.54221,-71.10672,157.64014,-20.208069,31.319252
3870000000,-14.969985,-43.482693,-72.641968,83.520508,-71.390434,84.416687,-15.030055,94.653038
3875000000,-5.4083767,-94.3582,-71.238297,-21.360506,-73.462357,-21.74136,-19.56942,138.40834
3880000000,-11.445671,-130.56761,-75.678368,-117.58795,-74.809402,-132.85124,-18.981712,33.701382
3885000000,-5.8049378,-50.348274,-71.92762,129.72762,-71.190292,121.43705,-17.059483,99.85289
3890000000,-2.9803796,-124.48732,-71.975151,63.789318,-70.301804,42.730064,-24.486273,172.02164
3895000000,-19.131708,-64.354736,-75.433754,-18.860378,-75.753494,-28.215935,-13.215239,23.767694
3900000000,-4.1559978,-81.621231,-73.566757,-170.22667,-75.366379,-171.91505,-14.248869,112.54433
3905000000,-9.0141563,-139.0695,-86.518822,127.35389,-81.440216,115.28419,-21.669262,-20.577585
3910000000,-5.7158136,-57.566059,-75.197632,-63.141548,-72.758308,-53.791878,-12.930913,72.337067
3915000000,-5.345139,-141.49409,-69.934395,-124.18113,-73.347389,-114.2489,-21.237291,111.7716
3920000000,-7.1766186,-56.446884,-74.910912,143.7083,-73.714012,139.51741,-21.845888,2.7987289
3925000000,-5.0138755,-115.45249,-71.590927,81.058578,-73.30648,64.623383,-14.230021,85.620361
3930000000,-20.006413,178.79367,-78.088127,-26.688311,-75.841393,-37.172306,-41.251198,-94.41301
3935000000,-2.7783177,-92.443573,-75.650467,-51.692398,-76.729164,-63.140858,-16.018602,15.447616
3940000000,-14.01158,-173.15813,-88.486786,8.5649576,-91.224625,47.100235,-14.500356,84.002144
3945000000,-5.3822865,-91.957123,-75.485138,19.163528,-75.748978,15.992475,-39.546394,-56.065914
3950000000,-5.3079314,-122.23228,-73.401405,-59.612179,-70.955925,-54.944946,-12.427299,45.132847
3955000000,-21.841257,-92.21933,-74.244156,-177.79799,-73.604462,150.95671,-19.121563,153.20224
3960000000,-4.6510329,-116.36793,-82.680374,56.931492,-79.666176,76.1548,-18.418772,20.664007
3965000000,-15.812768,-122.56459,-77.614609,-46.946758,-82.922272,-35.376591,-17.210527,70.286736
3970000000,-6.6016374,-101.29639,-76.285004,-126.0008,-70.884834,-117.95467,-40.786179,179.14122
3975000000,-3.026612,-135.70665,-72.5242,160.9653,-72.773361,145.53085,-18.702496,4.3843188
3980000000,-24.948629,-49.593609,-72.090263,41.438221,-70.945541,39.670261,-15.229579,65.034386
3985000000,-5.4293885,-120.80172,-72.852982,-72.4505,-71.067245,-73.917755,-37.292175,-2.8882992
3990000000,-11.664324,-125.0746,-75.753098,-157.62352,-74.998116,-155.44299,-18.232653,22.350853
3995000000,-6.6854115,-102.47533,-93.19091,163.31728,-80.203529,103.74657,-18.170393,95.6092
4000000000,-2.9994628,-159.91612,-72.364006,0.909136,-72.294441,-0.7804653,-23.095516,-19.89456
END

