!CSV A.01.01
!Keysight Technologies,N5247A,US56070710,A.10.64.09
!Date: Friday, November 18, 2022 23:33:22
!Source: Standard

BEGIN CH1_DATA
Freq(Hz),S33(DB),S33(DEG),S34(DB),S34(DEG),S43(DB),S43(DEG),S44(DB),S44(DEG)
3000000000,-3.989866,-115.04335,-73.146942,-34.003212,-73.586159,-42.501831,-10.139449,-140.07635
3005000000,-6.1272669,-97.242111,-80.931618,112.73962,-82.743195,115.65813,-19.204691,-102.35367
3010000000,-4.3916407,-120.00587,-72.847702,-163.10817,-73.928658,-171.36485,-14.54309,162.82193
3015000000,-6.4600029,-106.75783,-71.046997,-33.887821,-73.055138,-41.583389,-9.6078386,-137.66708
3020000000,-4.5807838,-101.32571,-69.878288,-101.08759,-70.377106,-106.38286,-34.824841,-7.0819449
3025000000,-5.9028668,-119.70795,-81.883308,-76.085365,-79.641624,-66.181465,-10.087651,-175.15526
3030000000,-4.4652705,-97.838196,-74.808899,126.16518,-73.157753,131.67538,-13.327725,-129.95744
3035000000,-4.9334683,-118.1112,-79.470795,166.15683,-78.982521,-178.98395,-22.240761,160.72786
3040000000,-6.3588676,-117.89828,-77.306252,169.49084,-80.124146,163.74019,-9.4988594,-178.759
3045000000,-4.7224212,-102.25948,-71.957977,59.139748,-72.865005,53.681431,-17.344231,-106.09675
3050000000,-6.7369924,-117.35014,-76.058472,-1.5595509,-77.806229,7.6666064,-12.286384,148.97421
3055000000,-4.1346793,-106.94834,-74.689705,-11.238342,-72.599106,-7.0730867,-11.536439,-162.11189
3060000000,-5.2125678,-117.94254,-81.553902,-28.667004,-83.569328,-48.583096,-20.133469,-141.42647
3065000000,-7.4051771,-120.38093,-73.751961,4.9551516,-72.58371,14.34703,-11.177081,148.43315
3070000000,-3.7429409,-110.42989,-93.731796,136.01695,-93.438812,152.37711,-11.810669,-143.11984
3075000000,-8.6598215,-119.6982,-77.602509,-177.63863,-76.716423,-171.58794,-18.579033,121.35542
3080000000,-4.3110805,-112.64005,-77.904587,-116.32305,-78.231293,-130.28481,-11.613924,165.22122
3085000000,-4.2213492,-122.91385,-77.871605,77.675606,-77.335701,78.667625,-14.358566,-145.92621
3090000000,-8.201376,-112.03317,-75.793587,-175.37379,-75.435692,175.37732,-14.718064,109.40128
3095000000,-3.7648418,-126.39468,-83.546555,-111.08511,-82.576729,-130.42436,-9.6517773,-176.82483
3100000000,-8.1246538,-105.77786,-83.169823,89.244705,-78.482368,73.270859,-26.250099,179.83397
3105000000,-4.5961685,-119.56977,-79.614113,50.603035,-78.274864,45.005978,-14.035502,137.59201
3110000000,-5.2859488,-128.98241,-75.084991,-144.2639,-76.83831,-150.05431,-11.568795,179.06328
3115000000,-5.7046719,-105.98734,-76.630386,-48.48061,-76.56955,-53.678837,-30.897085,10.749515
3120000000,-5.4560699,-144.41151,-78.136078,106.82803,-78.069817,116.46843,-10.034604,143.44867
3125000000,-5.9094181,-109.53357,-84.839752,157.71481,-86.575272,-171.38617,-16.099762,-158.7364
3130000000,-6.4726133,-116.77707,-88.282982,-85.944733,-84.369324,-101.85574,-19.03754,111.91792
3135000000,-5.8097601,-135.52806,-75.141403,34.49102,-75.032791,34.841003,-10.874873,149.25163
3140000000,-4.7243524,-115.01223,-77.525154,-157.54977,-79.779648,176.57686,-19.152006,-125.87665
3145000000,-7.010447,-141.14784,-79.016373,-23.757696,-76.322845,-40.736389,-12.774531,114.23872
3150000000,-7.5542841,-125.21084,-69.043617,-175.81094,-69.505066,167.44252,-13.408742,178.18562
3155000000,-4.9713879,-118.83267,-114.43151,-45.692436,-93.48336,0.58262217,-26.225559,-167.48337
3160000000,-8.9337854,-134.15739,-82.658386,30.879454,-82.300819,12.480233,-12.163709,113.48985
3165000000,-3.8652492,-124.37887,-76.271446,98.819405,-76.495857,97.137299,-12.867114,-166.29942
3170000000,-7.6763277,-149.43776,-77.361,-175.00125,-77.372154,178.66814,-18.867893,82.033195
3175000000,-8.5335064,-119.49919,-76.420067,26.968819,-78.822334,31.689096,-13.226856,145.37225
3180000000,-4.8719583,-130.20888,-73.018074,-107.48331,-74.028404,-109.61762,-15.122449,-173.08136
3185000000,-10.71379,-122.4306,-75.814728,-120.84862,-75.393562,-122.67405,-19.232573,70.06871
3190000000,-4.1623549,-136.49974,-74.444557,33.518951,-74.668777,39.699757,-10.420142,158.96289
3195000000,-8.3827181,-141.39397,-93.373215,158.45461,-89.448631,-110.54329,-29.25909,-77.539795
3200000000,-9.2341318,-127.36849,-73.432732,-107.88174,-75.345711,-105.97195,-14.206242,116.15283
3205000000,-6.339469,-148.72433,-74.088028,35.900444,-74.46344,27.413631,-13.91576,166.36845
3210000000,-7.4291072,-106.39885,-75.918297,65.21048,-77.177391,53.741512,-33.107594,-26.944103
3215000000,-5.0925093,-147.36942,-74.784355,-128.34006,-75.481636,-124.71144,-11.124071,125.03
3220000000,-9.7717333,-147.65993,-75.491158,131.88992,-78.737556,139.77437,-16.246326,-165.67596
3225000000,-7.8859453,-126.2428,-77.96785,75.902039,-75.197517,82.988968,-21.419155,104.41936
3230000000,-8.850872,-154.51476,-76.661751,-28.668995,-77.576729,-33.900898,-12.569144,132.25043
3235000000,-8.1560726,-120.78555,-76.745956,-91.61393,-78.800102,-92.629814,-16.605761,-142.29704
3240000000,-7.7304535,-143.18881,-73.722725,90.995697,-74.957245,92.909576,-13.829662,91.617088
3245000000,-8.9684315,-152.61511,-73.32399,-21.040949,-73.307503,-30.899773,-13.070393,170.2419
3250000000,-7.0943155,-134.354,-81.060547,-76.786972,-84.39328,-97.630127,-25.2498,151.1232
3255000000,-13.119275,176.19078,-73.606735,175.0239,-73.855148,168.7,-14.411077,102.47871
3260000000,-7.5905972,-112.60137,-72.451172,48.186787,-73.400734,39.389568,-11.74678,170.41551
3265000000,-7.0255046,-153.7404,-74.41993,-77.788071,-80.789429,-78.417984,-22.638161,45.022682
3270000000,-13.082482,-153.13995,-72.994247,-148.73724,-70.889664,-143.08038,-12.191328,135.90085
3275000000,-6.7451081,-149.18053,-76.854485,59.79929,-75.121765,46.659847,-17.333567,171.05391
3280000000,-19.303177,-175.74481,-73.794746,38.955647,-74.963348,41.179951,-20.381775,81.918808
3285000000,-8.0846081,-126.70296,-69.421211,-135.86786,-69.382736,-141.55515,-10.638432,135.16568
3290000000,-8.9031916,-149.38948,-74.290222,82.363899,-75.32547,80.561348,-24.465225,-147.47476
3295000000,-13.423065,-144.50772,-70.471375,65.208557,-71.267265,55.625385,-13.788572,104.31306
3300000000,-8.6965761,-166.01178,-73.817924,-114.06099,-72.3414,-105.43915,-13.374116,142.56943
3305000000,-18.399523,-110.61462,-77.328888,-133.30663,-78.486931,-154.63168,-23.487423,-163.96809
3310000000,-10.258634,-138.95708,-68.801521,55.343269,-69.169609,54.355824,-11.184822,101.92425
3315000000,-9.8916092,-165.83113,-72.183487,-64.907646,-72.57119,-58.74749,-14.802955,-179.26053
3320000000,-13.027189,-111.11497,-76.491623,-106.48532,-75.731743,-88.938957,-16.384722,82.245438
3325000000,-9.8661442,-172.89154,-70.811203,133.56111,-72.237778,120.35126,-13.706631,117.4808
3330000000,-16.633493,-118.55016,-76.140015,-60.747547,-75.082535,-62.572983,-15.121743,160.95
3335000000,-13.450725,-133.81543,-71.875618,-76.668602,-70.700462,-78.788948,-15.316928,62.930794
3340000000,-14.984086,177.31276,-68.832161,124.04535,-69.556229,127.16072,-10.793855,138.77725
3345000000,-10.068112,-114.60089,-75.44429,86.481079,-73.815063,81.960541,-27.283049,127.39802
3350000000,-13.686852,163.25566,-72.108398,-52.181427,-71.619843,-58.198547,-13.845589,85.717209
3355000000,-17.776464,-122.15325,-73.546974,-156.23949,-75.594284,-154.45802,-12.503257,141.00043
3360000000,-11.231856,-137.90695,-78.153107,27.411804,-79.150452,28.778931,-21.492815,17.79388
3365000000,-19.604265,68.275085,-69.216568,-21.054729,-68.717064,-25.304752,-11.311005,105.55366
3370000000,-8.5833216,-120.22594,-74.524033,-116.98328,-73.824516,-109.17419,-18.134405,132.41484
3375000000,-19.081896,156.28101,-73.109818,130.951,-71.912392,128.11789,-20.733603,69.638077
3380000000,-18.331825,-128.93274,-73.347023,47.722195,-72.597061,44.439377,-10.726503,104.27322
3385000000,-14.665604,-163.13261,-75.685081,-102.22001,-75.704239,-111.52105,-24.329138,-145.46358
3390000000,-13.913652,-26.977636,-75.838188,145.32803,-75.44294,158.0704,-12.641307,72.733444
3395000000,-11.168368,-146.13963,-76.140312,107.6452,-76.94928,108.58957,-15.615462,120.74033
3400000000,-21.036983,-134.87427,-74.191338,-33.345638,-75.551773,-26.690742,-28.731388,143.53761
3405000000,-18.267859,-94.59993,-74.054649,-147.68106,-75.43821,-152.81993,-11.40413,63.574375
3410000000,-18.495687,153.40181,-73.289658,94.490234,-72.410072,101.4134,-15.222414,153.23378
3415000000,-10.47042,-45.848866,-84.800293,-41.58112,-78.465446,-80.771378,-16.073891,43.025444
3420000000,-14.252558,-143.64659,-71.7062,-62.230946,-72.117195,-63.581364,-15.365455,88.334946
3425000000,-27.421833,-157.51208,-73.022087,159.85925,-74.240974,158.65007,-17.707825,142.08952
3430000000,-14.930064,-83.751244,-88.076263,34.798164,-86.08284,29.017742,-15.041544,18.499926
3435000000,-22.904438,107.67484,-76.260948,-82.02813,-74.151833,-92.40612,-12.552332,119.70457
3440000000,-10.549059,-65.941566,-74.804497,98.835274,-73.962166,105.62242,-22.753202,-9.7385645
3445000000,-21.356768,-119.02927,-73.99646,105.44467,-73.357948,118.34726,-16.309565,61.966618
3450000000,-19.054085,-39.991207,-72.079712,-49.795273,-71.737808,-53.186245,-15.14285,106.7627
3455000000,-12.210479,-119.13659,-76.309105,-90.279373,-76.338333,-90.741325,-21.296673,-51.809303
3460000000,-15.658576,35.93602,-75.35099,122.6105,-73.669914,120.54258,-12.656918,77.120476
3465000000,-9.619957,-70.046509,-81.200645,-27.628775,-80.890572,-33.59753,-22.512062,169.08542
3470000000,-19.687513,-126.21008,-79.344284,-77.78241,-76.607513,-80.042778,-21.20105,18.534897
3475000000,-12.680501,-36.923481,-72.643883,118.16741,-72.60112,115.50214,-14.723717,83.412949
3480000000,-12.697358,-123.7963,-75.222923,80.220009,-76.921669,89.869637,-21.209435,-130.43587
3485000000,-12.3167,1.496007,-69.90229,-86.614639,-70.078644,-93.386345,-14.499299,42.523666
3490000000,-12.270774,-87.685501,-80.932831,160.4691,-81.680046,131.5481,-20.03957,127.60049
3495000000,-18.347179,-56.524414,-77.112007,92.165749,-76.894234,78.159988,-37.39954,-175.37825
3500000000,-10.46759,-53.314774,-79.235466,-76.173538,-94.708481,-41.18742,-15.085986,41.266338
3505000000,-15.042485,-141.80333,-74.356102,-116.03776,-74.946365,-130.71912,-14.970637,154.15739
3510000000,-11.060369,-24.339609,-74.739037,92.608154,-72.333107,84.408279,-18.745234,-12.327977
3515000000,-12.915277,-73.465935,-71.343727,-22.30299,-72.160622,-9.7204285,-19.585648,98.139885
3520000000,-20.388548,-68.121269,-76.687866,160.94482,-77.004601,161.93074,-23.10334,139.02632
3525000000,-7.9996867,-62.046177,-73.223366,-152.74199,-73.252739,-152.49474,-19.922974,-24.066948
3530000000,-20.481039,-158.15273,-73.891777,5.5918174,-72.458672,5.8019609,-13.111898,103.66967
3535000000,-8.9957571,-41.999771,-79.669151,-49.633781,-81.627884,-57.447567,-22.040863,-103.7542
3540000000,-12.543396,-91.846497,-71.743713,156.27812,-73.390678,159.85539,-19.056534,68.015953
3545000000,-13.969406,-10.540906,-77.478096,4.0516772,-77.200607,0.29163349,-19.269596,117.24393
3550000000,-7.3180914,-81.58567,-74.987846,-14.269562,-74.466232,-16.561357,-21.857906,-123.46983
3555000000,-22.91423,0.57173896,-74.702957,148.37846,-74.884995,141.05891,-15.540834,62.995552
3560000000,-9.5022278,-69.940742,-74.204407,140.90237,-74.186172,133.46078,-18.680302,174.82814
3565000000,-14.217408,-81.541313,-73.995224,-49.643795,-72.12825,-41.160938,-27.165785,33.412918
3570000000,-11.011848,-25.169424,-82.483704,-172.43155,-83.386848,-167.19165,-17.678991,63.685349
3575000000,-9.0572338,-95.683304,-78.139389,151.259,-83.505646,156.00803,-15.659285,166.90968
3580000000,-13.347268,-44.076397,-78.519081,-52.411442,-77.629997,-25.470758,-17.02713,7.6161475
3585000000,-10.459188,-64.00309,-75.237953,-56.968967,-75.68602,-54.28297,-14.55012,130.3564
3590000000,-13.795351,-112.63656,-76.572205,155.00192,-76.640656,143.19005,-32.624416,-135.11263
3595000000,-7.2196507,-29.951639,-85.093132,19.466276,-90.233932,45.461189,-21.082315,39.02158
3600000000,-10.65752,-106.33502,-78.282532,27.534672,-77.605492,36.067738,-15.000876,124.75488
3605000000,-10.300735,-47.122246,-80.77874,-96.222458,-80.206604,-96.086548,-20.599491,-59.140697
3610000000,-9.6415939,-72.101662,-76.077477,54.314938,-83.644562,62.867481,-16.07329,83.618446
3615000000,-23.305578,-108.08243,-85.026855,90.43425,-85.075111,73.641327,-20.364697,131.96112
3620000000,-6.7118196,-48.187023,-79.720421,-116.46075,-79.355194,-119.83899,-26.384636,-61.164467
3625000000,-11.764887,-91.915283,-82.524719,-132.47926,-81.089699,-118.33009,-12.862612,85.691238
3630000000,-13.52875,-42.345257,-72.338127,92.528877,-72.987045,83.577087,-18.173454,-135.24481
3635000000,-6.3914328,-84.945061,-93.239784,-158.68848,-89.641068,-161.97884,-16.452547,55.872303
3640000000,-17.043217,-1.0974295,-75.195808,-112.60957,-75.077103,-112.40398,-22.042242,114.7569
3645000000,-6.2755871,-70.344139,-75.853447,148.03041,-75.453445,148.58868,-21.962931,-164.34857
3650000000,-18.509586,-75.218636,-79.102478,9.5525007,-77.801186,13.245189,-14.335669,33.620853
3655000000,-6.9229383,-40.902336,-86.194221,-104.07457,-96.009689,-11.230536,-16.289341,154.86615
3660000000,-7.8773141,-104.97952,-76.129173,119.1602,-74.803886,112.618,-22.068876,15.882053
3665000000,-12.668104,-15.06862,-75.700722,75.492744,-74.054459,68.841713,-22.35433,58.752121
3670000000,-9.4052248,-78.899261,-73.556023,-35.624638,-73.415871,-32.194389,-16.099352,138.40698
3675000000,-11.569931,-48.865242,-82.071693,-168.2659,-78.764664,-166.7511,-16.125345,-34.66013
3680000000,-6.7298427,-61.455673,-81.724167,-124.7489,-87.725731,-73.346565,-13.856626,112.78246
3685000000,-11.184969,-110.60994,-79.045128,-48.195827,-84.920013,-80.449471,-24.198009,-72.992577
3690000000,-9.8386822,-28.53311,-86.520393,-98.688171,-88.345009,-41.8349,-24.792715,29.060499
3695000000,-9.1909771,-67.536415,-71.626732,163.35895,-71.417885,156.33224,-16.525787,91.371796
3700000000,-11.855412,-63.665737,-79.521065,24.6192,-79.31469,48.423954,-18.420557,-107.40136
3705000000,-6.279994,-60.02552,-76.766708,-71.265617,-75.908379,-75.552612,-15.378345,61.490501
3710000000,-16.646675,-133.45844,-84.14106,-22.39073,-87.684662,1.0694612,-23.057327,175.50334
3715000000,-5.651536,-39.839245,-73.90419,115.23019,-76.607796,116.85783,-37.65403,-87.075607
3720000000,-9.7644186,-89.914864,-73.463547,-47.374283,-72.382019,-37.655743,-17.71072,58.600777
3725000000,-11.882375,-38.619698,-79.403023,-93.551445,-81.485062,-76.867538,-17.680113,-160.4847
3730000000,-5.57304,-69.542213,-71.843979,97.223106,-72.405006,89.538254,-18.699074,16.792948
3735000000,-24.61919,-36.363728,-73.835236,-150.07991,-74.360786,-140.8511,-21.839104,128.2785
3740000000,-5.0114236,-55.089924,-70.351181,-68.554565,-70.155952,-77.243492,-21.386606,176.3839
3745000000,-11.003011,-88.965172,-76.673599,119.67233,-76.881935,120.45823,-18.559187,-4.8318415
3750000000,-9.7075615,-31.12705,-82.718803,104.91254,-80.288895,56.376751,-14.666954,141.96915
3755000000,-6.9936204,-87.742538,-81.324829,40.871582,-84.413254,-26.06358,-21.770351,-56.598431
3760000000,-8.9192324,-27.779137,-75.994949,116.6252,-75.074173,119.13364,-25.266615,109.8989
3765000000,-5.9827991,-71.899536,-78.938362,67.990364,-80.667068,51.80814,-20.474674,137.04962
3770000000,-11.376316,-83.609856,-72.532829,-25.121359,-72.404327,-35.259289,-19.437601,-82.060646
3775000000,-7.6489534,-27.116234,-78.584671,-155.43011,-77.761902,-149.50031,-14.126008,94.072098
3780000000,-7.0202751,-85.163612,-78.785606,-118.15621,-77.698441,-126.27042,-18.467707,-136.17842
3785000000,-7.8874211,-38.194668,-76.390617,-3.4594958,-77.298248,-1.4616054,-26.217922,67.559608
3790000000,-6.5207248,-71.357613,-83.263809,-156.53514,-82.726013,-167.80714,-18.828442,103.32336
3795000000,-12.276093,-85.222466,-79.899834,177.05519,-76.868118,174.52609,-15.908331,-151.30254
3800000000,-5.1088648,-37.642296,-84.500427,8.7808533,-81.296745,-8.2171326,-17.927383,47.116722
3805000000,-9.3115587,-89.232452,-88.575317,-128.6799,-81.556885,-126.28681,-17.00013,170.7265
3810000000,-5.935781,-45.182991,-81.965935,121.47548,-83.676186,153.05345,-30.005114,119.99742
3815000000,-5.6311097,-79.780632,-74.657211,61.39716,-74.173546,58.495155,-24.23373,51.250053
3820000000,-15.803889,-24.756834,-73.989655,-6.8223219,-75.476494,-15.291139,-14.077881,153.02309
3825000000,-3.376179,-60.035267,-89.410034,-69.452118,-95.914177,-154.63661,-20.848375,-18.973532
3830000000,-11.591726,-70.364258,-85.201065,131.27071,-86.017181,115.49747,-13.998386,129.23973
3835000000,-5.4166131,-55.215477,-80.179375,-99.873772,-82.781113,-79.844093,-22.288736,-179.04356
3840000000,-6.4333725,-86.689247,-75.560913,-126.50422,-75.550949,-124.47837,-32.7556,-15.949332
3845000000,-9.2563438,-25.787203,-83.06073,119.3203,-79.595573,103.25787,-13.79397,111.42073
3850000000,-3.2693393,-74.428726,-75.953949,31.79286,-75.971649,25.590582,-19.479601,-116.99966
3855000000,-10.517654,-60.736427,-81.644318,-77.710442,-81.28933,-73.009109,-17.067509,81.061714
3860000000,-4.3342061,-60.36076,-76.598862,-171.00809,-76.414711,174.37289,-18.535976,123.47749
3865000000,-8.5816164,-85.921158,-79.117722,60.899422,-78.433258,64.914162,-23.657246,-162.7426
3870000000,-5.0347481,-39.053684,-83.984909,-133.92021,-80.745758,-175.34273,-13.918566,77.929138
3875000000,-4.3699255,-84.718948,-80.485878,-151.42757,-77.537956,-147.3521,-16.159645,-179.57462
3880000000,-9.7345753,-62.625801,-85.237183,-0.097034998,-85.424332,63.080139,-21.495789,63.152222
3885000000,-3.8798079,-56.63681,-77.232452,7.0826802,-75.894859,0.15719786,-19.563007,87.614204
3890000000,-7.2911763,-88.471031,-82.635269,-154.091,-81.323669,-137.6122,-15.134289,164.64861
3895000000,-4.5402169,-51.794518,-76.056595,125.22062,-75.326157,124.15707,-14.557539,16.302355
3900000000,-4.8889356,-82.806076,-83.428734,-53.763008,-83.270935,-37.193531,-12.396278,135.13589
3905000000,-7.7995563,-50.14827,-78.796936,-26.537127,-79.578735,-19.551199,-27.531956,22.17989
3910000000,-3.2107184,-69.583046,-73.948608,126.61874,-74.56797,118.75204,-20.634483,72.161232
3915000000,-9.7467222,-79.854767,-87.464844,-4.1284437,-84.321388,4.6350498,-14.032743,117.93616
3920000000,-2.574718,-57.899597,-76.667412,-62.361187,-77.361938,-93.518417,-20.803421,-52.719826
3925000000,-6.999928,-94.164215,-81.90477,177.11603,-80.525711,-179.80812,-13.0858,97.564964
3930000000,-5.7156563,-48.322819,-74.103462,93.300201,-72.334671,92.840927,-31.118681,128.65346
3935000000,-2.6156363,-85.240852,-87.308006,59.414616,-87.76104,10.257006,-29.672319,44.783268
3940000000,-9.9818544,-56.3055,-84.854225,152.04735,-87.912399,144.9615,-12.52746,77.842766
3945000000,-2.6651976,-73.173019,-88.545944,38.077194,-79.211441,8.761713,-18.533304,-144.6588
3950000000,-6.1964355,-80.702225,-78.024048,15.690828,-78.657845,17.977097,-13.219522,56.881504
3955000000,-5.1090307,-59.241161,-73.267723,-98.577576,-72.707466,-107.3301,-21.416838,148.62242
3960000000,-3.3492405,-88.76757,-79.958023,158.70973,-80.414574,124.18978,-25.920856,93.875443
3965000000,-8.3361845,-57.526184,-78.508858,111.43427,-79.029366,95.779976,-15.898563,45.960026
3970000000,-2.45454,-78.253571,-82.134163,-104.43079,-86.346436,-113.74862,-17.737757,155.97684
3975000000,-6.1636829,-87.385704,-87.975594,-126.01093,-81.737137,-99.640625,-17.462603,15.897363
3980000000,-3.7680542,-59.880394,-82.943535,86.418518,-83.537445,84.186371,-20.021547,84.334435
3985000000,-4.0437841,-100.13018,-74.93615,-59.893936,-74.802856,-54.848877,-20.147141,122.15137
3990000000,-5.2207103,-56.395351,-82.106056,-75.568771,-79.331497,-111.21867,-17.203939,-10.101524
3995000000,-3.1610718,-89.141647,-80.838371,129.25981,-80.590675,137.44798,-13.772721,110.59599
4000000000,-6.8199716,-81.458153,-78.424255,33.386818,-76.987457,37.622459,-22.009356,-36.334816
END

