!CSV A.01.01
!Keysight Technologies,N5247A,US56070710,A.10.64.09
!Date: Friday, November 18, 2022 23:33:41
!Source: Standard

BEGIN CH1_DATA
Freq(Hz),S33(DB),S33(DEG),S34(DB),S34(DEG),S43(DB),S43(DEG),S44(DB),S44(DEG)
3000000000,-3.9731135,-115.16345,-73.293877,-36.177967,-72.1661,-40.973179,-10.141613,-140.09465
3005000000,-6.1425657,-97.424133,-80.964302,121.77434,-83.089241,96.194038,-19.205265,-102.3601
3010000000,-4.3860712,-120.14835,-74.390434,-167.54462,-72.603973,-161.05226,-14.534081,162.79807
3015000000,-6.4537115,-106.99397,-71.365997,-40.668945,-72.437508,-43.417168,-9.6101351,-137.68929
3020000000,-4.5887675,-101.41724,-70.481522,-110.47863,-70.200348,-105.72685,-34.829002,-6.7536321
3025000000,-5.8881454,-119.94604,-78.595192,-79.309639,-79.940521,-93.645859,-10.086097,-175.1669
3030000000,-4.4685845,-97.945808,-74.225372,132.56345,-73.020576,123.39146,-13.331278,-130.01228
3035000000,-4.9311247,-118.24809,-79.353889,-171.64032,-77.393906,178.32733,-22.247765,160.62141
3040000000,-6.3471737,-118.18481,-80.166222,175.56464,-78.536255,178.56935,-9.4985142,-178.75754
3045000000,-4.7245178,-102.33984,-71.898102,58.369247,-71.774818,48.171219,-17.354052,-106.14983
3050000000,-6.7349372,-117.56039,-74.509048,1.6191357,-75.266754,5.7333827,-12.28295,148.94124
3055000000,-4.1333814,-107.13589,-74.91787,5.6556602,-75.122185,-9.8791637,-11.538722,-162.11827
3060000000,-5.2105627,-118.01738,-86.286491,-40.160233,-86.20372,-37.965313,-20.127434,-141.4711
3065000000,-7.4024782,-120.71944,-74.219391,8.9653759,-73.562561,0.57309908,-11.173245,148.39902
3070000000,-3.7385075,-110.51852,-85.000198,170.88039,-89.734871,147.96815,-11.81773,-143.13037
3075000000,-8.6590729,-119.94144,-75.328529,-162.6241,-75.154884,-178.25139,-18.581932,121.36976
3080000000,-4.3164091,-112.84689,-77.041214,-124.13242,-79.096626,-132.68425,-11.606963,165.19656
3085000000,-4.2061534,-122.99552,-76.751488,96.109497,-77.047447,77.230789,-14.37094,-145.96658
3090000000,-8.2275829,-112.3409,-74.567337,-179.8119,-73.996742,176.18692,-14.720074,109.36952
3095000000,-3.7531064,-126.49427,-87.272614,-64.559242,-87.003365,-118.17721,-9.6484756,-176.82491
3100000000,-8.1291637,-106.03115,-81.605392,98.842049,-82.174492,93.426331,-26.249737,179.48373
3105000000,-4.6044831,-119.72466,-79.78228,54.95734,-78.397362,38.827259,-14.039165,137.54951
3110000000,-5.2656617,-129.16829,-77.32225,-137.93564,-75.744553,-148.67375,-11.568868,179.07533
3115000000,-5.7155113,-106.08015,-76.006561,-39.573711,-77.280182,-51.787895,-30.943544,11.217583
3120000000,-5.4424849,-144.60864,-78.838753,114.15118,-78.135292,118.26156,-10.035643,143.37311
3125000000,-5.9042659,-109.72699,-89.963989,-106.39582,-90.651695,145.3165,-16.102043,-158.67726
3130000000,-6.4869699,-116.88548,-86.359848,-100.39847,-83.316124,-65.848732,-19.026056,111.9819
3135000000,-5.7928214,-135.73566,-75.721695,30.865065,-74.820976,23.538376,-10.872703,149.19711
3140000000,-4.7289433,-115.16046,-83.122581,162.91942,-82.324684,-175.52312,-19.165194,-125.79974
3145000000,-7.0098143,-141.27611,-77.816879,-34.43977,-78.689514,-27.456387,-12.779235,114.2636
3150000000,-7.5448546,-125.56316,-69.338417,176.02705,-69.241127,176.60027,-13.399611,178.1105
3155000000,-4.9782758,-118.88811,-89.709534,56.356358,-83.72802,28.471247,-26.299774,-167.71083
3160000000,-8.9202547,-134.46156,-80.490562,22.743572,-79.914154,-5.2254257,-12.172952,113.4909
3165000000,-3.867847,-124.52074,-76.46611,102.29583,-79.836731,85.992493,-12.85904,-166.34874
3170000000,-7.6604323,-149.5679,-81.153824,169.67024,-78.695564,-177.02042,-18.837526,82.005379
3175000000,-8.5472841,-119.79453,-78.793388,35.946548,-78.330505,33.193546,-13.239532,145.33286
3180000000,-4.8645549,-130.26846,-74.057022,-105.26144,-73.138542,-113.19146,-15.109464,-173.0444
3185000000,-10.733386,-122.79406,-75.422096,-123.75688,-76.487564,-123.87422,-19.210724,70.207451
3190000000,-4.1608858,-136.61617,-73.401802,42.350655,-75.455223,36.463295,-10.428082,158.89456
3195000000,-8.364646,-141.5479,-93.009514,-117.15168,-91.372101,-178.31374,-29.158394,-77.483276
3200000000,-9.2560301,-127.65972,-73.991333,-106.95267,-74.517746,-113.33167,-14.187929,116.23679
3205000000,-6.3215885,-148.88242,-76.79789,45.15704,-74.076767,32.41581,-13.925847,166.2263
3210000000,-7.4395227,-106.47926,-75.643631,63.000504,-75.944656,64.788498,-32.996876,-26.982389
3215000000,-5.0852728,-147.53743,-74.748276,-130.74783,-72.555687,-125.55893,-11.121773,125.10171
3220000000,-9.7512035,-147.8708,-75.849251,137.56197,-76.590866,134.00143,-16.246058,-165.87733
3225000000,-7.8992176,-126.37702,-75.204437,85.907425,-75.277855,78.222198,-21.421515,104.01428
3230000000,-8.8372431,-154.7206,-76.942482,-52.750057,-78.708191,-30.233952,-12.577172,132.33788
3235000000,-8.1546688,-121.00004,-74.914131,-106.20364,-76.632393,-101.5418,-16.597181,-142.51045
3240000000,-7.7471051,-143.32242,-73.318947,89.782974,-73.567574,88.339569,-13.807533,91.464409
3245000000,-8.9294882,-152.8275,-73.032433,-22.283915,-73.317719,-26.968477,-13.088586,170.35355
3250000000,-7.1040902,-134.48251,-84.260086,-93.907654,-81.227577,-65.29718,-25.17721,151.47809
3255000000,-13.087644,176.00238,-71.713646,168.73093,-73.616829,170.66899,-14.37635,102.42026
3260000000,-7.6009459,-112.76112,-71.976959,43.314598,-72.229523,34.463867,-11.772054,170.41835
3265000000,-7.0229044,-153.79283,-79.716675,-83.590134,-78.045937,-69.557381,-22.712719,44.85062
3270000000,-13.068626,-153.68105,-73.910713,-164.49187,-72.151176,-153.99635,-12.161662,135.87772
3275000000,-6.7400136,-149.20355,-77.047638,56.914974,-74.990395,49.89082,-17.380611,170.82535
3280000000,-19.247652,-176.38486,-73.860489,29.662607,-73.310287,32.395809,-20.44696,81.728447
3285000000,-8.0979872,-126.88525,-69.681648,-134.20468,-69.268715,-141.14847,-10.61814,135.25967
3290000000,-8.8863144,-149.3913,-72.651978,84.593292,-74.475914,75.84481,-24.586996,-148.13054
3295000000,-13.450636,-144.88559,-70.932098,69.66217,-69.923439,56.395012,-13.819798,104.09975
3300000000,-8.6833477,-166.1545,-72.298256,-108.48779,-72.099045,-108.4077,-13.364218,142.82462
3305000000,-18.386618,-110.84299,-76.747314,-149.75917,-76.138855,-152.73671,-23.476402,-164.96249
3310000000,-10.280003,-139.20174,-68.753059,55.234207,-69.027855,53.668377,-11.185873,101.66174
3315000000,-9.8703852,-165.90773,-70.96759,-58.215294,-71.079124,-58.231876,-14.796951,-178.8672
3320000000,-13.044248,-111.28027,-73.648048,-103.89337,-75.520271,-106.51248,-16.352863,82.686119
3325000000,-9.8635769,-173.01906,-71.789703,123.39024,-70.891945,120.5379,-13.683587,117.06697
3330000000,-16.608934,-118.92867,-74.507347,-60.092552,-75.172974,-81.838387,-15.183526,161.24533
3335000000,-13.506913,-133.89633,-71.954033,-77.799965,-72.47084,-75.483231,-15.370892,63.350311
3340000000,-14.930108,177.29353,-67.968384,128.56915,-67.566483,126.89468,-10.761847,138.45271
3345000000,-10.078076,-114.71658,-76.610924,74.576454,-73.65921,74.819458,-27.624599,126.11532
3350000000,-13.694827,163.15054,-70.356651,-48.965187,-70.672318,-64.233147,-13.905437,86.002563
3355000000,-17.778633,-122.80379,-74.90509,-163.10553,-73.028458,-158.55925,-12.43972,140.83441
3360000000,-11.23163,-137.84038,-78.058151,49.228497,-77.519806,38.96973,-21.271284,17.695286
3365000000,-19.556606,68.645195,-70.066643,-19.516735,-69.481239,-24.864225,-11.379716,105.70277
3370000000,-8.5820484,-120.29258,-72.492676,-112.62817,-71.804306,-124.70214,-17.984648,132.81273
3375000000,-19.068932,156.22646,-73.145493,124.77531,-72.378326,129.062,-20.521288,69.043121
3380000000,-18.333694,-129.33562,-73.11351,38.809139,-72.521942,37.838539,-10.794137,104.13223
3385000000,-14.638945,-163.18777,-72.531631,-97.592896,-73.51355,-103.23416,-24.022385,-146.33052
3390000000,-13.901696,-26.897585,-74.465652,149.73373,-74.897141,139.45129,-12.550129,72.788361
3395000000,-11.14834,-146.35667,-75.503891,81.194763,-75.908066,80.846329,-15.730263,120.24796
3400000000,-21.010443,-134.65691,-72.477211,-48.588974,-71.572067,-35.850559,-28.60087,147.31621
3405000000,-18.272785,-94.764519,-72.878983,-160.73262,-72.167854,-169.01288,-11.348242,63.971687
3410000000,-18.436092,153.33199,-71.080986,81.757256,-71.716347,86.673882,-15.336338,152.74376
3415000000,-10.457285,-45.902084,-74.174683,-52.571365,-77.594238,-68.591187,-16.184187,42.463963
3420000000,-14.261678,-143.87704,-72.619247,-79.115204,-71.674507,-84.664543,-15.298955,89.052132
3425000000,-27.24283,-157.52499,-72.429207,129.75336,-72.433281,128.62726,-17.739573,141.01387
3430000000,-14.9405,-83.668892,-77.56958,-2.8500624,-79.682793,10.771235,-15.025474,17.705629
3435000000,-22.881126,108.37033,-70.94838,-105.06612,-72.691887,-112.37364,-12.512324,120.21988
3440000000,-10.551942,-66.002029,-70.748055,110.46989,-71.651428,101.40682,-22.719213,-7.8253555
3445000000,-21.341297,-118.80875,-74.511765,87.840561,-73.568855,90.613464,-16.313997,61.052242
3450000000,-19.111498,-40.227852,-71.426025,-72.080681,-71.487083,-61.875362,-15.198516,107.45692
3455000000,-12.191602,-119.09402,-78.152817,-113.13339,-77.571266,-153.73512,-21.541283,-51.429089
3460000000,-15.671523,36.181728,-72.865479,109.55762,-74.571861,98.987221,-12.624879,76.519882
3465000000,-9.6145658,-70.113205,-75.931862,-55.838482,-75.092522,-45.877434,-22.502028,170.98302
3470000000,-19.624449,-126.22189,-80.18528,-126.83363,-77.040146,-138.15915,-21.345068,19.763582
3475000000,-12.706394,-36.889534,-71.251144,100.75231,-70.124916,95.276085,-14.642118,82.912933
3480000000,-12.650665,-123.8482,-76.076263,66.030556,-80.390648,65.442909,-21.108274,-129.08353
3485000000,-12.302462,1.512199,-68.651535,-105.45636,-69.776772,-107.01756,-14.581261,42.93235
3490000000,-12.269323,-87.952911,-74.063553,117.05584,-76.829056,109.28783,-19.910757,126.5851
3495000000,-18.32065,-56.769432,-79.02726,58.045235,-75.967888,43.543983,-38.629604,-169.12344
3500000000,-10.470332,-53.414684,-78.367775,-94.567307,-78.668465,-95.118828,-15.194795,41.277893
3505000000,-15.004916,-142.03584,-73.38839,-157.09135,-75.080276,-159.31015,-14.895453,153.69908
3510000000,-11.059186,-24.557203,-71.708717,63.536327,-71.644936,59.593121,-18.594929,-12.018199
3515000000,-12.942211,-73.462822,-70.084099,-28.023613,-70.497993,-35.504463,-19.744436,98.583435
3520000000,-20.342796,-69.016502,-71.425041,168.09682,-71.761566,161.03925,-22.863255,139.18948
3525000000,-8.0031471,-62.1465,-78.589172,171.49643,-75.450119,-166.79352,-19.838209,-23.10681
3530000000,-20.456802,-158.15996,-69.644249,-19.743052,-70.625961,-13.15446,-13.18556,103.60589
3535000000,-9.0116062,-42.207012,-77.048927,-122.06723,-79.502754,-129.74915,-21.985882,-105.0089
3540000000,-12.527642,-91.835739,-70.369682,140.35039,-70.975822,130.03325,-18.919312,68.063858
3545000000,-14.014769,-10.540703,-70.96431,-16.010609,-71.598259,-11.944059,-19.389027,116.87111
3550000000,-7.299911,-81.660728,-78.892029,-52.706387,-77.347977,-56.074112,-21.705252,-123.91863
3555000000,-23.015358,0.81926608,-70.486984,123.04287,-70.307297,118.25142,-15.480546,63.333618
3560000000,-9.4971619,-70.078629,-80.616814,77.789162,-77.924286,83.779327,-18.797199,174.83614
3565000000,-14.193216,-81.908524,-71.568146,-76.893791,-70.890831,-80.864128,-27.401402,32.59362
3570000000,-11.010779,-25.111898,-71.746971,136.74785,-72.101242,140.5497,-17.64328,64.178535
3575000000,-9.0326891,-95.947388,-78.439041,43.146385,-78.360458,17.878599,-15.710828,166.65038
3580000000,-13.348744,-44.163837,-71.256088,-87.03788,-71.110031,-83.531952,-17.031355,7.2232265
3585000000,-10.458009,-64.152,-86.40625,158.71266,-87.717232,130.20421,-14.513432,130.46143
3590000000,-13.746247,-112.97565,-79.137535,47.559952,-77.807472,47.604588,-32.850098,-135.03967
3595000000,-7.2136593,-29.998993,-73.541443,-106.22652,-72.921684,-109.16928,-21.077635,38.701088
3600000000,-10.646302,-106.58224,-71.487877,113.28333,-71.539047,104.34796,-15.001431,124.8689
3605000000,-10.284451,-47.329315,-72.24411,-7.3874702,-71.936127,-7.5307422,-20.629135,-59.094818
3610000000,-9.6473083,-72.247688,-77.664116,-114.41801,-76.820709,-119.60594,-16.068584,83.515121
3615000000,-23.22624,-109.00791,-71.211098,120.26343,-70.505257,111.51865,-20.3894,131.92253
3620000000,-6.715167,-48.303547,-75.262268,0.71625733,-74.925285,-22.854866,-26.373682,-61.592228
3625000000,-11.747421,-92.067215,-70.098526,-105.57487,-70.699089,-116.1255,-12.842099,85.719795
3630000000,-13.579114,-42.655796,-68.6894,116.34779,-68.233292,115.33932,-18.194975,-135.02968
3635000000,-6.3727388,-85.005981,-76.606705,29.110201,-78.968628,19.968931,-16.482569,55.840836
3640000000,-17.11965,-1.0197294,-68.664757,-99.528893,-69.30619,-108.86613,-21.972887,114.80911
3645000000,-6.2598991,-70.433807,-69.392799,142.36491,-69.745529,150.30373,-22.034658,-164.29202
3650000000,-18.518364,-75.962875,-72.403732,18.787798,-71.372276,16.86426,-14.351288,33.518269
3655000000,-6.9228492,-40.924648,-80.014359,-66.849808,-81.078148,-71.13047,-16.264631,154.81076
3660000000,-7.8413801,-105.13243,-76.600067,144.6993,-72.844734,136.7177,-22.024778,15.969481
3665000000,-12.693626,-14.941566,-70.744316,78.729706,-70.527924,71.416595,-22.374607,58.554188
3670000000,-9.3876123,-79.163246,-71.267578,-17.550735,-70.448418,-25.361563,-16.084946,138.45918
3675000000,-11.581392,-49.018257,-74.791908,-133.56001,-75.156006,-153.26318,-16.129114,-34.59264
3680000000,-6.722682,-61.577972,-79.73085,137.00555,-77.438881,151.67628,-13.861787,112.73076
3685000000,-11.148696,-110.86748,-75.176392,2.2927339,-74.812309,-10.167533,-24.167126,-73.177223
3690000000,-9.8435354,-28.633291,-76.12468,-106.88535,-76.849007,-112.3736,-24.782953,29.342493
3695000000,-9.1958179,-67.704277,-68.394585,149.89651,-68.436478,150.46179,-16.528429,91.262367
3700000000,-11.844842,-64.029373,-72.023491,37.840149,-71.352478,26.168287,-18.411144,-107.39903
3705000000,-6.2784867,-60.071289,-72.959991,-82.07972,-71.250084,-75.392792,-15.378751,61.500027
3710000000,-16.540442,-133.81052,-80.844994,-174.00096,-82.064423,172.26637,-23.053431,175.37875
3715000000,-5.6499786,-39.916424,-73.888969,110.61938,-73.470612,99.885628,-37.608589,-86.541092
3720000000,-9.7421932,-90.019264,-70.074928,-44.168507,-70.669922,-47.130547,-17.719183,58.63488
3725000000,-11.936714,-38.915237,-77.282768,-111.9085,-75.554405,-118.1329,-17.685675,-160.52884
3730000000,-5.5514007,-69.555305,-70.758698,91.937782,-69.744392,96.94297,-18.694229,16.778927
3735000000,-24.85836,-37.875832,-77.640358,-97.846687,-76.689964,-112.4401,-21.838684,128.26863
3740000000,-5.0095873,-55.168423,-70.181412,-82.168472,-70.268684,-76.183678,-21.382666,176.36279
3745000000,-10.971278,-89.183838,-73.658745,123.79025,-73.57222,122.34616,-18.55361,-4.8072648
3750000000,-9.7361317,-31.149036,-75.119232,75.920975,-80.726158,71.269455,-14.668042,141.94336
3755000000,-6.958591,-87.981201,-82.451691,-74.822121,-82.118958,-20.560486,-21.769176,-56.594337
3760000000,-8.9338322,-27.801847,-73.623688,126.60258,-72.988762,125.23522,-25.260702,109.8826
3765000000,-5.9669685,-72.07814,-75.669968,49.830589,-75.503067,57.544426,-20.479223,137.00606
3770000000,-11.366132,-83.996559,-70.040466,-33.036114,-69.213348,-37.922527,-19.441442,-82.045601
3775000000,-7.6422758,-27.127705,-75.331108,-153.6882,-73.416389,-147.64337,-14.124112,94.053108
3780000000,-7.0016975,-85.475815,-77.104774,-150.67682,-79.398941,-147.75148,-18.466438,-136.21031
3785000000,-7.8904133,-38.323742,-74.487617,-10.442166,-74.316666,-7.0646,-26.192717,67.486977
3790000000,-6.5194526,-71.471436,-78.719353,-143.20097,-76.912239,-131.6552,-18.825666,103.33749
3795000000,-12.23727,-85.749161,-75.862183,148.87419,-76.021797,160.59253,-15.909178,-151.32329
3800000000,-5.1128941,-37.690876,-78.587402,25.417038,-78.105873,28.367105,-17.92341,47.12336
3805000000,-9.2890291,-89.47319,-77.987373,-93.285797,-80.292587,-86.877052,-17.006577,170.72128
3810000000,-5.9546509,-45.360062,-79.123192,162.75432,-80.471077,140.54713,-29.988609,119.95997
3815000000,-5.6077213,-79.818031,-72.533371,70.103851,-72.229424,73.152969,-24.221354,51.327393
3820000000,-15.942825,-25.206709,-73.912926,-3.3822401,-73.46122,-16.465866,-14.077651,152.98007
3825000000,-3.3663487,-60.071522,-90.127441,-131.49106,-83.742699,-169.16689,-20.845417,-18.99675
3830000000,-11.576489,-70.91703,-81.937454,115.29044,-83.61039,97.91124,-13.992442,129.22447
3835000000,-5.4248581,-55.293079,-79.444321,-78.535568,-78.951454,-81.041847,-22.295425,-179.02872
3840000000,-6.3920159,-86.879837,-75.354774,-111.47509,-75.370949,-117.39921,-32.748264,-15.756377
3845000000,-9.3063774,-25.799774,-79.244873,112.01612,-79.314766,127.55318,-13.796266,111.41599
3850000000,-3.2493124,-74.536697,-74.735497,43.994732,-73.466377,41.25827,-19.486345,-117.04737
3855000000,-10.532522,-61.173244,-79.805077,-73.139183,-77.922218,-61.513565,-17.063818,80.99308
3860000000,-4.3339314,-60.467083,-79.497757,-176.32834,-77.719215,-173.30501,-18.529383,123.48189
3865000000,-8.5487576,-86.256256,-79.259712,82.99321,-76.315239,79.286049,-23.671267,-162.81496
3870000000,-5.0508142,-39.138702,-85.227638,-152.4007,-85.386086,-141.96361,-13.917127,77.942322
3875000000,-4.3520727,-84.851189,-74.458405,-154.35912,-74.507957,-156.2532,-16.166899,-179.59334
3880000000,-9.7445707,-63.063084,-83.81234,86.445007,-85.333771,70.301422,-21.497046,63.167126
3885000000,-3.8847296,-56.708939,-76.052437,8.8506193,-75.387321,6.857636,-19.554234,87.569923
3890000000,-7.2514262,-88.778702,-80.328735,-135.01582,-80.737885,-141.11974,-15.133408,164.63904
3895000000,-4.5602741,-51.908669,-77.442337,126.02319,-75.329803,150.5688,-14.551018,16.297609
3900000000,-4.8631239,-82.901207,-93.46611,-39.537701,-87.454575,-29.515081,-12.392908,135.12405
3905000000,-7.8303132,-50.528992,-78.387733,-12.791767,-78.862122,-10.331758,-27.510044,22.092058
3910000000,-3.2076607,-69.616058,-73.28688,138.24733,-73.598305,125.23078,-20.627167,72.13739
3915000000,-9.7326841,-80.446426,-85.333214,-5.9362812,-98.632469,90.904556,-14.036487,117.92522
3920000000,-2.5805707,-57.961906,-78.975395,-59.441681,-77.237137,-80.48983,-20.805532,-52.676186
3925000000,-6.9638267,-94.396439,-81.918312,-172.7832,-78.370056,-143.07529,-13.088863,97.529167
3930000000,-5.746511,-48.488533,-73.848274,103.39104,-74.107018,96.289474,-31.116886,128.69084
3935000000,-2.5936987,-85.353439,-86.729561,-8.2025595,-83.62912,-15.049113,-29.648603,44.73629
3940000000,-10.025342,-56.640812,-88.03968,-163.26578,-89.270615,-118.44786,-12.526587,77.815216
3945000000,-2.6587248,-73.334129,-79.104698,20.775749,-84.014427,26.154926,-18.534397,-144.6468
3950000000,-6.1809521,-80.942726,-77.30381,36.325562,-78.267143,25.531771,-13.217448,56.859886
3955000000,-5.1265111,-59.433884,-73.066093,-105.46336,-72.957802,-107.21526,-21.409691,148.64941
3960000000,-3.3321512,-88.929832,-82.377434,120.27582,-78.572136,129.86563,-25.920294,93.664581
3965000000,-8.3512592,-57.825077,-78.594887,109.04295,-78.228043,91.616653,-15.902585,45.980263
3970000000,-2.458823,-78.422424,-88.842545,-90.375893,-86.400505,-113.97771,-17.743345,155.96825
3975000000,-6.1331434,-87.686623,-93.166946,-128.04352,-88.167656,-170.84634,-17.462309,15.887024
3980000000,-3.7870734,-59.99482,-77.893089,60.413551,-82.749596,81.60141,-20.021484,84.261459
3985000000,-4.0232348,-100.30391,-76.392014,-55.762321,-75.434753,-75.56662,-20.148634,122.15778
3990000000,-5.2425556,-56.626808,-84.967903,-99.178276,-85.289474,-70.098915,-17.199892,-10.096701
3995000000,-3.1561236,-89.264122,-80.318352,160.5305,-80.440903,133.52882,-13.7738,110.57563
4000000000,-6.8152795,-81.938087,-78.586777,43.858429,-79.880035,35.109886,-22.001852,-36.399944
END

