!CSV A.01.01
!Keysight Technologies,N5247A,US56070710,A.10.64.09
!Date: Sunday, November 20, 2022 21:40:38
!Source: Standard

BEGIN CH1_DATA
Freq(Hz),S33(DB),S33(DEG),S34(DB),S34(DEG),S43(DB),S43(DEG),S44(DB),S44(DEG)
3000000000,-4.2177758,-63.237225,-54.016529,-61.437607,-54.747143,-52.082539,-17.807972,-154.39301
3005000000,-6.2833157,-89.231194,-55.212528,-164.42279,-52.930946,-164.17987,-18.475719,-162.20395
3010000000,-2.6414418,-66.814453,-55.66037,129.96341,-53.079971,121.5379,-16.934362,-166.70634
3015000000,-5.7051177,-74.208855,-52.64566,31.333008,-53.115711,32.364204,-16.611393,-171.24643
3020000000,-4.9519882,-83.356071,-54.75708,-56.716408,-55.780731,-39.18203,-17.42325,-173.19911
3025000000,-3.0027184,-66.909233,-58.207741,-150.82002,-55.11108,-146.89297,-16.177046,-176.46832
3030000000,-7.4076071,-76.230484,-57.717834,138.5038,-59.270103,131.43881,-16.717859,-176.95605
3035000000,-2.8229115,-78.335899,-58.176731,58.840317,-59.453682,71.252182,-16.303213,-179.80569
3040000000,-4.6049767,-75.564842,-63.415131,-13.958411,-60.64603,-5.0295382,-16.174145,175.92697
3045000000,-6.6845617,-76.135353,-64.761734,-70.37928,-60.287807,-73.190269,-16.435751,168.93617
3050000000,-2.3105807,-81.973343,-58.631954,-128.51941,-61.064632,-163.64774,-15.128549,164.3954
3055000000,-6.9010859,-62.991795,-59.333694,132.01109,-57.389977,131.65773,-16.13843,165.87381
3060000000,-3.3424635,-84.727852,-56.469135,59.934959,-53.978039,52.103725,-15.940129,165.8166
3065000000,-4.4343262,-82.778946,-53.734844,-29.767866,-55.764572,-28.281284,-15.556596,161.22427
3070000000,-5.7139235,-65.90004,-54.913212,-114.53944,-54.439018,-109.9737,-15.916914,163.90602
3075000000,-3.67871,-93.596512,-54.619198,155.14688,-53.733425,150.74925,-15.556056,153.46622
3080000000,-4.5573335,-66.608475,-53.441582,58.302509,-53.847752,77.99041,-15.773718,153.814
3085000000,-4.8949304,-85.152939,-54.457672,-9.3110571,-53.24128,-20.415003,-16.005413,149.95532
3090000000,-4.5428619,-92.756462,-55.771503,-122.03899,-55.471348,-102.31653,-16.020725,145.13957
3095000000,-3.7973304,-64.570984,-53.371582,161.93202,-53.535645,168.83847,-15.594106,152.14604
3100000000,-5.6472101,-101.81763,-53.190609,81.535301,-55.188026,78.603622,-15.456287,145.49901
3105000000,-3.6913307,-78.481392,-56.381653,-9.7814131,-53.397758,-5.2442985,-15.8285,146.09447
3110000000,-5.1072402,-77.452507,-55.799595,-95.503464,-53.955307,-90.126602,-15.627146,142.59676
3115000000,-5.841784,-94.624359,-56.043873,177.10312,-55.688297,179.50107,-16.643145,136.09128
3120000000,-2.7850022,-76.952621,-59.304096,100.00964,-60.756496,93.961433,-15.795197,136.89626
3125000000,-7.7997804,-93.603874,-60.256905,20.076653,-63.029007,35.797031,-16.605072,137.9274
3130000000,-4.6035914,-86.187386,-57.779362,-44.788433,-59.271114,-21.928566,-16.26988,136.35678
3135000000,-3.4709239,-82.957191,-59.481594,-96.144867,-60.410885,-97.385612,-15.457846,133.99312
3140000000,-9.2363577,-90.171265,-61.346996,-178.20677,-60.390568,167.8898,-16.405451,133.77075
3145000000,-2.442153,-90.536293,-61.81937,94.078804,-56.821869,105.45081,-15.742098,130.12003
3150000000,-7.3285565,-84.670998,-53.326088,7.8606811,-55.208057,31.094593,-16.7974,135.75909
3155000000,-6.0995369,-89.227455,-52.86031,-64.481285,-54.129601,-64.633247,-17.336016,128.97392
3160000000,-3.2973642,-93.456856,-53.980915,-163.15518,-55.443268,-146.30336,-16.774872,129.39508
3165000000,-8.2485209,-71.605247,-53.063187,117.70622,-53.358501,131.10544,-16.358229,129.77541
3170000000,-3.8715861,-105.29946,-52.223129,27.667723,-52.912006,39.417797,-16.382858,125.52129
3175000000,-5.4153023,-80.28199,-53.779671,-56.186653,-52.770382,-62.919224,-16.23674,126.19396
3180000000,-7.0542521,-88.662132,-51.690525,-140.0556,-52.477039,-154.74733,-16.844908,131.34972
3185000000,-4.7880998,-106.93204,-50.948658,122.30282,-50.558189,136.37077,-17.291424,128.50661
3190000000,-5.6735015,-72.661469,-53.162079,37.512852,-53.257736,39.15757,-17.289673,133.76839
3195000000,-6.3675809,-109.88458,-53.177719,-35.749104,-56.079483,-49.961651,-18.209408,124.95577
3200000000,-5.7179251,-97.142151,-54.732513,-133.47476,-53.385838,-142.91551,-16.400848,122.7483
3205000000,-6.1562743,-80.229599,-57.982315,145.62512,-58.434917,146.72125,-17.106552,120.44859
3210000000,-7.0796256,-119.72696,-58.795372,69.634682,-57.659603,83.972343,-17.494497,118.62959
3215000000,-4.4306755,-84.820206,-59.012844,-7.9830456,-59.62965,22.031227,-16.186081,120.56411
3220000000,-8.9814987,-101.14752,-58.480907,-70.201187,-58.75573,-84.894112,-16.792995,128.28444
3225000000,-6.3782506,-105.54497,-56.777618,-138.96761,-57.452225,-133.61696,-16.576664,124.64216
3230000000,-4.7813735,-88.693665,-56.241692,143.25739,-56.61171,145.17058,-16.825251,124.22374
3235000000,-12.572001,-121.51894,-54.267586,53.878349,-53.767876,46.630951,-16.790415,124.57808
3240000000,-4.3047204,-95.847336,-51.306355,-17.54306,-53.584389,-33.525906,-16.741632,117.52248
3245000000,-7.9251623,-100.85124,-51.027164,-106.73936,-51.113003,-113.97101,-17.123844,126.45373
3250000000,-10.757449,-99.407745,-52.984497,145.31892,-50.480854,154.00566,-16.768682,116.5982
3255000000,-3.9085331,-105.74561,-51.271935,58.270981,-50.468235,69.216629,-16.107344,120.1708
3260000000,-13.448346,-75.036552,-51.341759,-24.514866,-49.300617,-25.59882,-15.568981,123.39637
3265000000,-5.6946793,-109.72866,-51.959061,-113.49443,-52.463497,-119.00849,-16.47501,117.53596
3270000000,-7.7925143,-105.23883,-52.671513,144.22861,-51.676861,151.73335,-15.74669,122.41264
3275000000,-10.708074,-75.474045,-55.865147,68.201416,-52.362602,61.834316,-16.698776,115.2375
3280000000,-5.2855759,-125.57913,-56.318985,-20.667334,-54.425732,-9.6302242,-16.413086,119.45549
3285000000,-9.0390806,-75.108574,-56.516792,-82.931381,-59.474346,-112.40272,-15.441774,115.61427
3290000000,-10.012863,-111.71135,-59.097492,167.44138,-57.688198,151.13872,-16.050808,115.67606
3295000000,-7.9183006,-115.37756,-61.038792,86.298843,-56.947468,116.1092,-14.967368,111.3834
3300000000,-8.458621,-72.142532,-58.302185,59.144405,-56.664593,56.902565,-15.134884,113.45492
3305000000,-9.048522,-140.85255,-56.004086,-24.249298,-56.897133,-21.890064,-15.658275,116.05646
3310000000,-8.1921492,-87.27533,-57.364548,-114.49551,-56.072906,-112.43639,-15.215505,111.757
3315000000,-11.420571,-100.48952,-53.833874,150.92566,-52.905144,166.34917,-16.042255,114.34001
3320000000,-12.492032,-136.98276,-51.518101,95.513084,-52.096859,99.959976,-14.957057,107.96166
3325000000,-5.6168413,-82.969131,-52.974007,0.29182839,-51.645905,-2.546212,-15.211398,103.01491
3330000000,-16.596031,-161.25089,-50.932747,-90.772911,-53.137367,-89.42466,-14.85911,108.17755
3335000000,-9.7853813,-99.736069,-51.58857,-175.1656,-49.862225,-171.68111,-15.128288,99.841141
3340000000,-9.6122799,-97.74308,-50.342819,85.243866,-49.690422,99.458427,-14.529921,107.50275
3345000000,-30.11302,-135.00899,-52.259762,7.7335682,-50.158661,4.9578166,-15.836094,102.85587
3350000000,-6.0147314,-105.60936,-51.462154,-89.788658,-51.951492,-81.488762,-15.057313,98.609917
3355000000,-22.295439,-60.362858,-52.905697,-174.28548,-51.761505,-177.93462,-14.809381,102.63622
3360000000,-11.681503,-111.3157,-53.63662,105.03044,-54.534531,83.574524,-16.039827,90.899147
3365000000,-9.8289928,-109.85046,-55.361469,15.43848,-53.677204,12.455776,-14.753261,89.73175
3370000000,-15.38185,-15.770229,-56.719158,-86.902428,-58.92601,-56.747379,-14.568668,93.985023
3375000000,-8.6459808,-125.10591,-57.855289,-156.98816,-58.055573,-172.90607,-15.40619,93.231689
3380000000,-12.644698,-77.681549,-60.69091,129.60855,-60.086823,153.80022,-14.955942,92.228767
3385000000,-19.353497,-63.907955,-57.231167,71.256691,-65.874649,92.985626,-15.817055,91.80912
3390000000,-10.799216,-130.61281,-57.969322,11.754516,-54.529263,-7.330749,-14.937149,81.520348
3395000000,-10.41705,-40.407368,-54.070908,-69.649208,-58.074055,-72.199684,-15.185992,87.674606
3400000000,-15.73952,-130.3791,-52.557549,-154.50247,-53.253616,-154.05241,-16.739248,82.749809
3405000000,-12.621974,-100.06235,-53.657993,119.20878,-51.212093,110.89307,-15.380211,77.347717
3410000000,-12.055153,-39.609394,-52.555611,14.848557,-52.657295,23.247662,-15.492506,83.764801
3415000000,-16.614655,-155.51025,-52.915268,-61.691853,-51.05455,-62.126186,-16.26137,78.281189
3420000000,-8.65942,-62.225613,-52.48941,-170.17558,-50.838638,-169.44229,-15.462975,79.62809
3425000000,-28.057116,-100.90252,-52.726124,101.27021,-52.984085,110.59429,-16.556644,79.746437
3430000000,-17.760023,-65.255608,-52.856354,18.44075,-55.404541,26.300072,-17.354404,73.223785
3435000000,-8.5561361,-73.467766,-55.924976,-76.558708,-52.785519,-73.301331,-16.835855,76.992447
3440000000,-16.738218,53.468483,-57.612328,-163.62918,-56.10453,-166.9129,-18.26803,70.145653
3445000000,-9.5010319,-87.811211,-56.943741,136.88689,-57.077354,145.41061,-16.185379,68.716499
3450000000,-13.961563,-18.792204,-63.909782,71.796883,-59.758663,23.844778,-16.7644,76.35865
3455000000,-18.852701,-41.932129,-60.799347,-28.581707,-56.11676,-15.274052,-18.555813,71.861931
3460000000,-10.042186,-95.138527,-58.52174,-89.556206,-58.405186,-85.309608,-16.771622,66.619186
3465000000,-10.11066,4.1701722,-55.840641,-174.06502,-57.412998,-160.73022,-18.793856,79.910179
3470000000,-13.78443,-104.47225,-58.726101,116.78011,-56.127048,127.71125,-19.289274,71.391853
3475000000,-13.207541,-48.999588,-55.873394,36.222851,-56.493267,18.193909,-18.999134,71.619446
3480000000,-9.8357553,-10.195944,-55.680592,-48.035393,-54.021587,-65.500938,-19.572382,71.806358
3485000000,-11.294807,-118.45963,-56.691807,-140.41415,-54.777821,-135.84769,-18.499372,60.993214
3490000000,-10.376641,-15.469117,-53.85268,143.27371,-52.623596,137.3867,-19.507891,76.314087
3495000000,-15.287555,-34.749802,-55.802288,41.780762,-55.854153,51.215511,-19.624537,65.421837
3500000000,-15.469699,-78.908638,-57.433407,-42.763065,-57.283905,-23.205008,-19.394773,71.434601
3505000000,-7.2377939,-29.32649,-54.867336,-115.31716,-54.434383,-117.12634,-18.847542,88.754356
3510000000,-22.346458,-159.61559,-54.926903,152.89821,-57.542809,159.79933,-21.765886,75.972061
3515000000,-8.8646412,-42.367222,-58.060184,74.847824,-55.896267,66.397209,-20.384153,74.99881
3520000000,-12.454658,-33.438992,-55.229794,-28.688137,-59.99535,-21.007851,-20.539484,73.677582
3525000000,-19.794054,-19.820282,-58.214039,-107.28315,-59.512508,-113.6943,-21.313974,74.914352
3530000000,-6.3792467,-60.393742,-58.710392,172.07179,-60.168415,162.80409,-18.964493,78.576332
3535000000,-14.564939,26.261372,-59.184841,86.014763,-58.39333,94.544724,-21.071308,88.307297
3540000000,-10.481895,-62.668156,-66.284653,7.5756474,-65.163071,20.645571,-19.404085,85.530952
3545000000,-9.413806,-43.155922,-68.142822,-105.2966,-63.775959,-118.56292,-19.821188,86.199478
3550000000,-12.927206,2.3960128,-69.337761,-96.348511,-62.835999,-125.19646,-21.533768,88.617348
3555000000,-9.4254065,-84.331512,-63.259693,-177.12378,-65.545746,154.72723,-20.353491,79.958366
3560000000,-8.1140451,-14.077597,-62.472965,78.806923,-59.95755,67.921951,-20.580265,89.227043
3565000000,-15.658565,-51.483028,-55.782307,11.274116,-61.017746,-10.562589,-21.390755,88.813454
3570000000,-9.252327,-67.31366,-58.276043,-67.901733,-56.790337,-77.284271,-19.647867,73.47876
3575000000,-8.2439528,-1.6031308,-59.871422,-164.66988,-58.850517,-171.416,-18.405369,94.13427
3580000000,-12.031754,-88.450905,-60.651947,96.925224,-54.653469,94.425156,-20.533968,79.532242
3585000000,-7.9030232,-30.344677,-58.30431,5.4017305,-58.795235,5.8659983,-19.566156,89.810745
3590000000,-11.102835,-29.973158,-56.550369,-84.676064,-62.517456,-75.666618,-20.682055,89.333458
3595000000,-15.700847,-87.159431,-54.579426,-178.90359,-56.641003,179.69441,-20.039251,78.539238
3600000000,-5.2324967,-26.081665,-60.01754,93.812851,-56.917732,100.1917,-19.116888,91.350571
3605000000,-19.62462,-52.008141,-58.601669,22.578325,-58.822063,9.0042467,-20.292828,79.863762
3610000000,-9.4302826,-48.152527,-55.938137,-85.800774,-62.056362,-83.125793,-19.080992,74.453812
3615000000,-7.7972198,-35.340775,-62.212246,-170.1665,-63.95652,-170.85352,-18.560486,85.289162
3620000000,-20.472378,9.0752487,-70.765373,146.39923,-63.028973,157.89842,-20.969296,82.889664
3625000000,-5.1795435,-56.219025,-67.717354,150.24359,-71.333443,41.93523,-18.623131,84.121643
3630000000,-12.146772,3.9927609,-65.301857,37.502384,-83.85955,36.784588,-20.585812,87.226311
3635000000,-10.880013,-55.609257,-65.053085,-40.184559,-62.015388,-21.113325,-19.827433,74.326302
3640000000,-6.9587574,-48.763733,-59.042675,-95.817795,-57.757698,-133.10069,-19.145046,80.723045
3645000000,-11.146944,1.3183244,-58.060959,139.53194,-58.517418,153.22694,-21.386314,77.248619
3650000000,-9.0994387,-69.965988,-58.310093,50.335648,-58.352585,46.588623,-20.580133,66.109406
3655000000,-7.7092671,-23.720173,-57.146214,-61.084717,-57.462395,-39.100388,-19.062231,73.921524
3660000000,-11.834764,-21.722433,-55.01593,-145.76918,-55.633846,-125.44626,-20.586329,79.859314
3665000000,-8.3003807,-73.697746,-56.191334,121.95915,-55.854378,123.50847,-19.480165,71.155922
3670000000,-7.8118,-6.6492214,-62.231174,26.896891,-58.974487,38.485222,-19.934553,78.323868
3675000000,-12.618853,-57.483295,-60.391903,-57.946224,-57.118587,-52.61031,-21.232697,71.629204
3680000000,-8.3175211,-52.828159,-63.366486,-152.17551,-61.232883,-135.13057,-20.587845,73.924034
3685000000,-7.0109897,-10.87255,-63.679802,82.724281,-64.34655,128.62836,-23.279457,79.254181
3690000000,-13.957851,-94.389664,-61.852093,9.4802971,-72.153786,76.89856,-20.997885,63.215145
3695000000,-4.8466926,-25.187172,-78.911362,-116.4166,-75.06176,-107.16509,-19.637438,71.237106
3700000000,-14.604313,-39.424866,-69.552261,-149.29991,-70.781013,162.37566,-22.184155,80.72403
3705000000,-11.27969,-44.506145,-64.225075,-123.71748,-62.172802,-115.13117,-20.840525,60.786846
3710000000,-5.7793794,-31.718142,-61.436001,158.51981,-64.82618,177.75705,-21.594372,81.634323
3715000000,-14.922,-1.3024513,-65.455223,116.01747,-62.778053,97.299866,-21.875105,81.010956
3720000000,-5.6408553,-57.719212,-62.736439,-31.357887,-60.072685,7.2154274,-23.335644,82.901596
3725000000,-9.6276064,-5.5038662,-58.911518,-100.33327,-58.528358,-99.906303,-22.894342,82.98774
3730000000,-11.52338,-30.335896,-60.553875,162.44292,-62.115223,-170.87079,-22.736652,63.120628
3735000000,-5.8494921,-53.135345,-59.6287,65.184311,-61.499557,74.644432,-20.961702,81.784218
3740000000,-8.1394272,1.357,-57.451126,-11.374163,-61.605129,-1.6707973,-23.195938,94.100227
3745000000,-9.247221,-70.059723,-66.482872,-103.78545,-58.588268,-104.94102,-25.206764,78.459244
3750000000,-6.6876869,-27.969955,-62.276821,-175.17599,-63.711388,-173.06165,-20.888981,91.706215
3755000000,-9.5931902,-6.016943,-68.7677,68.286911,-65.991531,55.154152,-23.756317,93.5205
3760000000,-6.9017272,-69.764587,-71.354698,-6.5968719,-61.715652,167.89349,-22.810703,94.419144
3765000000,-6.2617145,-10.574888,-69.092262,57.509113,-67.331375,-34.36396,-22.331734,81.84697
3770000000,-10.745461,-39.313328,-76.481194,33.09848,-60.981934,-140.7627,-24.67572,93.409706
3775000000,-8.6587715,-52.342175,-64.852325,-150.07074,-64.621902,-125.35558,-20.563023,86.764122
3780000000,-4.8308163,-10.284454,-66.523781,148.72235,-68.906624,110.20424,-22.147621,107.58643
3785000000,-12.919384,-76.748955,-64.073685,45.378014,-62.996536,-13.773512,-21.299896,93.837082
3790000000,-5.0235238,-29.182848,-59.379608,-70.90818,-59.780079,-42.273418,-19.809879,95.757492
3795000000,-8.5322304,-23.439867,-62.641376,-158.84506,-68.743599,-118.10918,-20.746166,114.94093
3800000000,-11.778495,-43.125584,-64.947243,89.360229,-62.600815,140.0464,-22.467909,96.538704
3805000000,-3.2533438,-34.496426,-60.461281,38.673153,-60.529209,20.039827,-21.844227,97.945496
3810000000,-14.801795,10.238476,-65.643082,-72.741158,-61.411465,-101.3187,-19.6978,103.45817
3815000000,-4.8981261,-46.741398,-67.138107,-143.83649,-61.152817,-160.84792,-20.94206,95.565506
3820000000,-6.7629046,-23.53899,-64.212021,75.543556,-68.206718,111.35935,-19.076315,102.2169
3825000000,-9.6602888,-17.296492,-66.732277,34.239017,-63.282742,54.100941,-19.410154,93.685524
3830000000,-4.5449638,-52.877811,-61.7206,-45.703068,-67.93663,-12.939669,-18.442722,105.20158
3835000000,-7.0129199,-8.001399,-65.937149,-161.42223,-64.134308,-109.83089,-19.168066,112.89558
3840000000,-8.7189436,-41.719265,-95.59137,128.96375,-68.298157,-57.588303,-22.432098,103.20309
3845000000,-4.7551699,-43.675064,-65.154037,81.733521,-74.592636,153.183,-18.30884,96.029579
3850000000,-6.3071847,-6.1016483,-64.710938,73.522537,-64.844093,66.88166,-19.391975,99.026833
3855000000,-6.8707571,-71.346092,-58.273811,-34.297611,-61.236168,-12.903605,-19.382048,88.547935
3860000000,-4.4628043,-19.877075,-64.776108,-85.888916,-63.914165,-152.01456,-17.794407,87.603592
3865000000,-7.5541129,-24.446411,-63.836842,165.38947,-60.084728,140.1207,-18.006203,94.166245
3870000000,-6.8006597,-62.538601,-62.197933,54.169888,-71.627831,44.336884,-17.654408,96.047012
3875000000,-3.0932071,-16.8566,-64.56871,-1.3598125,-62.143269,-70.237671,-17.922638,95.626968
3880000000,-10.700887,-68.730034,-61.437141,-135.97037,-62.546825,-119.06441,-18.665312,97.632027
3885000000,-4.3935637,-32.660095,-71.315582,91.540199,-64.074356,179.26556,-17.36838,83.952927
3890000000,-4.8306303,-28.819881,-73.263046,-106.47005,-63.090813,128.63753,-18.829493,95.719894
3895000000,-11.080578,-43.534504,-64.268242,-18.12174,-67.502953,-27.953524,-18.479513,74.145851
3900000000,-1.8971499,-42.694038,-66.970428,-86.534256,-65.1548,-59.701454,-16.585251,85.559174
3905000000,-10.462877,-10.619596,-63.739319,-77.092094,-72.106972,-145.09308,-18.039965,88.421272
3910000000,-5.2426395,-43.815983,-73.54789,20.137156,-63.841461,161.27029,-17.301094,82.945999
3915000000,-3.1931825,-38.210491,-77.639198,-86.160606,-70.58136,-131.15057,-17.23613,82.306458
3920000000,-8.6982527,-13.606985,-68.953598,-80.334389,-63.622597,28.245611,-17.670206,83.766312
3925000000,-3.5574899,-58.560989,-65.962982,178.91698,-61.950146,-60.505608,-17.800692,74.568787
3930000000,-5.1427212,-17.251286,-68.164513,162.52057,-59.125328,-179.51413,-18.376411,84.12886
3935000000,-6.9113946,-36.594807,-68.456467,92.523933,-65.664406,39.488121,-18.185017,71.084557
3940000000,-2.5529549,-55.909744,-62.143452,56.01638,-68.00042,-102.70126,-16.816053,72.951508
3945000000,-6.3272095,-10.237805,-69.369316,81.188812,-66.0476,-36.613125,-17.400719,77.443169
3950000000,-5.2211041,-58.356445,-69.105087,-74.226753,-71.546104,149.96016,-17.231215,70.179474
3955000000,-3.7473643,-39.325729,-61.559547,85.219543,-69.63929,67.37674,-18.336609,77.172058
3960000000,-5.1321449,-18.854181,-69.08918,120.92578,-66.052582,109.37885,-17.808531,70.525368
3965000000,-4.6340528,-77.911194,-65.130302,-108.1059,-76.437363,-31.396919,-19.230968,73.444168
3970000000,-2.4293101,-18.396255,-82.602448,-8.9272003,-67.65049,0.13573085,-17.861084,70.164474
3975000000,-7.1944675,-60.927544,-71.941681,169.3273,-65.844872,-103.0865,-18.400087,65.679764
3980000000,-4.7311411,-47.44178,-70.236984,155.48615,-74.583748,130.07246,-18.58041,64.611305
3985000000,-2.4277763,-31.517662,-61.59042,-8.2661772,-62.351772,57.438702,-17.517702,64.096077
3990000000,-11.086546,-72.331551,-61.913815,-55.547131,-72.274521,-53.299397,-19.754375,65.55014
3995000000,-1.3873433,-43.823933,-61.204395,-135.1803,-60.806568,-157.53917,-18.322569,68.831421
4000000000,-7.0607724,-35.228725,-66.340843,72.744247,-64.294876,145.39296,-20.08032,65.534218
END

