!CSV A.01.01
!Keysight Technologies,N5247A,US56070710,A.10.64.09
!Date: Thursday, November 10, 2022 02:27:08
!Source: Standard

BEGIN CH1_DATA
Freq(Hz),S33(DB),S33(DEG),S34(DB),S34(DEG),S43(DB),S43(DEG),S44(DB),S44(DEG)
3000000000,6.0073133,24.174046,-57.925789,131.82748,-56.788635,125.22356,-16.091059,-140.40277
3005000000,5.3939705,-75.786957,-56.17514,43.360973,-56.328365,47.011517,-15.660769,-140.15475
3010000000,6.4693184,176.90822,-55.026268,-48.323948,-55.304108,-48.270462,-15.746342,-142.83704
3015000000,7.2419753,103.55826,-54.81913,-149.3791,-53.891945,-139.8654,-15.848028,-146.57355
3020000000,5.629591,-9.3610563,-54.288097,121.35551,-53.798599,111.59963,-15.633091,-146.62691
3025000000,5.9397664,-105.86439,-52.728264,26.900543,-52.809555,29.176018,-15.448315,-148.32257
3030000000,6.5163488,157.27815,-52.966095,-68.200829,-53.943024,-67.482155,-15.350876,-153.2908
3035000000,8.3151569,66.126289,-53.533443,-164.90559,-50.901501,-161.51122,-15.459679,-157.26331
3040000000,3.6186216,-31.713869,-52.110729,104.37167,-52.846912,99.750717,-15.547282,-162.1987
3045000000,6.8961759,-139.93352,-53.010925,12.218429,-52.663258,9.3667669,-15.125338,-166.86195
3050000000,7.4643726,132.86646,-54.904022,-83.892525,-54.239517,-74.126709,-14.958083,-165.48848
3055000000,6.9358292,41.166157,-54.869762,-170.97333,-53.280949,-177.42667,-15.413755,-164.60411
3060000000,5.0258007,-60.104496,-55.187607,90.718246,-55.252155,90.10276,-15.397211,-170.77945
3065000000,6.6090684,-170.44505,-56.1619,2.4838812,-56.473427,2.5447419,-14.846666,-174.94411
3070000000,7.4613547,113.47428,-57.003792,-94.233826,-56.31002,-83.774788,-15.165709,-173.41391
3075000000,6.0032692,5.0919819,-58.543846,-174.47046,-57.937241,177.71996,-15.916749,-175.75986
3080000000,4.3327827,-93.071487,-59.259716,98.22242,-59.768063,101.22605,-16.023119,-179.89078
3085000000,6.0016112,165.37068,-59.601032,20.207615,-60.598473,17.499493,-15.861898,-179.83875
3090000000,8.385581,83.668381,-64.494034,-63.98912,-62.783817,-53.816135,-16.118916,179.39197
3095000000,4.1940899,-16.339567,-62.90918,-129.4117,-63.054443,-136.95067,-15.990258,173.80797
3100000000,5.8068223,-125.8279,-60.058937,161.54401,-60.11845,160.04599,-15.860941,170.71353
3105000000,6.8988605,139.51569,-60.491776,58.47422,-60.277294,67.865265,-16.127291,170.60172
3110000000,7.6857615,56.177242,-58.280357,-6.311255,-56.308235,-10.421938,-16.497108,169.15424
3115000000,4.6834784,-42.594124,-58.663692,-103.90433,-58.862686,-107.27512,-16.457983,168.53822
3120000000,6.1798372,-158.72798,-55.853653,164.88939,-55.651821,165.12248,-16.413883,169.73747
3125000000,6.9697652,123.52017,-54.780411,69.878639,-55.020031,79.844421,-16.469372,169.07388
3130000000,7.6821866,21.017008,-55.362396,-21.6411,-53.806473,-29.72131,-16.913191,165.3707
3135000000,4.2965789,-73.986511,-53.343971,-114.10557,-53.560848,-112.3695,-17.493853,161.44029
3140000000,6.0902143,175.5775,-53.215096,149.5602,-54.040329,145.00967,-17.769054,159.3727
3145000000,8.7916718,95.14502,-54.262394,59.017563,-52.530674,68.364716,-17.632549,159.16376
3150000000,5.5932393,-0.50742674,-52.963436,-33.21603,-53.173561,-39.460896,-17.434608,159.61728
3155000000,5.6079588,-104.6788,-54.31065,-126.1768,-54.206921,-127.23151,-17.167057,159.55452
3160000000,6.5484681,149.35107,-54.625149,138.69992,-55.082611,143.96512,-17.044506,157.69139
3165000000,8.4606733,71.182816,-55.319641,44.40448,-53.362846,49.327793,-17.512947,156.60481
3170000000,4.8603048,-25.224096,-55.571907,-48.621578,-55.734814,-55.199142,-18.059805,157.02887
3175000000,5.3605914,-139.5688,-58.010933,-134.68176,-57.647343,-135.08228,-18.069542,158.17429
3180000000,6.9911489,131.7607,-56.839031,122.57116,-57.652473,132.19339,-17.906452,158.99298
3185000000,9.0331821,33.069683,-58.855965,35.148014,-56.331146,27.948351,-17.986177,161.64366
3190000000,4.3037639,-53.620529,-61.130798,-37.439762,-61.48547,-36.822151,-18.337828,159.79965
3195000000,5.7871981,-173.72661,-60.897205,-129.29951,-60.556427,-132.33833,-18.83436,152.43307
3200000000,8.3441324,103.3117,-67.063698,131.39395,-65.720573,146.39624,-18.558636,147.84447
3205000000,6.541266,7.4036999,-63.754742,97.663628,-62.949963,82.42733,-18.50909,153.97449
3210000000,6.9434576,-81.743172,-66.007439,19.818398,-66.733635,24.05722,-18.623234,155.62178
3215000000,7.7336502,158.20045,-65.486221,-62.790543,-65.848701,-57.833267,-18.404112,150.99596
3220000000,11.075504,81.890648,-61.293892,-139.42667,-58.631668,-132.77597,-17.435543,151.50084
3225000000,7.3294597,-19.076618,-60.810356,134.29005,-61.565071,121.8924,-17.547958,155.14925
3230000000,7.2554264,-121.7273,-58.288128,33.378914,-57.836742,36.993469,-18.439028,152.16753
3235000000,7.1616893,138.00609,-57.629482,-60.184246,-58.519871,-53.778362,-18.487789,150.10657
3240000000,11.298755,40.853367,-57.970142,-150.94148,-54.618191,-156.60541,-17.89257,154.71494
3245000000,6.6787109,-40.290459,-56.126926,118.4575,-57.099686,118.73782,-18.030491,155.79213
3250000000,7.604239,-160.48206,-55.236881,20.41811,-55.594997,12.190926,-18.223068,151.62778
3255000000,9.0534964,119.96044,-56.45435,-76.969017,-55.716301,-58.487312,-17.996399,149.10609
3260000000,9.6147346,12.308619,-56.02153,-162.53407,-54.600182,-179.25568,-17.885937,146.09004
3265000000,7.6380954,-68.784966,-55.44257,104.75405,-55.597782,103.32001,-17.713982,143.9184
3270000000,7.3169827,167.12672,-56.853123,0.59342402,-57.822956,2.4420736,-17.502769,148.37946
3275000000,11.160046,90.049744,-59.690094,-93.351105,-56.576588,-78.546303,-17.621359,150.3716
3280000000,8.1861877,-13.955297,-58.948044,-175.51329,-59.449383,167.87469,-17.631403,144.66492
3285000000,7.2080622,-98.083351,-59.147358,87.348282,-59.633369,91.075714,-17.070847,141.53311
3290000000,6.9536905,146.63304,-63.225399,-11.891061,-63.935417,-4.8492856,-17.022633,143.14832
3295000000,12.254138,43.159401,-65.878105,-92.366196,-61.287941,-101.54744,-17.444719,140.28377
3300000000,7.2327514,-33.136166,-66.658287,177.34508,-67.877647,171.30994,-17.450815,138.87573
3305000000,8.5132637,-145.75198,-68.555992,135.6151,-69.092201,133.21326,-17.349052,141.6118
3310000000,9.0849972,123.032,-71.067131,92.70166,-71.263344,102.36904,-17.530285,137.4608
3315000000,10.613166,17.887043,-63.678352,1.3498521,-62.202328,-13.210714,-16.892517,130.64607
3320000000,8.0471964,-51.782887,-60.470112,-76.873161,-61.232185,-73.23864,-16.678339,132.88121
3325000000,7.4540286,178.89612,-59.990604,-178.20419,-60.136276,174.19458,-17.45993,132.81311
3330000000,10.533006,100.31947,-59.039257,94.355812,-57.301674,106.5602,-17.540684,124.63552
3335000000,9.3214588,-8.0232515,-57.726021,-0.75928986,-58.200024,-16.03351,-16.656937,125.21056
3340000000,8.7478352,-88.112473,-56.716221,-102.03835,-56.184307,-97.119049,-16.642481,129.63052
3345000000,6.5654669,156.80037,-57.355762,165.40785,-59.499451,165.14998,-17.021364,125.42535
3350000000,12.850238,57.395405,-58.287647,73.756943,-53.600834,68.956299,-16.828506,119.44449
3355000000,7.7945251,-23.046442,-56.920387,-14.905536,-58.162552,-22.924236,-16.930286,120.63398
3360000000,9.221283,-123.55212,-56.511333,-116.14722,-55.639511,-124.57851,-17.529202,119.54442
3365000000,8.3759699,133.33266,-58.225697,150.31111,-58.487492,163.54262,-17.638409,115.08634
3370000000,11.250779,23.244478,-58.332157,72.854202,-56.817501,53.667221,-17.660141,113.70086
3375000000,8.8637199,-47.656109,-58.978638,-19.950029,-59.718178,-18.906027,-17.582163,111.5535
3380000000,7.1332369,-162.55319,-59.659653,-114.6696,-59.992832,-119.74017,-17.236713,106.63384
3385000000,8.9077911,112.48518,-61.623177,161.25925,-60.765968,175.14569,-17.486261,105.34156
3390000000,9.6297359,0.33517909,-61.025322,81.636055,-60.93729,62.710609,-18.056921,104.18327
3395000000,8.6500578,-68.557404,-60.893005,-9.9368629,-60.936768,0.28873566,-17.983849,102.86999
3400000000,6.8412538,169.20755,-63.11084,-88.377045,-63.883236,-89.714516,-17.983923,103.79105
3405000000,12.485906,74.122643,-62.97541,-178.72243,-59.115986,-178.37675,-18.758484,104.81989
3410000000,8.8246956,-20.223289,-62.169857,111.76278,-63.837135,101.40389,-19.027079,98.774071
3415000000,10.351535,-113.43753,-60.676365,23.891447,-58.972866,20.882168,-18.993704,93.975677
3420000000,7.2755823,138.58382,-59.659931,-62.850601,-60.473141,-55.950062,-19.794353,94.006271
3425000000,11.623967,36.468349,-59.053089,-147.89468,-56.602394,-156.64915,-20.778818,90.737831
3430000000,8.9999962,-41.521461,-57.641392,124.19575,-59.048733,122.53926,-20.179245,84.944656
3435000000,8.8693514,-151.53499,-57.42865,21.868977,-57.422775,16.47632,-19.736185,85.980461
3440000000,8.3634672,119.28735,-56.696632,-64.072067,-56.972576,-51.066566,-20.238407,88.017189
3445000000,10.553791,2.5497971,-57.613262,-150.83525,-56.817329,-170.51997,-20.717312,83.556023
3450000000,9.0823326,-64.810112,-56.83643,107.51604,-57.654228,111.31859,-20.515274,80.174927
3455000000,7.1850615,175.89452,-56.98465,14.635637,-57.966267,7.8172975,-21.086809,85.986336
3460000000,10.761187,84.344116,-58.205509,-75.65126,-55.35994,-71.580025,-22.382109,93.54213
3465000000,9.2692528,-15.765359,-57.966179,-165.34004,-59.232918,-177.91434,-23.673733,89.083321
3470000000,10.252841,-98.996628,-58.252316,97.291176,-57.649113,97.427231,-23.731686,81.163094
3475000000,6.7681231,149.36751,-60.209194,11.101385,-60.685806,14.747228,-23.974083,81.25296
3480000000,11.611077,47.325371,-61.000275,-68.064552,-58.79649,-79.371132,-24.758091,77.328674
3485000000,9.5443792,-39.437252,-61.544834,-161.09348,-62.291973,-163.38124,-24.504766,71.924057
3490000000,8.9959021,-135.56009,-61.403164,115.34399,-61.242996,113.81467,-24.293026,82.294884
3495000000,7.1009259,128.39038,-63.709892,33.524075,-64.806801,41.998955,-24.896662,94.240448
3500000000,10.718123,9.4562035,-64.260971,-43.002125,-62.877728,-60.48241,-25.563509,91.236069
3505000000,8.4906616,-57.846684,-62.162724,-125.64597,-64.098907,-122.80377,-25.378349,85.994255
3510000000,8.0412884,-171.85941,-63.385571,150.10435,-63.804733,139.83253,-25.818459,94.436989
3515000000,9.1743946,95.736191,-61.326149,63.362198,-60.099442,75.382866,-26.196209,100.32423
3520000000,9.0479479,-8.0201511,-60.382446,-22.344458,-61.21711,-35.444576,-26.637608,106.58997
3525000000,10.030717,-84.699371,-59.604073,-112.43217,-58.893467,-110.94102,-27.813599,119.75341
3530000000,6.5403337,160.69957,-59.508743,153.62682,-60.151806,156.81717,-29.738094,115.08011
3535000000,10.930816,63.048119,-60.250706,68.856201,-57.438202,68.374702,-27.601068,89.852707
3540000000,8.8198471,-31.375549,-58.170403,-14.532066,-59.779499,-26.114624,-26.409956,97.272476
3545000000,9.7061806,-116.828,-57.677113,-118.76236,-57.257339,-114.99949,-27.491465,111.9458
3550000000,6.241159,138.84816,-58.230999,153.69351,-59.065502,157.62236,-27.85936,104.28476
3555000000,10.295758,24.917645,-59.001152,68.92083,-57.201351,54.987354,-26.110119,103.56812
3560000000,7.9544406,-49.318787,-58.014278,-32.411003,-59.692574,-31.586988,-25.702925,114.02328
3565000000,8.5656357,-158.3495,-58.575768,-127.51485,-58.799309,-136.21286,-25.523706,106.78252
3570000000,7.7729759,108.71628,-61.115063,147.37769,-60.159584,156.72113,-23.846083,99.555
3575000000,9.0263395,-2.5105407,-60.842491,55.299324,-60.881424,37.420872,-23.454878,117.66537
3580000000,8.9918375,-72.538544,-62.284122,-25.03861,-62.667847,-22.377459,-24.820276,135.28444
3585000000,6.8495784,174.08691,-62.729816,-124.6376,-63.152298,-128.50731,-27.13134,121.91429
3590000000,8.9992971,82.024925,-65.219376,157.02524,-62.882957,165.79329,-26.224045,108.38426
3595000000,8.6479511,-24.889536,-63.884445,85.576241,-64.205299,76.53994,-25.684717,114.69597
3600000000,9.3297329,-102.95206,-63.936417,-1.1008594,-63.215328,2.8174176,-26.214888,100.82095
3605000000,5.9160223,147.25662,-65.094193,-81.425575,-66.070526,-77.395905,-25.144907,90.974564
3610000000,9.9526358,42.261509,-64.376442,-162.28041,-62.210316,-168.08076,-24.605494,101.26265
3615000000,7.8797212,-43.473186,-62.881371,106.99911,-63.453186,108.7959,-24.332705,106.85638
3620000000,9.5635614,-139.76886,-63.744442,24.00931,-62.634266,16.140326,-23.719217,101.42857
3625000000,6.7070527,123.31223,-63.045498,-56.761585,-62.852493,-50.635639,-23.811295,108.50449
3630000000,9.5968819,16.128525,-62.076317,-148.20973,-60.946888,-155.75153,-25.141226,110.6677
3635000000,8.6340513,-58.534168,-60.470219,133.52626,-61.134842,136.05412,-26.218885,96.31488
3640000000,7.7082691,-171.35197,-59.310482,36.417805,-59.986622,30.306349,-25.785627,94.100121
3645000000,7.9374046,100.92397,-58.856457,-53.795376,-58.339897,-40.559216,-25.74457,105.53682
3650000000,9.1934099,-14.377407,-58.408737,-138.72517,-58.59761,-156.20894,-26.071404,103.40656
3655000000,9.2029572,-83.827965,-57.859352,118.75076,-58.036903,119.993,-26.579865,95.689362
3660000000,6.5631084,162.33577,-58.280865,26.689768,-59.088345,23.967476,-27.351458,91.509811
3665000000,9.0727797,59.534977,-58.83548,-66.589378,-57.174927,-64.180817,-27.0266,81.666016
3670000000,7.6270103,-34.080925,-58.056343,-158.19809,-59.668598,-164.14063,-26.019201,80.210793
3675000000,9.9074945,-119.70881,-59.648975,101.33931,-58.854939,101.70072,-26.328758,95.504936
3680000000,6.339293,136.52525,-59.728527,12.768891,-60.805363,17.492647,-27.259552,107.7598
3685000000,10.164148,29.360819,-61.243774,-81.64415,-59.774113,-88.842918,-28.444538,98.893135
3690000000,8.8243952,-56.589939,-62.080967,-171.8531,-62.352436,-173.59067,-28.497055,93.45668
3695000000,8.1580286,-153.90926,-64.554474,94.947479,-64.084206,89.102531,-29.822033,102.2056
3700000000,6.467495,114.09867,-66.971016,-9.3169355,-67.409065,-0.69727242,-33.519001,101.67747
3705000000,9.5691042,-4.1176991,-70.459526,-66.340897,-69.32193,-87.923286,-35.237446,75.73645
3710000000,8.2375689,-71.403641,-70.849716,-117.47927,-71.929527,-118.71612,-32.397675,86.745575
3715000000,7.3970542,175.37312,-74.467216,-175.26289,-74.389526,-174.76112,-30.910269,98.073891
3720000000,8.2354698,77.870209,-67.430901,118.3828,-65.996979,123.78068,-31.911268,100.48194
3725000000,8.2659216,-25.466537,-63.198246,28.607765,-64.615608,15.306642,-32.655598,97.29496
3730000000,9.9313412,-104.6501,-60.811466,-61.087738,-60.202824,-57.504826,-32.436001,106.29869
3735000000,5.8428526,148.9666,-60.614494,-160.13327,-61.235073,-163.34558,-32.725342,114.12997
3740000000,9.140007,48.642914,-59.340893,111.96244,-57.576778,109.82884,-30.667042,126.57521
3745000000,8.6392937,-46.412266,-57.218773,13.666402,-58.132214,10.678758,-28.307123,138.64204
3750000000,9.2098017,-134.74969,-57.028343,-85.892044,-56.429066,-87.491425,-29.234678,154.6015
3755000000,5.6600275,129.83176,-56.666428,-177.31178,-58.14267,-173.21802,-32.981522,157.69109
3760000000,9.9246712,12.223313,-56.269482,92.158585,-54.657711,79.022499,-32.548492,142.69279
3765000000,8.2100172,-61.205387,-55.819897,-9.987896,-57.460617,-10.671346,-30.658234,148.94714
3770000000,8.8199463,-167.29675,-56.679802,-104.97672,-56.710854,-114.98506,-31.122,156.98831
3775000000,7.3262153,97.313683,-57.006313,162.72525,-56.605167,171.18951,-29.869265,138.98083
3780000000,9.2077866,-17.349188,-55.934319,70.011276,-56.53373,55.024967,-26.713181,135.61716
3785000000,9.8739014,-83.811562,-57.487965,-28.634138,-57.90477,-21.395887,-25.942215,144.62393
3790000000,7.1792765,165.29517,-58.61079,-131.82628,-59.017105,-132.76788,-26.081083,149.98097
3795000000,8.1529188,73.791405,-59.336414,140.69511,-58.338169,146.72173,-25.469246,151.91766
3800000000,8.8038807,-39.916706,-59.93425,40.457577,-60.779785,32.006035,-25.475483,158.0666
3805000000,9.6245766,-115.91372,-62.354641,-63.664932,-62.583111,-56.827412,-25.547852,154.64656
3810000000,6.1269073,139.21002,-66.371658,-160.26273,-67.253494,-158.46152,-24.273119,148.21599
3815000000,10.290154,26.733692,-70.131714,125.06317,-68.531921,105.7848,-24.518579,153.57298
3820000000,8.2338963,-56.502655,-87.569687,36.195343,-98.276901,47.937622,-27.440784,152.06204
3825000000,10.013433,-153.08806,-70.489792,116.76124,-69.513344,107.73572,-26.02272,128.58572
3830000000,5.6458573,112.04498,-66.65889,4.8732433,-67.024574,12.096267,-23.095861,131.64815
3835000000,9.5264521,-4.4551845,-62.671654,-92.057762,-62.013157,-102.2556,-23.109898,143.26913
3840000000,9.3800516,-77.802101,-61.206947,177.79846,-62.099434,-179.01909,-24.026459,137.00896
3845000000,8.4093885,176.6396,-59.81242,75.169754,-59.432404,67.873589,-22.824026,127.2717
3850000000,7.8111277,88.650581,-58.591564,-21.0539,-58.15435,-10.122152,-22.434824,130.07803
3855000000,9.1586447,-30.563772,-56.907364,-110.44888,-57.735241,-123.25867,-23.002943,133.13782
3860000000,10.139283,-99.34816,-56.52523,145.70973,-56.483402,154.12144,-22.702124,128.7728
3865000000,6.4436688,151.99413,-56.737534,51.387608,-57.637337,49.328976,-22.401203,128.74628
3870000000,8.5942965,50.631187,-56.489876,-40.133945,-54.582546,-40.110031,-22.638723,128.2404
3875000000,8.2078953,-51.987103,-55.426399,-140.70741,-57.100487,-146.81908,-22.240532,123.5478
3880000000,10.726732,-133.85098,-55.654274,122.7788,-54.567913,122.83885,-22.494263,119.81958
3885000000,5.8828864,129.13905,-56.496597,26.884882,-57.253426,30.224705,-23.628492,113.80522
3890000000,9.8401804,16.131546,-56.773006,-59.168106,-55.048191,-67.885551,-22.327553,105.48169
3895000000,8.7280636,-69.403824,-56.647072,-162.38358,-58.588406,-163.81088,-20.412132,109.05551
3900000000,9.7574663,-168.54111,-57.744228,93.277222,-57.24157,91.897522,-20.606094,116.4875
3905000000,7.0610514,98.002747,-59.878613,2.1041622,-59.56411,6.9396844,-21.739054,117.86688
3910000000,9.3601494,-21.1506,-61.810932,-94.386909,-61.541832,-103.2793,-21.940636,110.87337
3915000000,10.232363,-89.97834,-62.837723,161.73503,-62.679394,170.49921,-22.341705,107.36909
3920000000,8.0712833,161.14238,-66.156494,64.664215,-66.521942,56.69986,-23.087612,107.21489
3925000000,8.3538771,69.800125,-72.931381,-32.876995,-72.195465,-24.072132,-23.123806,104.59186
3930000000,8.4305029,-45.062397,-76.065964,-147.03328,-78.142982,178.19061,-23.134869,97.841454
3935000000,11.0659,-123.82204,-71.604195,2.9511929,-70.916023,-0.22454847,-23.241613,87.396294
3940000000,6.5647588,139.85071,-67.787323,-110.11713,-68.766808,-106.29489,-21.955044,84.620285
3945000000,9.7179852,31.652723,-64.048607,156.57417,-62.520416,146.78224,-20.977114,88.285484
3950000000,9.4120998,-63.860413,-61.332886,54.130238,-62.363052,54.011272,-22.054705,93.831123
3955000000,10.45259,-154.31815,-59.697643,-52.204254,-58.646553,-51.749687,-23.703653,94.476524
3960000000,6.0208206,118.03374,-60.049728,-144.17343,-60.753872,-135.85204,-23.307833,88.508232
3965000000,8.7449455,-9.5283375,-57.918262,121.5608,-57.041485,111.01358,-22.846647,83.812859
3970000000,8.7038736,-81.077774,-56.304596,18.447605,-57.891247,24.883547,-23.959364,81.811958
3975000000,9.0936794,172.31654,-57.510292,-80.635681,-57.713291,-88.058006,-24.243687,76.480614
3980000000,7.7260871,86.867073,-57.141521,-169.93695,-55.977276,-161.78778,-23.667757,73.872574
3985000000,7.9339461,-33.117268,-55.659885,90.539032,-56.656685,81.078201,-24.616301,74.462929
3990000000,10.13373,-107.31296,-56.248539,-8.3289223,-56.11182,-1.6946359,-25.226923,72.361374
3995000000,6.6919255,150.73369,-56.913994,-106.95729,-57.524342,-111.92037,-23.381149,68.815132
4000000000,6.1559834,52.729794,-56.940956,165.81946,-56.21571,166.91577,-22.969353,71.530258
END

