!CSV A.01.01
!Keysight Technologies,N5247A,US56070710,A.10.64.09
!Date: Thursday, November 10, 2022 00:58:52
!Source: Standard

BEGIN CH1_DATA
Freq(Hz),S33(DB),S33(DEG),S34(DB),S34(DEG),S43(DB),S43(DEG),S44(DB),S44(DEG)
3000000000,5.6404715,20.300125,-61.882813,141.98,-61.229404,131.84961,-16.051088,-136.57631
3005000000,5.6941781,-78.109222,-71.612175,82.957924,-72.953163,76.296394,-15.64536,-136.20441
3010000000,7.0119982,178.25359,-71.997635,-47.908855,-72.96978,-43.889919,-15.774529,-138.95123
3015000000,7.2605305,103.70837,-71.218376,132.44464,-69.965065,147.29446,-15.890525,-143.18427
3020000000,5.3918619,-10.459249,-64.724945,171.27174,-64.180466,159.58028,-15.584792,-143.54042
3025000000,6.2498956,-106.90097,-69.276443,-39.815445,-68.512093,-35.699829,-15.3387,-144.73056
3030000000,6.3679271,158.07965,-73.438766,60.836262,-75.383842,40.119789,-15.296315,-149.38715
3035000000,7.8493986,66.526047,-65.290894,92.152855,-62.574898,98.778275,-15.401239,-153.71968
3040000000,3.5237913,-36.253216,-74.892159,-9.520647,-76.517715,-18.983868,-15.416569,-158.15987
3045000000,6.9943733,-140.20488,-64.883064,-43.291012,-64.428963,-45.964092,-15.103469,-162.03732
3050000000,7.3026137,135.17688,-82.715263,-147.8736,-82.103714,-137.61105,-15.075125,-161.3062
3055000000,6.1968684,39.894695,-69.128059,106.4871,-66.754059,100.86598,-15.472397,-161.4328
3060000000,4.807981,-63.522926,-69.657471,78.377518,-69.504707,85.611298,-15.33741,-167.186
3065000000,6.9216061,-170.53798,-71.127518,54.30901,-70.579575,50.373234,-14.867023,-170.86632
3070000000,7.2302136,114.50661,-69.520302,-20.092241,-70.055122,-20.142323,-15.248612,-169.82045
3075000000,5.7894454,5.6559048,-70.416534,-10.460254,-69.930008,-14.958117,-15.925244,-172.52441
3080000000,5.1070299,-93.861694,-69.077797,-86.983635,-70.536255,-81.658089,-15.959419,-176.36551
3085000000,6.2645164,166.5477,-69.319748,-124.71809,-69.940956,-115.50672,-15.765305,-176.11569
3090000000,8.285018,86.257347,-69.937691,-131.10272,-67.514053,-118.42581,-15.988666,-176.29646
3095000000,4.2121892,-19.495045,-63.753029,111.62392,-64.088043,107.09247,-15.979066,178.77116
3100000000,6.304831,-126.13965,-83.291794,-146.09525,-87.638519,-151.16646,-15.972544,175.11432
3105000000,7.2949457,143.06856,-66.355591,93.285881,-66.581497,101.20412,-16.190941,174.23956
3110000000,7.4607034,55.619415,-76.076195,90.187729,-73.876709,74.561356,-16.473642,173.17607
3115000000,4.6385474,-44.888622,-81.097176,65.498642,-78.622719,74.309723,-16.50066,172.99716
3120000000,7.0920649,-157.50708,-67.513069,-85.697174,-66.398544,-86.610847,-16.534042,173.66092
3125000000,7.1028991,125.24588,-65.938835,179.44461,-66.42907,-172.46651,-16.536762,172.31595
3130000000,7.3263493,22.544453,-75.625977,157.37976,-71.508133,151.1006,-16.886868,168.67935
3135000000,4.7122097,-77.55545,-67.675598,21.045563,-68.021072,25.771057,-17.416475,165.14006
3140000000,6.4295783,174.67575,-66.389374,16.308622,-67.954597,14.77839,-17.669876,163.49542
3145000000,8.8577995,97.95887,-81.579826,23.604006,-79.860168,28.410265,-17.553843,163.88754
3150000000,5.6921792,-3.2805538,-64.881935,10.924118,-64.028854,8.730463,-17.431767,164.61121
3155000000,6.2160158,-108.22659,-73.791512,-167.42882,-75.415222,-173.20578,-17.257528,164.25931
3160000000,7.1590905,151.44246,-70.231331,153.17331,-69.971436,148.98473,-17.178282,161.90056
3165000000,8.6800728,70.56105,-68.847061,13.170776,-66.162918,13.273118,-17.618061,160.26772
3170000000,4.7892113,-29.676991,-85.686188,14.586489,-79.118614,13.795412,-18.048309,160.6647
3175000000,6.382596,-142.32028,-71.74279,-128.61227,-70.136818,-133.59889,-18.013729,162.74059
3180000000,7.3282528,133.57762,-95.37677,107.2417,-94.089523,-35.528614,-18.024446,163.97508
3185000000,8.9778538,34.819473,-68.928268,-45.65567,-67.31086,-52.060219,-18.206041,165.17305
3190000000,4.4791675,-58.306503,-66.763359,-70.703743,-67.487984,-73.291473,-18.303551,161.94708
3195000000,6.3767333,-175.71854,-82.687408,-24.845545,-81.587006,-66.25563,-18.507864,156.45605
3200000000,8.6511955,106.57897,-72.057281,141.26733,-68.703308,163.95918,-18.449656,154.06665
3205000000,6.4637671,6.2887616,-66.977928,-3.8655086,-66.906029,-15.473797,-18.666546,159.76401
3210000000,7.0558367,-85.866051,-68.912773,110.83853,-68.853325,116.63,-18.793379,159.93423
3215000000,8.1342268,158.85722,-68.89859,159.9928,-68.691589,152.28778,-18.452341,155.12749
3220000000,11.062309,82.256088,-81.869339,-47.435543,-79.929939,-59.563015,-17.503716,155.93536
3225000000,6.9701529,-21.021931,-70.94693,19.336451,-71.308418,14.137151,-17.657543,159.41585
3230000000,7.9503942,-126.6152,-66.360825,132.30017,-64.713173,133.32762,-18.557087,156.09662
3235000000,7.5539026,137.99144,-74.692276,-174.5712,-77.182495,-166.39978,-18.58358,153.82581
3240000000,11.161187,41.92205,-72.304764,-39.619282,-68.884789,-38.421299,-17.906757,158.31041
3245000000,6.4480848,-44.127903,-75.664612,-103.21521,-75.572701,-79.972931,-17.977409,159.7462
3250000000,7.8317528,-165.39516,-72.375786,152.84256,-74.58609,139.95773,-18.213598,155.96434
3255000000,9.4153738,120.9722,-71.23291,23.056835,-71.659187,32.237652,-17.990339,153.38429
3260000000,9.5324898,11.719231,-68.669052,-48.005611,-66.48201,-68.463188,-17.852577,150.81992
3265000000,7.5185723,-71.849831,-75.07299,5.8396115,-73.523132,-18.227461,-17.813707,148.92096
3270000000,7.855248,166.64563,-69.547699,101.38477,-70.203491,104.99541,-17.680243,152.53476
3275000000,11.297885,91.527405,-73.554337,-40.381985,-69.846764,-30.512039,-17.642138,153.88872
3280000000,7.996141,-13.47002,-66.983223,-63.030674,-67.716637,-80.204155,-17.556101,149.01826
3285000000,7.6540318,-101.97324,-61.185516,104.27547,-61.041252,108.58742,-17.141371,146.33379
3290000000,7.3428297,147.20706,-80.246849,-153.04948,-81.306641,-111.49,-17.129047,147.54492
3295000000,12.535466,47.184376,-70.217148,-38.927822,-66.475327,-55.810066,-17.513594,144.54675
3300000000,7.1316466,-33.884899,-74.420609,-158.1848,-77.827003,-156.18837,-17.585217,142.99731
3305000000,8.5159883,-148.04985,-62.813961,103.98125,-62.503685,97.760017,-17.426565,145.20711
3310000000,9.2685575,125.81975,-63.537739,-37.654465,-62.564545,-23.992189,-17.414789,141.53667
3315000000,10.50316,19.532894,-75.430359,-106.95957,-71.970444,-125.56451,-16.916363,135.8721
3320000000,7.5379739,-53.891663,-72.346359,107.77998,-72.863922,113.10817,-16.920221,137.54338
3325000000,7.6113472,176.02666,-70.130714,33.507271,-69.522331,37.300938,-17.562395,136.04437
3330000000,10.618063,100.20531,-66.856438,-68.247429,-64.081703,-58.596195,-17.395683,128.603
3335000000,9.0496264,-5.9348402,-64.772896,177.7106,-64.665367,166.02002,-16.677862,130.85329
3340000000,8.9373331,-89.631042,-62.571007,59.901127,-61.993217,66.485023,-16.893093,135.21799
3345000000,7.0220089,155.33067,-68.66153,-73.198608,-70.431702,-71.887009,-17.339226,128.8933
3350000000,13.325372,58.783607,-64.865585,-124.96682,-60.901253,-127.31902,-16.96088,121.90424
3355000000,7.7702208,-25.607925,-64.324409,112.23081,-65.455406,103.40228,-16.91271,124.08109
3360000000,8.9442043,-130.52849,-67.656517,13.271227,-66.387405,-0.93904305,-17.514679,123.79993
3365000000,8.8407888,133.40149,-61.279236,-101.58868,-61.361252,-89.683899,-17.744835,118.87921
3370000000,11.397001,24.880259,-66.250847,153.64705,-64.104408,133.12219,-17.702961,117.24635
3375000000,8.7416067,-47.256363,-66.591606,43.653824,-67.375969,45.916378,-17.492968,116.06949
3380000000,7.8702245,-167.24345,-63.146484,-78.506927,-63.955292,-79.328354,-17.292585,111.76169
3385000000,9.8337755,110.53718,-68.079971,174.76068,-66.973145,-173.05501,-17.728592,109.88071
3390000000,9.6771536,-1.0782912,-65.845596,66.990387,-66.015114,45.532433,-18.243952,108.33517
3395000000,8.6499605,-73.57959,-62.509029,-29.187138,-63.121048,-22.903227,-18.11903,107.15039
3400000000,7.0008974,164.44646,-65.270271,-152.75674,-66.850441,-152.13857,-18.237104,107.52347
3405000000,12.771716,74.370209,-66.807869,134.31133,-61.963444,138.43637,-18.974812,107.71667
3410000000,8.8555622,-19.770634,-70.795609,56.85693,-70.838165,48.214714,-19.019466,102.06983
3415000000,10.462737,-115.72465,-70.147797,-73.367752,-67.90239,-89.215973,-18.993105,97.800354
3420000000,7.7818589,138.04182,-70.154976,172.51421,-70.940674,179.30669,-19.899994,97.277931
3425000000,11.687861,37.025433,-65.379204,72.76461,-63.458366,62.631123,-20.732719,94.925171
3430000000,8.5652075,-41.780579,-63.818893,-34.484032,-64.59552,-36.549232,-20.072395,90.559052
3435000000,8.7588348,-155.07191,-67.797821,-138.13841,-67.850464,-143.19218,-20.006773,90.92691
3440000000,8.8964691,118.48474,-64.17305,139.21178,-64.717239,147.66916,-20.687626,92.30201
3445000000,10.768679,3.8417838,-68.871796,19.689371,-69.46434,-8.3278542,-20.824354,87.465637
3450000000,9.1111565,-65.770287,-68.850395,-96.491119,-70.158363,-90.316139,-20.709322,83.740471
3455000000,7.1920643,171.22125,-69.751602,154.12985,-72.467255,152.03333,-21.714928,89.609558
3460000000,11.035797,82.070755,-63.590958,38.261456,-61.288002,42.47691,-22.719944,95.498154
3465000000,9.0498676,-16.427542,-70.003716,-51.614529,-71.759468,-65.321373,-23.388119,88.63102
3470000000,9.9954929,-101.85308,-61.577984,-124.59096,-60.827602,-127.40811,-23.596201,84.709747
3475000000,7.3636642,146.35408,-65.629242,66.21907,-66.241219,73.290329,-23.999119,88.592262
3480000000,12.001488,46.773945,-80.896782,81.500595,-78.002769,85.097755,-24.751947,81.993591
3485000000,9.5053387,-38.222176,-64.538223,-134.51793,-66.391281,-136.36115,-24.831606,74.861717
3490000000,9.1964579,-138.30138,-67.953499,119.73245,-67.81086,121.79513,-24.684408,89.365463
3495000000,7.5983577,127.33866,-68.341156,64.424683,-69.037804,79.682564,-25.065155,100.1633
3500000000,11.193985,12.470111,-67.451279,-85.485962,-66.315971,-108.19923,-26.359098,92.882645
3505000000,8.59589,-56.067165,-68.473289,121.55435,-68.841232,129.59479,-26.161633,89.006409
3510000000,7.996696,-172.28864,-68.63755,-16.551544,-68.851791,-25.107702,-25.805035,98.191559
3515000000,9.4327822,97.172279,-90.335472,47.587822,-81.27449,68.956116,-26.598825,101.21519
3520000000,9.0387402,-6.5230823,-86.184753,169.32477,-87.010445,137.54141,-27.652321,109.74651
3525000000,9.6174192,-83.140251,-68.219269,78.770592,-66.750679,77.040909,-27.727482,120.88275
3530000000,6.6215167,160.62041,-73.273148,-34.676579,-74.288651,-23.707537,-28.956087,112.57956
3535000000,11.108541,64.266891,-70.408623,114.64017,-66.461494,124.36904,-27.942488,96.755127
3540000000,8.5840378,-29.829874,-72.500885,84.045395,-74.502129,65.255447,-26.767328,106.94366
3545000000,9.4563732,-118.12881,-72.486031,-69.734772,-72.431633,-58.499554,-27.596762,114.16959
3550000000,6.5200148,136.90457,-74.335541,25.386536,-76.145805,34.576038,-28.434452,106.69688
3555000000,10.778442,27.035936,-82.109467,137.56976,-79.244736,122.79478,-26.348627,112.30415
3560000000,8.0339975,-48.483017,-62.823456,-69.08416,-64.346497,-68.149872,-25.563044,119.11267
3565000000,8.4043322,-159.86865,-74.161865,149.42809,-73.403908,150.12843,-26.140514,110.38815
3570000000,8.3401136,108.85782,-67.376373,93.955032,-66.929291,104.73086,-24.747337,106.39742
3575000000,9.3943491,-2.5024471,-71.101799,-31.731831,-71.744392,-52.329636,-23.90214,121.4343
3580000000,8.8735952,-71.472748,-67.28447,-159.58514,-67.149498,-160.73631,-25.710192,133.44037
3585000000,7.0550313,173.38664,-66.390221,78.90271,-67.019577,77.365822,-27.30302,123.09003
3590000000,9.3518524,83.191223,-69.23877,16.638012,-67.116295,16.389429,-25.427542,115.11882
3595000000,8.7826319,-21.616682,-62.581417,-132.52956,-63.381016,-145.87659,-25.464729,119.05269
3600000000,9.4845514,-100.63883,-71.395531,-164.25061,-71.640022,-170.37979,-27.054176,106.81756
3605000000,6.2374182,147.52748,-64.47776,15.517879,-65.058517,15.445339,-25.374392,98.092613
3610000000,10.554635,46.03952,-67.653862,-125.40086,-64.696014,-127.83986,-24.425638,105.81789
3615000000,8.1438036,-42.326698,-71.209923,-122.71872,-72.9907,-126.58774,-25.01013,113.60867
3620000000,9.3309298,-141.66208,-61.362652,31.365639,-61.267059,24.23177,-24.696066,108.36585
3625000000,7.1869302,122.25542,-78.971283,-26.131149,-81.34877,-13.718161,-24.208668,109.13822
3630000000,10.239388,14.198911,-71.801262,-114.91376,-71.442177,-132.14287,-25.357046,109.18763
3635000000,8.5966654,-59.122139,-75.387505,153.8644,-75.393654,146.20647,-26.402378,101.96366
3640000000,7.8175969,-173.62773,-69.4189,-18.073061,-69.413773,-23.661991,-25.798124,99.74543
3645000000,8.5736332,100.34616,-71.749603,-59.220089,-70.951904,-42.92728,-25.973665,106.78262
3650000000,9.5589657,-13.029552,-64.779602,169.13438,-64.860191,158.53584,-26.540174,107.41266
3655000000,9.2864618,-83.372421,-68.576851,70.022789,-69.132484,69.869797,-26.630016,100.98384
3660000000,6.6976967,160.14766,-64.45948,-39.508469,-66.021416,-40.986221,-27.021811,93.74527
3665000000,9.7793665,60.057041,-66.890427,-141.01608,-64.568047,-137.00192,-27.234879,87.461395
3670000000,7.9284363,-34.314186,-66.802338,167.11334,-67.536842,156.99727,-26.90015,90.202782
3675000000,9.8444586,-121.42119,-64.388176,-24.121389,-62.937672,-23.300694,-27.355455,100.16682
3680000000,6.6377406,134.92223,-65.910011,-66.156204,-66.210136,-61.735806,-28.470457,105.21429
3685000000,10.66944,29.665892,-63.105804,159.99716,-62.356422,151.89175,-28.710331,99.740196
3690000000,8.8432226,-55.773472,-68.45092,39.855682,-70.04425,47.141445,-28.366425,98.239113
3695000000,8.1277332,-157.05872,-65.806824,0.68887293,-65.31311,2.3616006,-30.431902,100.64052
3700000000,7.1067257,110.758,-66.466675,168.46448,-67.285553,178.19205,-33.971603,96.601463
3705000000,10.193089,-5.2676649,-66.012909,105.84936,-65.574219,92.206589,-33.812206,85.792404
3710000000,8.3768997,-73.147453,-64.205109,27.603674,-65.998459,31.330427,-31.874722,96.520813
3715000000,7.2811971,171.99678,-66.286362,-123.23675,-67.288544,-127.4501,-32.036564,107.05012
3720000000,8.8179989,76.996559,-66.774048,-173.82072,-65.317818,-167.95802,-32.942684,109.8666
3725000000,8.4247923,-24.96896,-69.224258,35.722591,-70.073959,22.187332,-32.918106,101.92232
3730000000,9.7722292,-103.54792,-65.064949,-59.989681,-64.052208,-62.595215,-33.380489,112.5966
3735000000,6.1511526,146.64561,-70.747566,-77.917877,-71.48925,-75.037407,-34.223248,128.73792
3740000000,9.8948784,48.169128,-64.56929,77.770386,-63.347565,73.200768,-32.031914,133.55792
3745000000,8.9816608,-45.441963,-70.964577,2.9990535,-74.152901,-1.4403763,-29.674463,138.52049
3750000000,9.3547955,-137.01096,-66.818077,-124.67748,-66.292099,-131.04535,-29.901789,155.82361
3755000000,6.0617232,125.41771,-68.057579,127.55708,-69.315056,136.70511,-32.433876,160.5603
3760000000,10.475087,10.083944,-67.74057,92.136765,-66.153427,76.309547,-32.872604,146.51012
3765000000,8.2818422,-62.65551,-69.225578,-70.747269,-70.304482,-61.834053,-31.136705,152.36026
3770000000,8.4822569,-170.99492,-63.241543,168.96654,-63.515965,160.02704,-30.284243,161.937
3775000000,8.0886793,94.755806,-68.967453,122.55389,-68.450012,138.39642,-29.367865,149.62775
3780000000,9.7179937,-19.129467,-68.707748,32.129051,-69.198959,11.308488,-27.465866,145.44695
3785000000,9.9210949,-84.089958,-67.91468,-102.76654,-68.605377,-96.453568,-26.738512,152.97173
3790000000,7.3131695,162.24876,-70.047142,157.25729,-69.287247,156.54054,-26.709921,155.47226
3795000000,8.9329166,71.388763,-65.202858,38.030277,-64.206688,47.790901,-26.263527,155.15712
3800000000,9.1034565,-39.332012,-65.786346,-38.072575,-66.031776,-43.905216,-25.957144,161.17487
3805000000,9.5220709,-117.25372,-70.662331,175.10797,-70.311005,-175.94255,-25.480906,158.42595
3810000000,6.0290895,135.70271,-67.056961,124.25996,-68.925537,128.1944,-24.488287,152.19141
3815000000,10.697612,26.955992,-65.264854,0.43453917,-63.512913,-9.8821802,-24.907158,156.2179
3820000000,8.3837729,-56.135498,-75.165771,-175.54141,-77.670845,173.54503,-26.917896,154.28908
3825000000,9.5299921,-155.06735,-69.119469,178.6013,-68.163246,178.06287,-25.483545,136.88422
3830000000,6.10566,107.51617,-68.286514,-16.593081,-69.344566,-12.942282,-23.438831,139.77164
3835000000,10.055423,-7.192646,-69.949371,-65.643135,-69.240982,-84.143967,-23.603779,150.01308
3840000000,9.185071,-77.107361,-61.005245,-159.61443,-61.752697,-154.36954,-24.21072,141.67221
3845000000,8.0178289,175.17662,-73.123604,97.217705,-70.930283,80.71814,-23.04121,132.29913
3850000000,8.162055,84.022888,-67.523521,-14.328279,-66.694603,2.7540255,-22.930346,135.8936
3855000000,9.4198446,-32.015915,-70.024849,-55.732273,-72.019447,-64.699562,-23.518728,137.53897
3860000000,10.109618,-100.9524,-65.76033,140.4514,-66.593155,149.53865,-22.970871,130.2045
3865000000,6.2823133,147.41083,-72.771362,14.859612,-74.754753,3.495297,-22.389881,130.95972
3870000000,9.4130278,47.822456,-68.380531,-54.606697,-66.706718,-56.006252,-22.524925,133.51677
3875000000,8.6024551,-51.809719,-65.183182,158.14404,-66.302162,152.88808,-22.39056,128.2674
3880000000,10.574049,-134.55463,-65.136002,98.857796,-64.388397,99.917816,-22.546345,121.90228
3885000000,5.9960961,125.37808,-65.612137,12.692783,-66.176453,14.083189,-23.184809,119.24802
3890000000,10.460407,13.343472,-68.802376,-108.57395,-66.541656,-113.41429,-22.318436,115.51315
3895000000,8.741477,-68.088013,-71.360115,-179.67073,-71.74604,-174.18945,-21.090206,116.18107
3900000000,9.5189257,-167.59883,-80.848488,-4.9856434,-77.762993,1.5872287,-21.433905,119.78922
3905000000,7.3476162,96.189354,-62.037647,-73.66584,-61.808678,-66.435547,-22.073483,119.60384
3910000000,9.890955,-20.563282,-79.948196,-167.56911,-78.993011,179.8398,-21.944256,113.45113
3915000000,10.234069,-88.206673,-63.417805,97.355461,-63.50296,104.66024,-22.479395,110.19737
3920000000,7.7222018,161.00031,-71.295776,38.849018,-71.542984,28.759321,-23.160137,110.3307
3925000000,8.8497829,67.957771,-69.587151,-35.952332,-67.828537,-17.92614,-22.970865,108.10763
3930000000,8.6242132,-44.613728,-71.240578,104.0346,-73.791084,106.04102,-22.961525,101.61452
3935000000,10.664839,-121.66175,-66.912956,5.0367837,-66.738167,3.3208418,-23.139334,93.112045
3940000000,6.2790318,137.0002,-66.0494,-94.36911,-66.831207,-92.03054,-22.053675,92.145378
3945000000,9.9757681,27.273329,-66.436172,-151.24577,-64.632332,-156.54608,-21.4205,94.597763
3950000000,9.5278282,-62.963963,-62.637627,108.59525,-63.919819,107.96154,-22.841206,97.350479
3955000000,10.122072,-154.69423,-67.921051,7.3660355,-67.28318,9.0104971,-24.210453,95.144516
3960000000,5.8966298,113.39732,-68.616188,-66.272163,-69.895592,-56.057838,-23.112028,89.966881
3965000000,9.3981924,-11.405968,-70.72361,113.75123,-69.915932,94.051521,-22.650034,87.8564
3970000000,8.8117895,-80.060875,-75.916122,55.028545,-77.315742,65.049332,-24.159336,87.599655
3975000000,8.6786289,172.84477,-66.683281,-65.907951,-65.856155,-77.245377,-24.590668,80.701683
3980000000,7.9582505,82.267143,-64.486275,178.44504,-63.13269,-179.19011,-23.748985,75.870079
3985000000,8.5042791,-35.465809,-69.256699,108.35026,-70.251465,100.37459,-24.481546,77.397629
3990000000,10.321793,-106.4931,-67.333038,19.220203,-66.181038,28.421745,-25.089151,78.962326
3995000000,6.639751,149.16212,-73.74205,-93.961143,-75.351181,-115.10026,-23.633839,75.336845
4000000000,6.6367397,49.368313,-69.769707,174.80356,-69.35257,178.07726,-23.534264,75.35199
END

