!CSV A.01.01
!Keysight Technologies,N5247A,US56070710,A.10.64.09
!Date: Saturday, November 19, 2022 02:43:33
!Source: Standard

BEGIN CH1_DATA
Freq(Hz),S33(DB),S33(DEG),S34(DB),S34(DEG),S43(DB),S43(DEG),S44(DB),S44(DEG)
3000000000,-13.371751,-173.55551,-82.129509,-141.23543,-82.436218,-169.23627,-12.069544,-160.61461
3005000000,-11.978325,92.997818,-74.767731,-136.65623,-74.937508,-160.78746,-23.67663,-147.78564
3010000000,-12.905127,152.84998,-74.904976,-119.06876,-76.450027,-119.00142,-12.505954,152.96808
3015000000,-11.837983,131.14906,-70.330818,150.63235,-68.715805,152.62091,-12.652558,-154.55205
3020000000,-18.086153,80.12709,-75.666382,58.608707,-72.008026,61.188522,-25.186781,158.62096
3025000000,-9.1147757,132.43025,-70.966843,3.725157,-71.902206,0.58246773,-10.429044,161.99481
3030000000,-21.835699,45.428505,-70.951958,-100.37888,-69.017815,-95.750938,-17.33021,-146.93674
3035000000,-13.014391,132.31969,-75.113586,-168.17207,-78.460052,-161.93503,-17.39888,136.58542
3040000000,-8.355093,130.24164,-72.395584,103.66993,-73.808296,106.01753,-11.561654,163.00777
3045000000,-18.048569,68.390427,-73.503624,4.7861872,-74.749794,8.8005924,-21.830885,-173.62111
3050000000,-10.25668,103.13793,-76.378853,-80.688698,-76.941422,-82.567398,-11.865683,128.46104
3055000000,-15.977163,140.65749,-76.913078,32.131058,-79.239311,-1.7905811,-12.712976,-176.6409
3060000000,-14.62147,110.99841,-85.078568,167.57748,-83.402298,136.07698,-17.376072,143.33582
3065000000,-7.7293396,107.1276,-86.377396,1.4825604,-77.506493,-41.816753,-13.545591,134.71643
3070000000,-22.132017,151.70593,-69.91375,158.76788,-69.795593,144.11079,-14.140273,-170.02663
3075000000,-7.672802,92.813507,-68.929825,73.90815,-70.26062,72.7304,-15.992112,98.549614
3080000000,-12.632673,104.84351,-68.56266,-17.852507,-69.592529,-22.670048,-11.627315,148.31152
3085000000,-14.430382,165.24992,-73.31572,-59.450603,-72.523308,-69.082832,-20.306061,163.90764
3090000000,-6.727242,83.977165,-68.337151,-172.4554,-69.869667,-165.64383,-14.493335,110.90073
3095000000,-13.339332,154.69189,-71.392487,56.989338,-70.633591,69.865524,-11.184182,154.49799
3100000000,-8.4690237,82.428024,-82.087112,57.101082,-84.678322,49.557198,-23.910574,101.16276
3105000000,-12.676931,83.561699,-70.238426,-162.10516,-71.53347,-175.6129,-13.88585,130.91673
3110000000,-9.5141077,134.79512,-66.59314,52.421967,-67.180244,42.70343,-14.257686,146.77763
3115000000,-11.444552,48.438164,-73.559639,-11.602871,-73.592651,-35.02496,-24.544069,78.935715
3120000000,-7.180409,118.14669,-65.701492,-95.363731,-65.805573,-106.7553,-11.201602,115.13473
3125000000,-13.019027,88.705048,-72.091698,145.49915,-72.326515,129.47845,-18.471645,175.6114
3130000000,-9.4670248,61.815201,-69.667564,60.781166,-68.948151,65.80938,-13.932853,95.360916
3135000000,-8.8942232,112.38879,-63.968838,-49.839005,-64.092133,-50.623775,-13.476351,130.58737
3140000000,-16.166332,70.517883,-71.476654,-128.55231,-70.335876,-125.22157,-22.103373,171.01379
3145000000,-9.0422707,93.284012,-68.687851,120.66835,-69.352859,111.50716,-12.785638,100.35566
3150000000,-7.905386,96.744812,-77.958992,-15.010532,-77.580811,-36.404099,-15.66732,152.1288
3155000000,-13.354813,52.047146,-68.183456,-131.49991,-70.371017,-130.90874,-23.775368,85.396378
3160000000,-7.758296,81.727623,-68.222404,125.41805,-67.729347,119.86529,-13.445122,105.21546
3165000000,-17.533953,84.09745,-63.850246,30.450428,-64.53463,35.943062,-15.539293,146.04144
3170000000,-8.7977381,101.54707,-64.378746,-70.928978,-64.868027,-75.112663,-17.66608,74.884476
3175000000,-7.3687959,69.486252,-64.328545,-157.78262,-63.630302,-160.8856,-13.402842,126.68085
3180000000,-17.516859,88.23027,-67.501602,109.70758,-66.761948,110.21657,-16.369389,149.6647
3185000000,-5.3687668,58.224899,-66.940826,11.656497,-67.503906,18.478794,-18.247404,67.686981
3190000000,-18.798883,97.994087,-70.449646,-105.85915,-69.670616,-95.808838,-12.863568,140.76973
3195000000,-10.219501,91.94297,-74.011467,115.64844,-73.629707,129.64749,-33.117966,-15.839312
3200000000,-6.0836744,60.424541,-67.534348,35.741959,-68.675995,32.216602,-12.209118,96.773911
3205000000,-9.5451555,102.35915,-67.896263,-110.9505,-68.242714,-118.14049,-18.783283,144.08293
3210000000,-6.7831192,23.139147,-66.755104,-164.44046,-67.321686,-172.21512,-21.990704,86.218422
3215000000,-13.999099,106.2401,-63.189457,74.243362,-63.344334,71.517799,-12.324283,104.21631
3220000000,-8.1759005,80.179298,-67.471199,-24.746384,-65.636787,-27.718048,-18.317558,155.77316
3225000000,-8.797368,45.909119,-66.004639,-101.28358,-66.729523,-110.96755,-18.986315,78.842278
3230000000,-7.8347163,72.553169,-68.319328,137.33411,-68.089546,142.27852,-13.713575,124.76548
3235000000,-10.705718,35.16309,-71.658318,49.97681,-71.342094,45.764294,-24.219606,135.45694
3240000000,-9.1173677,53.466507,-67.919098,-66.102386,-69.58432,-70.665451,-15.169151,78.001465
3245000000,-10.023518,80.493637,-68.37851,139.78436,-69.437347,130.90512,-14.302345,142.04727
3250000000,-12.792028,33.227226,-66.493324,49.508965,-68.456055,52.878105,-20.654419,77.800972
3255000000,-5.021101,72.544418,-66.15033,-60.156715,-65.74617,-71.226196,-14.092755,93.287659
3260000000,-7.8555403,20.389221,-64.841049,-154.4982,-65.014236,-153.93546,-14.697638,138.24603
3265000000,-14.539022,34.405968,-65.845665,118.13931,-66.253647,117.20086,-22.249544,80.10125
3270000000,-6.7040348,65.391296,-67.339867,16.737331,-67.586693,15.909534,-12.750882,105.13884
3275000000,-17.639591,44.487152,-67.942017,-84.740356,-68.672943,-82.791122,-24.513748,134.93733
3280000000,-5.1376247,57.563469,-70.777809,160.72563,-73.525414,171.20898,-15.862984,87.640175
3285000000,-8.8124399,23.599808,-69.798866,28.912861,-70.356445,10.908983,-13.342257,103.12151
3290000000,-17.277954,28.42643,-71.316559,-106.34873,-70.930672,-96.949966,-22.085764,121.34745
3295000000,-6.1143751,32.04377,-68.409477,164.22081,-68.295341,153.10683,-14.094853,84.218887
3300000000,-13.468052,91.117249,-65.598869,62.125229,-65.832481,57.291965,-13.8966,118.33411
3305000000,-6.3739505,33.26453,-66.694183,-22.220915,-68.970795,-19.487722,-21.029573,105.13403
3310000000,-7.9988751,32.705166,-67.893105,-109.9999,-68.536346,-126.43173,-13.838669,81.478172
3315000000,-11.995085,49.19096,-71.01432,143.49519,-69.611984,146.80981,-15.988007,146.59149
3320000000,-7.8955064,3.0151536,-79.304535,33.654274,-75.508026,24.534143,-14.124458,56.314507
3325000000,-12.91162,72.076157,-71.725693,-131.48213,-71.308472,-127.08681,-16.00836,95.808296
3330000000,-9.1022234,34.538349,-71.436844,97.881409,-72.623512,100.64147,-13.884872,105.23073
3335000000,-5.7377067,16.970158,-69.271103,19.354362,-68.151619,5.6062512,-18.032852,50.917625
3340000000,-9.4713135,38.085117,-66.08007,-78.95842,-65.427635,-85.854118,-10.52029,103.16167
3345000000,-9.8551102,-18.121147,-68.530121,170.51855,-67.715271,167.18433,-50.33987,23.928059
3350000000,-9.5945263,43.823132,-68.170654,80.317223,-67.199547,71.052109,-12.80743,78.295296
3355000000,-8.7165565,45.312305,-67.763863,-25.186232,-67.672386,-32.868942,-16.735548,99.17926
3360000000,-8.8326426,-6.4671526,-70.972565,-137.59213,-71.002045,-140.19139,-21.306665,27.688641
3365000000,-4.787291,32.039913,-69.066521,68.858124,-69.892738,76.825958,-11.498406,72.728294
3370000000,-9.3728514,-46.299717,-68.668777,-35.524067,-68.254433,-34.585361,-17.988018,97.402443
3375000000,-8.8134375,51.539261,-63.322487,-151.32681,-63.894615,-151.12981,-16.861797,54.583702
3380000000,-7.4268627,18.181433,-62.734196,114.02804,-63.203621,112.79628,-12.873559,82.39801
3385000000,-16.358175,39.311665,-62.983498,17.697157,-62.268948,18.066456,-26.074036,124.88306
3390000000,-2.9050062,4.7986937,-63.886894,-91.914421,-63.927425,-95.06765,-12.755603,46.583282
3395000000,-24.008205,-61.1357,-66.381821,169.21094,-65.761909,170.29561,-16.492439,97.424263
3400000000,-9.34338,10.768928,-63.932018,46.911804,-64.482765,48.833675,-23.822548,51.87336
3405000000,-8.9781466,-5.3000646,-65.96817,-86.658417,-64.003906,-87.516281,-12.299868,40.619827
3410000000,-10.120053,53.807499,-62.186924,175.5791,-62.47369,172.78043,-16.339369,109.52032
3415000000,-3.2778292,-12.846841,-61.57811,65.750191,-61.193775,67.296005,-16.077131,24.261215
3420000000,-13.740499,-0.88509244,-60.1707,-39.430759,-60.490005,-42.431488,-14.965425,71.296265
3425000000,-13.76195,12.77866,-60.921398,-141.63261,-60.955616,-138.58371,-20.068998,94.114281
3430000000,-8.135705,-8.3759785,-62.115658,120.16879,-62.562305,120.09423,-16.938656,9.3118172
3435000000,-11.416862,37.62336,-62.05624,26.199041,-62.151672,16.932144,-14.981638,86.921547
3440000000,-5.4838233,-16.63394,-63.261623,-89.03167,-62.916851,-89.581551,-21.303759,-14.796439
3445000000,-10.366789,-17.359877,-64.681824,148.50935,-63.778145,145.86876,-15.446442,45.48003
3450000000,-9.0574913,14.536612,-62.842323,36.224556,-62.876507,32.233395,-17.219875,70.600914
3455000000,-10.161796,-59.714794,-61.998863,-65.366341,-62.373569,-67.491882,-28.817019,-8.9753361
3460000000,-6.6009536,44.304169,-60.540146,-176.89633,-61.436314,178.65331,-13.31237,50.937214
3465000000,-4.8099766,-27.644638,-61.225388,94.0802,-60.962635,86.325417,-22.183586,144.8438
3470000000,-14.978612,-39.872562,-60.982346,-16.553989,-60.614811,-10.341517,-18.928074,9.1111603
3475000000,-6.6490622,3.4486139,-61.124779,-107.34547,-60.378208,-110.43526,-19.175781,72.952019
3480000000,-12.482734,-78.983757,-62.588734,147.08008,-62.42387,149.08804,-32.18486,1.5980129
3485000000,-4.9268403,15.315435,-63.374405,31.693623,-63.192486,29.541498,-17.14617,20.734905
3490000000,-11.609244,-42.746307,-62.764938,-75.26693,-62.34729,-80.33194,-18.710634,85.09214
3495000000,-10.837543,-5.0645609,-64.621956,179.14221,-63.924755,174.80211,-25.947716,3.8512526
3500000000,-5.9109235,-24.396557,-61.981785,70.421272,-62.508434,62.405262,-16.441519,49.27029
3505000000,-33.00444,168.39691,-63.347706,-26.272228,-63.251469,-28.6376,-19.688282,126.45933
3510000000,-6.0058503,-18.203295,-62.587849,-132.10861,-61.945969,-133.37691,-24.684326,-14.052967
3515000000,-12.272552,-8.6566715,-61.197739,126.40686,-61.695915,127.14082,-20.332262,67.090538
3520000000,-13.840087,-9.4851284,-62.262115,40.817131,-62.214783,34.353153,-34.988289,78.814865
3525000000,-5.883698,-35.892422,-62.707382,-75.736092,-62.429367,-80.011963,-21.217987,9.4036827
3530000000,-19.697002,-12.358978,-64.582893,-174.79692,-64.030746,-174.8454,-15.430039,71.205475
3535000000,-8.1544676,-24.502762,-65.279121,72.654083,-64.781616,66.916367,-26.761026,-176.13246
3540000000,-10.851311,-55.509953,-65.367119,-39.014996,-65.384392,-42.828224,-17.242706,51.690826
3545000000,-8.2508945,40.018642,-63.222401,-140.62991,-62.898067,-147.1893,-21.861984,121.38875
3550000000,-3.4666514,-47.514816,-62.602924,117.22456,-63.18576,112.00229,-29.35269,110.51682
3555000000,-23.297443,44.419533,-63.043392,11.614314,-63.036682,11.436898,-21.519621,27.835867
3560000000,-7.9229584,-37.301407,-62.475468,-92.289391,-62.785912,-91.672096,-20.076656,114.22856
3565000000,-18.725782,-123.3274,-64.06353,173.26381,-64.741196,168.64095,-24.562536,-4.6571212
3570000000,-3.5550308,9.3706675,-64.676865,77.858177,-65.522171,70.630905,-18.120436,55.961967
3575000000,-7.800137,-89.985458,-64.767212,-31.601763,-64.614136,-32.923332,-18.070044,109.52865
3580000000,-9.4135742,-16.114058,-66.462418,-147.66687,-66.919571,-147.75542,-22.382767,-9.5028162
3585000000,-9.5972109,-53.363991,-67.449097,115.2543,-68.467621,108.62731,-14.286809,101.47925
3590000000,-18.738178,174.85588,-64.828537,0.42898542,-66.814392,-0.34704027,-26.776112,-75.789444
3595000000,-3.5766721,-9.1677704,-67.305191,-97.630783,-67.129715,-100.05704,-20.323305,58.755814
3600000000,-12.573997,-67.412865,-67.651062,178.47525,-67.949295,172.30128,-20.067373,83.247177
3605000000,-6.9827971,-47.861164,-65.374023,80.506584,-65.056847,67.456055,-32.075619,-85.23877
3610000000,-13.87007,-61.578712,-64.406433,-28.382105,-65.879112,-31.045744,-14.819884,42.484455
3615000000,-16.907808,79.588593,-66.308235,-117.66557,-67.13723,-119.15044,-20.263371,118.80116
3620000000,-4.8227048,-21.139208,-68.523895,141.83734,-69.343216,126.58807,-24.777746,36.844475
3625000000,-8.1334286,-63.989727,-67.918915,29.194281,-68.554703,23.328871,-16.177122,65.401215
3630000000,-19.995045,-2.9687452,-66.868034,-91.836014,-65.710747,-76.638191,-22.952068,-179.62636
3635000000,-5.8486919,-79.202652,-68.4002,173.37299,-66.852234,176.50339,-17.266672,42.44976
3640000000,-9.2820673,51.710358,-65.706207,68.678551,-65.852036,63.166302,-23.433424,108.89689
3645000000,-3.4405355,-54.162998,-66.29155,-29.346701,-65.500015,-28.799858,-44.540398,29.410143
3650000000,-25.556812,-167.8871,-65.025246,-128.20976,-65.937569,-130.76732,-17.830967,16.798134
3655000000,-3.7370465,-15.860989,-65.773041,134.2249,-65.561745,130.92784,-18.381969,100.44808
3660000000,-5.1134768,-108.96964,-70.491814,39.268425,-69.855179,31.655199,-22.814409,0.58940113
3665000000,-7.1754436,38.146259,-67.558937,-59.774033,-68.013718,-59.410019,-21.811705,48.300259
3670000000,-7.8707824,-69.213928,-69.818893,-161.83815,-68.184639,-168.56219,-16.616461,104.11619
3675000000,-12.354574,-13.25199,-68.366463,70.439835,-68.413414,75.581085,-19.246019,-52.861313
3680000000,-5.0117421,-46.369762,-66.14138,-19.7696,-66.129456,-19.951107,-16.515385,88.934921
3685000000,-10.244722,-124.12431,-65.565674,-135.98041,-64.668884,-139.66478,-23.074297,-84.193123
3690000000,-8.5856533,-5.3107128,-67.319069,138.88025,-67.594978,131.58855,-20.053068,33.518742
3695000000,-10.294502,-43.407234,-64.96682,32.136417,-64.37133,36.078102,-19.346228,48.375061
3700000000,-12.815846,-56.805851,-67.125748,-65.693672,-66.543549,-72.150406,-23.773056,-168.0423
3705000000,-4.7932916,-40.348015,-67.30011,-165.49947,-68.909424,-158.59834,-15.633929,34.219608
3710000000,-12.326989,-155.60664,-66.24073,99.51532,-65.833801,99.108543,-23.30526,142.41725
3715000000,-5.3447075,-24.279573,-68.724625,-22.517044,-69.254791,-31.463768,-29.307121,16.468365
3720000000,-9.1936989,-82.924591,-69.646515,-100.84465,-70.027504,-105.22285,-24.561159,73.680923
3725000000,-14.884813,37.347492,-69.541245,126.74702,-70.984993,128.28723,-31.139355,98.184502
3730000000,-2.0179672,-54.494629,-68.959297,25.284983,-66.674217,17.178648,-23.07686,-4.0230055
3735000000,-17.023712,159.88228,-66.711266,-76.576447,-66.443848,-73.373711,-19.425318,94.166405
3740000000,-5.3030105,-45.095928,-67.419762,-172.09991,-65.741814,177.82335,-28.327879,129.10266
3745000000,-10.742052,-100.50871,-67.146446,85.031296,-67.346718,82.430824,-23.895662,4.1653218
3750000000,-7.1244707,15.528957,-68.229965,-16.694929,-68.40686,-11.730673,-18.986917,113.46506
3755000000,-3.4414232,-92.70192,-72.180641,-89.754921,-70.202194,-118.25772,-35.163723,-163.00314
3760000000,-10.68049,3.9228179,-68.186356,161.86548,-67.761581,146.58929,-24.121403,60.875237
3765000000,-4.4974709,-73.277138,-73.595863,18.867252,-70.51284,15.417975,-28.645197,133.84618
3770000000,-14.241802,-141.58943,-75.478691,-89.793655,-72.537132,-83.718788,-48.54377,-17.111134
3775000000,-4.3090925,-8.1197901,-70.294312,165.66747,-71.527748,169.36485,-16.438066,63.879276
3780000000,-5.6705084,-101.18095,-72.155701,66.462593,-72.143372,64.640663,-22.310854,178.9167
3785000000,-9.2740898,-34.488846,-71.052322,-14.273622,-71.387558,-18.0923,-21.165497,54.006256
3790000000,-7.2478943,-71.607712,-69.555809,-107.78937,-69.444626,-111.94194,-18.418324,106.52063
3795000000,-13.075085,-126.49184,-70.864464,140.21738,-69.268669,123.338,-23.077812,145.50461
3800000000,-5.1536465,-26.513006,-72.688904,64.043335,-70.797363,63.851097,-27.601044,24.412766
3805000000,-8.3051882,-91.303482,-73.502029,-34.212715,-73.286072,-34.629856,-18.049294,122.2075
3810000000,-11.705133,-54.988251,-76.990387,-177.04489,-77.651558,-171.4924,-25.709286,46.988071
3815000000,-3.4069605,-71.815964,-82.929344,137.45464,-76.662598,115.06329,-26.653944,60.991867
3820000000,-12.483568,143.38919,-76.161148,3.8909292,-73.23819,-0.51867437,-15.706993,101.03925
3825000000,-2.3367519,-49.281685,-82.881737,-112.99041,-80.456642,-128.9324,-31.277626,26.039652
3830000000,-11.110468,-129.66124,-73.817612,160.89792,-73.271835,148.82524,-13.24791,97.168304
3835000000,-6.6029258,-39.56551,-76.570435,47.394215,-72.154976,64.155968,-21.42135,-159.18747
3840000000,-3.6822512,-104.98539,-70.579132,-11.788917,-71.958748,-16.557598,-21.949598,95.8685
3845000000,-13.631779,31.59285,-74.369255,-143.22878,-73.681755,-144.168,-18.571825,58.302387
3850000000,-2.6282616,-82.56897,-75.110558,126.88152,-75.24614,126.4834,-21.683971,178.78459
3855000000,-19.334444,-128.39569,-71.891296,45.03495,-73.72435,48.104187,-16.465273,37.132954
3860000000,-4.1736975,-53.703949,-72.822807,-46.565208,-77.535568,-64.120888,-17.450104,93.425056
3865000000,-5.5740714,-118.58416,-74.007774,-146.46063,-74.322243,-149.06279,-21.608654,74.800331
3870000000,-10.512074,-30.273346,-74.441376,77.614288,-73.509216,88.250061,-17.880707,71.611534
3875000000,-4.9440794,-92.788834,-76.3452,-19.901695,-74.862701,2.9444666,-16.516609,124.93295
3880000000,-15.236024,-128.41907,-75.239525,-113.9373,-76.626251,-118.46813,-21.097572,33.702229
3885000000,-3.7051082,-50.325779,-72.305832,154.85938,-71.24176,137.9303,-20.530167,84.401085
3890000000,-3.4731994,-128.90167,-75.153717,67.471199,-73.996048,63.766365,-19.736898,126.44325
3895000000,-11.615806,-33.000126,-71.679489,-26.496597,-71.576706,-46.062046,-15.063644,2.76123
3900000000,-3.9206834,-88.528397,-70.404144,-131.8311,-71.606361,-134.22176,-13.631236,96.874535
3905000000,-13.971043,-112.02958,-73.791107,132.79431,-75.462212,139.13307,-24.293554,-9.2388525
3910000000,-4.7045383,-66.276001,-78.09713,24.022495,-76.622787,31.88501,-15.43218,74.002449
3915000000,-7.3190432,-141.29974,-71.271133,-83.521736,-71.065315,-75.368622,-17.985392,73.599045
3920000000,-4.8857675,-51.872021,-71.654472,168.20721,-71.591629,165.6434,-38.144627,-36.981621
3925000000,-4.9536023,-122.42822,-72.211273,76.520546,-72.82608,79.980324,-15.021979,71.570999
3930000000,-21.356129,-27.592495,-67.469009,-49.424999,-67.554489,-40.047215,-32.644127,43.315498
3935000000,-1.9124801,-94.439644,-69.140419,-143.17847,-69.442535,-136.00537,-19.869892,19.730133
3940000000,-18.879162,147.48958,-66.618927,158.52635,-66.677505,143.29099,-14.906431,58.008026
3945000000,-2.922399,-85.382683,-66.04171,39.214233,-67.305397,35.4179,-25.603586,127.14378
3950000000,-6.8442473,-131.33014,-69.086433,-44.688519,-68.605194,-58.520073,-13.250992,37.865147
3955000000,-12.121002,-60.567585,-70.208748,-149.25417,-69.14238,-156.44041,-22.255537,151.30908
3960000000,-4.4248452,-116.04989,-70.259575,79.820831,-69.731575,77.807388,-17.519922,47.53434
3965000000,-19.037039,-82.625038,-69.579468,-6.4143548,-68.114204,-16.180679,-23.674212,47.313931
3970000000,-4.2269983,-95.398628,-67.387848,-133.8734,-67.762039,-130.76286,-24.618616,64.42218
3975000000,-4.0679545,-138.91614,-67.514465,129.01534,-68.399147,122.70384,-22.116983,-1.2569669
3980000000,-12.772467,-44.535664,-67.921478,20.330938,-68.531174,17.246653,-17.130878,51.553871
3985000000,-4.7473516,-126.47068,-67.112465,-69.213097,-67.046394,-78.880371,-21.993616,51.120197
3990000000,-12.151087,-83.028435,-67.57373,-173.63524,-67.764626,178.58052,-26.638493,-3.488575
3995000000,-4.710247,-105.90816,-65.911865,75.795166,-64.29821,73.859367,-17.069128,68.161041
4000000000,-4.497232,-158.96423,-66.174706,-18.675596,-66.712219,-21.868155,-26.737225,-8.5154181
END

