!CSV A.01.01
!Keysight Technologies,N5247A,US56070710,A.10.64.09
!Date: Sunday, November 20, 2022 21:39:00
!Source: Standard

BEGIN CH1_DATA
Freq(Hz),S33(DB),S33(DEG),S34(DB),S34(DEG),S43(DB),S43(DEG),S44(DB),S44(DEG)
3000000000,-4.29003,-60.536255,-53.950939,-145.78197,-54.938412,-143.16783,-17.774399,-152.03728
3005000000,-6.2116437,-88.351875,-53.0158,138.446,-54.619129,141.15976,-18.385092,-159.55367
3010000000,-2.7469196,-65.672951,-53.354755,56.700237,-54.43589,52.688469,-16.938395,-163.9299
3015000000,-5.6390624,-72.035072,-52.024078,-35.872337,-54.309555,-34.431915,-16.615616,-169.02888
3020000000,-5.0111508,-83.274628,-52.796658,-109.50312,-54.075348,-125.48955,-17.370441,-170.83649
3025000000,-2.9475405,-65.007477,-52.445724,152.23889,-53.223927,155.5043,-16.219151,-174.20029
3030000000,-7.4521618,-75.149078,-52.444576,79.549324,-51.582573,70.583199,-16.63098,-174.78136
3035000000,-2.9143038,-77.165665,-52.415588,-27.957132,-54.178104,-23.093731,-16.276295,-177.24208
3040000000,-4.5177469,-73.176796,-54.485958,-109.56167,-52.622864,-106.9132,-16.111044,178.54492
3045000000,-6.9075661,-75.628525,-55.137413,175.74353,-56.787544,177.70313,-16.387964,171.88364
3050000000,-2.3260734,-80.552887,-57.767723,96.410187,-56.556732,106.5136,-15.208848,167.10628
3055000000,-6.7777672,-61.534622,-56.590874,13.49069,-59.366703,-15.042605,-16.141047,168.11838
3060000000,-3.4903297,-83.77652,-65.243629,-83.726326,-66.576202,1.048189,-16.010071,168.25519
3065000000,-4.2817845,-80.876236,-59.237167,-112.05815,-60.598049,-133.59317,-15.517733,163.47757
3070000000,-5.8900175,-64.293503,-59.015522,157.39703,-57.265362,167.67526,-15.903328,166.15889
3075000000,-3.6837885,-91.914658,-58.932487,78.049156,-59.70792,96.013123,-15.50882,156.25208
3080000000,-4.5167999,-65.680077,-53.690273,10.891682,-54.304409,1.761609,-15.759834,156.07538
3085000000,-5.1536903,-83.050644,-54.315113,-77.859009,-56.694111,-55.783966,-15.984259,152.96268
3090000000,-4.3266735,-92.062553,-53.057278,-159.96854,-52.937553,-148.76982,-16.081013,147.73309
3095000000,-3.9171581,-62.786633,-52.098396,111.76721,-53.270924,122.42924,-15.626226,154.51677
3100000000,-5.6339545,-99.671219,-53.848766,29.887756,-52.974918,39.341534,-15.459749,147.88214
3105000000,-3.7189384,-77.713058,-52.836178,-58.397114,-52.621933,-61.134857,-15.847611,148.11751
3110000000,-5.1181178,-74.652695,-54.112896,-143.13943,-53.584187,-158.55968,-15.581868,145.51363
3115000000,-5.91854,-94.427322,-54.703796,133.05595,-52.258308,141.49739,-16.630018,138.42809
3120000000,-2.7962523,-75.271027,-57.39159,39.343143,-57.090023,52.794792,-15.82467,140.05588
3125000000,-7.8364167,-91.88295,-57.098598,-43.666065,-54.999649,-38.549225,-16.61286,140.17955
3130000000,-4.62676,-85.876747,-57.648247,-141.46481,-56.437675,-128.14682,-16.349932,139.43665
3135000000,-3.4645507,-80.252678,-56.075714,163.80974,-62.410336,175.83353,-15.501278,136.25775
3140000000,-9.1786356,-89.075806,-61.675243,138.86429,-61.826015,121.31995,-16.425493,136.10234
3145000000,-2.5738053,-89.493637,-61.409035,11.967752,-58.524052,32.264294,-15.783991,132.68362
3150000000,-7.1086364,-81.421242,-55.373386,-31.939322,-60.079952,-44.22118,-16.773455,137.69092
3155000000,-6.3099489,-89.052902,-54.482941,-110.37577,-57.727383,-117.93639,-17.281431,132.2338
3160000000,-3.2634742,-91.494179,-56.008392,164.7052,-53.898788,167.55882,-16.777546,131.92978
3165000000,-8.1659317,-70.600037,-55.9963,78.310707,-57.375816,74.557762,-16.483156,132.7923
3170000000,-4.0287499,-103.82521,-53.053379,-8.356741,-53.656376,8.6149597,-16.439383,127.90508
3175000000,-5.2807212,-79.252602,-50.926136,-79.75209,-50.856617,-89.929237,-16.308229,128.75862
3180000000,-7.3495283,-86.723633,-53.288799,172.01636,-52.449345,-174.01872,-16.910818,133.05432
3185000000,-4.6650739,-105.69333,-51.905231,93.944199,-52.134155,94.956894,-17.285263,130.63725
3190000000,-5.7510672,-71.718086,-54.901291,8.7116652,-54.554436,21.520918,-17.278126,135.85196
3195000000,-6.5045018,-107.79025,-53.921852,-77.865067,-51.954269,-77.764465,-18.013874,127.99191
3200000000,-5.5526509,-96.779564,-54.463181,-168.63011,-53.273441,-157.60492,-16.558144,125.84613
3205000000,-6.20259,-77.528625,-54.848812,118.23937,-55.539398,134.07217,-17.040716,123.01358
3210000000,-7.1326103,-119.03206,-57.286644,42.741951,-57.404877,32.910126,-17.639072,121.63387
3215000000,-4.3684998,-83.435951,-56.580048,-43.29166,-58.724735,-47.120037,-16.248571,123.15751
3220000000,-9.0733585,-98.589317,-58.672478,-138.21634,-59.894451,-121.28275,-16.879383,130.44351
3225000000,-6.4589796,-105.18391,-57.488697,176.36963,-59.253635,175.29657,-16.61054,127.16724
3230000000,-4.7438712,-86.741211,-58.078011,107.92246,-53.597904,100.91476,-16.811962,126.05479
3235000000,-12.59789,-118.3189,-57.787495,28.51368,-59.03735,19.431578,-16.796989,127.6052
3240000000,-4.3693233,-95.663414,-56.677753,-58.490471,-55.145531,-44.340229,-16.785872,120.47169
3245000000,-7.9458942,-96.171928,-54.61483,-128.26155,-57.363613,-137.13326,-17.130014,128.74312
3250000000,-10.744823,-100.03109,-53.450939,141.30573,-54.028221,148.84247,-16.775675,119.81158
3255000000,-3.9994469,-104.30694,-52.566105,53.221714,-51.34021,67.077927,-16.273022,122.65352
3260000000,-13.22064,-73.770981,-51.894535,-30.11937,-54.155701,-31.519251,-15.574553,125.84325
3265000000,-5.8416529,-108.98065,-52.038029,-121.74301,-51.481422,-116.31187,-16.542986,119.48703
3270000000,-7.4602666,-103.29477,-51.591557,155.03293,-51.497562,159.31789,-15.760123,124.61368
3275000000,-11.10991,-72.459007,-52.919533,53.356136,-53.986591,59.904942,-16.69042,118.46115
3280000000,-5.2670918,-123.54792,-54.251308,-16.695417,-57.583973,-10.607448,-16.468283,121.78861
3285000000,-9.0709724,-74.867172,-54.210987,-115.74438,-53.680889,-105.1674,-15.434662,118.25008
3290000000,-10.565674,-109.42178,-54.80275,168.00346,-56.856892,174.19876,-16.177391,118.33076
3295000000,-7.6205516,-114.983,-56.647633,107.0001,-57.894203,91.967911,-15.039511,114.21689
3300000000,-8.4678268,-70.705429,-56.627621,21.969233,-58.553665,13.119178,-15.195135,115.27531
3305000000,-9.3352871,-139.2079,-58.72998,-46.435757,-58.019123,-46.598507,-15.780455,118.33239
3310000000,-8.0037251,-87.064346,-61.837399,-141.26228,-57.242104,-123.86993,-15.148416,114.08813
3315000000,-11.567393,-97.174896,-53.785564,177.37743,-56.152382,168.82207,-16.035618,116.76871
3320000000,-12.576146,-136.07344,-54.800903,90.676315,-53.548695,86.319839,-14.994871,110.51189
3325000000,-5.7295828,-82.044807,-52.609676,22.063225,-55.954159,20.44566,-15.266506,106.03878
3330000000,-17.185022,-158.69951,-51.843075,-79.326401,-52.318314,-68.436058,-14.941552,111.25761
3335000000,-9.6639833,-102.16827,-51.866917,-152.1452,-52.319744,-173.6738,-15.089178,101.25742
3340000000,-9.6205044,-93.551003,-51.587452,107.00782,-51.360867,115.7684,-14.752165,110.31246
3345000000,-29.511919,-129.59814,-52.965736,20.027096,-51.605598,23.043819,-15.685576,105.04359
3350000000,-6.1137547,-105.182,-51.066082,-68.363747,-52.006355,-68.838905,-15.125437,101.02985
3355000000,-20.590137,-57.125488,-52.070198,-153.6176,-53.796513,-159.17059,-14.807877,104.67511
3360000000,-12.286538,-111.65723,-51.766655,115.45657,-52.946938,122.88551,-16.084839,94.365822
3365000000,-9.6729431,-108.22487,-55.413788,26.426792,-56.176964,37.338814,-14.730278,93.021049
3370000000,-15.424374,-14.106271,-59.205639,-64.50856,-58.523525,-54.281635,-14.705812,95.418198
3375000000,-8.7498865,-124.07765,-57.881699,-148.80148,-58.184193,-161.96613,-15.557201,96.056458
3380000000,-12.418713,-76.396614,-60.86676,176.69789,-65.075722,171.47723,-14.904447,94.808121
3385000000,-19.009855,-59.600739,-56.531551,97.259193,-60.613758,105.93532,-15.749678,93.186081
3390000000,-10.790477,-130.98726,-58.750389,63.056137,-69.898193,36.493896,-15.077509,84.496643
3395000000,-10.01878,-38.89753,-58.476444,-55.362831,-58.950218,-49.174953,-15.229117,90.287308
3400000000,-16.302763,-131.88275,-56.862392,-100.57486,-55.759056,-125.29322,-16.540926,85.411514
3405000000,-12.59195,-99.462601,-55.339699,145.64316,-55.238354,168.34229,-15.562625,79.351906
3410000000,-11.858993,-39.433453,-53.857365,57.376812,-54.658905,70.746063,-15.70182,86.847855
3415000000,-16.85391,-158.22014,-54.632584,-34.770828,-53.193913,-22.366991,-16.124657,81.137428
3420000000,-8.5432453,-61.768845,-53.087051,-119.04225,-54.06377,-116.25681,-15.572137,80.863297
3425000000,-28.018518,-84.008278,-53.895771,156.41286,-55.851437,165.37288,-16.739763,82.14698
3430000000,-18.303694,-66.164452,-56.096851,79.611397,-53.177074,70.105362,-17.252586,76.704926
3435000000,-8.545907,-71.209106,-57.825325,-18.086128,-54.403008,-9.8627291,-16.788288,78.426422
3440000000,-16.722267,56.950665,-56.35001,-106.98019,-58.191879,-114.4615,-18.393871,72.508835
3445000000,-9.6520109,-87.760818,-60.314327,-172.0983,-56.51392,156.23804,-16.418823,72.638206
3450000000,-13.614218,-20.255568,-67.460464,66.410561,-67.6222,126.43574,-16.634584,78.454216
3455000000,-18.965061,-35.822819,-62.474216,40.207195,-63.207401,16.140799,-18.761166,72.290962
3460000000,-9.8138533,-94.110237,-71.564163,3.324445,-64.988838,-58.22879,-17.055065,70.224922
3465000000,-10.00414,6.6184764,-61.933067,-114.70805,-66.637398,-103.60103,-18.593435,81.059402
3470000000,-14.171502,-101.92635,-60.631821,-172.44931,-59.909893,154.13451,-19.201666,73.122398
3475000000,-13.179568,-51.251507,-62.60397,105.77265,-56.722645,119.77995,-19.256708,73.167053
3480000000,-9.6176405,-7.8016787,-60.443531,9.8980494,-56.054649,21.300228,-19.502157,76.838181
3485000000,-11.172522,-119.58318,-54.993553,-66.466927,-56.076904,-68.239189,-18.38695,62.832241
3490000000,-10.070838,-14.726461,-54.819042,-151.66519,-57.506592,-153.53954,-19.897892,77.450081
3495000000,-15.274591,-32.016663,-56.529778,109.68262,-55.744301,116.79371,-19.770945,70.21328
3500000000,-15.751435,-78.507225,-58.598835,24.758205,-57.798878,52.175842,-19.443697,72.950058
3505000000,-7.1311121,-28.110365,-59.147667,-62.250931,-56.370831,-62.282398,-19.002439,88.653008
3510000000,-23.059109,-166.17474,-55.997375,-135.45102,-58.572388,-170.53128,-22.075489,78.842728
3515000000,-8.9629755,-42.791023,-59.505337,107.0406,-58.109493,130.0873,-20.0938,79.190842
3520000000,-12.145643,-29.272623,-61.346664,40.159969,-59.248127,41.70351,-20.375404,74.603729
3525000000,-20.15062,-18.657938,-59.801559,-86.34285,-64.589142,-64.776939,-21.884771,78.469078
3530000000,-6.5101314,-59.33466,-74.902992,-130.42976,-74.947342,-172.96045,-19.081064,82.8181
3535000000,-14.135357,26.861416,-67.082047,131.8866,-72.231636,157.37032,-20.981106,88.48304
3540000000,-10.782949,-61.734432,-64.671989,-179.89488,-66.996063,-164.18784,-19.852812,87.020966
3545000000,-9.3304577,-43.53653,-59.744656,117.87186,-65.992783,60.441753,-19.893286,89.088577
3550000000,-12.739107,6.2677588,-58.713135,4.8536396,-61.063866,-5.6076646,-21.237535,90.740456
3555000000,-9.1302242,-83.293831,-56.361885,-103.65985,-62.027626,-88.0466,-20.360811,79.568962
3560000000,-8.1225014,-12.206016,-60.544861,-152.20541,-57.331608,-177.87605,-21.008032,93.777359
3565000000,-15.377481,-47.549526,-58.705509,94.418251,-58.733067,79.787201,-20.965157,93.041275
3570000000,-9.4463959,-67.731339,-57.009285,-22.059156,-58.817608,-20.770802,-19.699429,74.75383
3575000000,-7.8404241,-0.074276656,-59.408062,-86.549904,-59.025433,-83.024788,-18.826929,97.347961
3580000000,-12.195918,-89.990051,-61.171173,143.10446,-60.916611,-179.91789,-20.464487,83.432304
3585000000,-7.9774532,-28.857769,-63.591881,62.81023,-60.959057,93.409523,-19.605116,90.608971
3590000000,-10.790364,-27.679003,-68.781418,22.990921,-62.290611,27.399902,-20.767649,89.417
3595000000,-16.114229,-89.551338,-71.488647,-78.830528,-61.900261,-86.941345,-20.35914,83.891624
3600000000,-5.1063766,-25.177172,-78.65287,-48.199951,-74.169357,-175.88586,-18.825327,93.362617
3605000000,-20.121696,-45.951237,-69.843269,96.048904,-66.105133,167.70232,-20.49481,80.4338
3610000000,-9.3805656,-46.953075,-66.644745,139.90385,-67.444138,165.5699,-19.420523,79.086479
3615000000,-7.7206206,-33.739685,-66.400589,68.645615,-62.292171,73.246033,-18.634705,87.330803
3620000000,-20.532782,17.257652,-61.460144,-18.123707,-62.009705,-34.743134,-20.886799,84.449753
3625000000,-5.2131681,-54.909561,-63.212978,-120.65798,-59.556919,-134.98032,-19.010874,85.739731
3630000000,-11.923112,3.617234,-67.522324,167.58237,-62.301697,169.79085,-20.460882,90.174149
3635000000,-11.381022,-51.940742,-60.044964,60.191315,-60.720032,60.850826,-19.710423,76.88195
3640000000,-6.7903619,-48.827759,-57.297935,-23.226374,-61.529118,-36.791668,-19.31855,81.250977
3645000000,-10.979417,5.8873739,-64.062057,-154.68846,-56.594154,-151.22919,-21.344456,82.325188
3650000000,-8.9594727,-68.212967,-68.019547,93.874664,-58.013306,144.31731,-20.540585,69.333809
3655000000,-8.0415573,-22.599072,-62.870602,19.013878,-62.439175,25.2757,-19.245007,76.066284
3660000000,-11.360868,-17.617744,-62.878159,-60.30648,-61.148899,-43.341724,-20.717072,81.735756
3665000000,-8.164629,-75.465073,-71.967422,-138.0459,-81.130859,118.11629,-19.641832,74.79113
3670000000,-7.5153942,-3.9649031,-63.330345,67.4076,-62.01416,37.388138,-19.934664,78.701752
3675000000,-12.547853,-56.637135,-75.296249,-92.992569,-69.150276,-81.359612,-21.258186,73.401459
3680000000,-8.5300379,-51.221409,-67.111824,169.7625,-62.271297,-138.45802,-20.785868,77.160606
3685000000,-6.8171291,-9.7385902,-61.135414,46.801514,-59.616451,55.98048,-22.793276,81.533928
3690000000,-14.239062,-96.584312,-60.333012,-51.985096,-56.89254,-41.296505,-21.269846,66.45797
3695000000,-4.8414974,-24.183876,-60.662098,-122.61535,-57.13879,-147.80106,-19.897202,73.813362
3700000000,-14.266566,-36.960941,-57.216503,105.65524,-59.560963,114.13496,-22.141407,83.836861
3705000000,-11.690848,-43.643879,-57.131916,18.95793,-57.693626,21.324911,-20.934372,63.436996
3710000000,-5.5117378,-29.971096,-58.694901,-58.639229,-62.54314,-73.410309,-21.953564,82.275658
3715000000,-15.362659,2.9863055,-62.439648,165.89015,-61.205803,171.02527,-21.865305,85.181999
3720000000,-5.7405486,-55.590572,-61.247677,87.42646,-62.604961,50.850185,-23.295738,83.21701
3725000000,-9.4521084,-7.0625324,-66.043213,7.666223,-58.505001,-36.330315,-23.016197,86.570549
3730000000,-12.165892,-24.039822,-69.441315,-131.03154,-69.921043,-96.804245,-23.061522,66.472977
3735000000,-5.5375767,-51.816566,-72.40377,107.75177,-76.903748,26.524435,-21.19301,84.8918
3740000000,-8.3463526,3.1717312,-63.972958,-70.41613,-63.475903,-49.536041,-23.278936,93.969078
3745000000,-9.4255219,-66.939293,-65.606918,175.0806,-72.425697,-154.15938,-25.586266,82.27375
3750000000,-6.7018652,-28.461973,-62.207115,53.299042,-65.480278,83.035324,-21.001013,94.058685
3755000000,-9.1356668,-1.9896833,-66.855965,-20.607685,-70.374054,7.1335068,-23.711964,94.261566
3760000000,-6.9633875,-70.578583,-60.052048,-75.97226,-59.74667,-77.388031,-22.891666,97.123749
3765000000,-6.1806607,-7.653903,-64.120537,163.37344,-58.873123,172.41432,-22.333078,85.395943
3770000000,-10.453374,-37.800339,-57.712212,100.92072,-61.495358,107.0174,-24.675829,98.167542
3775000000,-9.1294785,-52.737358,-62.05566,1.1976997,-63.334827,-20.175835,-20.846279,89.579681
3780000000,-4.5310898,-8.895277,-58.938492,-102.26251,-63.569462,-115.65302,-22.443512,110.43167
3785000000,-13.098791,-77.482025,-71.674637,166.74399,-67.710411,161.99799,-21.344975,98.145828
3790000000,-5.0934281,-27.556702,-66.019096,114.93688,-64.557808,52.645809,-20.147856,96.423744
3795000000,-8.2200937,-21.383566,-67.743805,-5.4886432,-76.309464,27.635727,-20.772215,116.78661
3800000000,-12.369646,-43.177738,-62.91621,-174.79498,-74.738777,158.14658,-22.471243,99.269562
3805000000,-3.2134247,-32.586971,-63.866383,46.605728,-76.36972,-41.268276,-21.857164,101.13948
3810000000,-14.81656,10.059784,-80.859283,-43.37746,-61.478127,-163.43408,-19.801867,105.94299
3815000000,-5.22264,-44.70993,-62.340046,127.40826,-70.655464,111.17184,-21.098291,99.327721
3820000000,-6.320478,-23.958942,-68.262108,-0.53489125,-61.851109,19.773422,-19.157055,105.46904
3825000000,-10.165314,-12.284085,-63.05698,-100.12661,-65.718529,-45.6437,-19.578295,96.089195
3830000000,-4.3708653,-50.692554,-61.897728,-149.12932,-61.98399,-140.14175,-18.782125,108.13129
3835000000,-7.2688622,-7.0066237,-59.36195,121.8671,-62.459087,91.879936,-19.077917,113.11849
3840000000,-8.7698278,-36.306938,-61.021339,44.483185,-61.66024,14.649494,-22.307777,107.16294
3845000000,-4.6254191,-44.710304,-68.019737,-106.40096,-61.86068,-58.559216,-18.321362,98.855247
3850000000,-6.2395759,-2.1670682,-66.427071,-135.7151,-63.938496,-114.09322,-19.439335,101.48921
3855000000,-6.7681651,-69.292671,-61.1535,161.25728,-62.814438,170.94156,-19.332182,93.421402
3860000000,-4.6214385,-18.649958,-68.874832,32.723953,-60.936069,55.195755,-18.02598,89.777374
3865000000,-7.2982936,-20.835524,-60.996891,-58.086212,-66.39212,108.64611,-18.153418,97.770096
3870000000,-6.8424582,-63.29208,-62.623596,-152.7271,-64.164429,172.38985,-17.779699,97.877823
3875000000,-3.0810549,-14.539639,-67.373009,-120.9834,-62.776154,92.35643,-18.036501,98.331268
3880000000,-10.474027,-65.796547,-64.740044,35.206615,-67.482971,9.616147,-18.553736,99.283195
3885000000,-4.6592226,-31.827169,-64.313286,61.681446,-66.160606,98.508629,-17.554974,87.416061
3890000000,-4.5775404,-25.589804,-62.413052,11.860479,-69.299683,0.94358808,-18.65066,97.076767
3895000000,-11.208817,-44.477631,-77.897552,-15.761616,-71.334602,78.13311,-18.548433,78.741745
3900000000,-2.0988183,-40.15836,-63.915855,-166.17151,-71.2416,-108.23354,-16.891022,87.799515
3905000000,-9.8547592,-10.578397,-67.142456,135.85181,-70.471748,40.96817,-17.91156,91.326904
3910000000,-5.7608066,-42.863037,-69.285378,-46.951595,-71.000259,50.193001,-17.612316,85.759285
3915000000,-3.0009897,-36.147209,-58.573025,-91.968918,-63.735458,-106.69977,-17.250591,84.161179
3920000000,-9.0848293,-12.224257,-64.133301,150.6973,-61.852482,-155.8914,-17.698845,86.225731
3925000000,-3.6390603,-55.75211,-62.547123,122.13919,-67.675766,144.61011,-17.842365,77.600372
3930000000,-5.0615683,-17.907946,-62.974022,36.271748,-63.787121,44.180393,-18.38113,85.79673
3935000000,-7.1255174,-31.810905,-66.461708,-34.89497,-62.917686,-75.086555,-18.170504,75.600349
3940000000,-2.4365733,-55.085686,-65.242241,-176.4847,-66.165688,142.64586,-17.042469,75.362686
3945000000,-6.2687068,-7.0219431,-74.752197,120.76402,-80.613121,68.438843,-17.391109,79.774963
3950000000,-5.3480654,-56.246113,-75.175072,-95.809433,-67.446564,-120.60387,-17.469168,72.946007
3955000000,-3.7187536,-38.980885,-71.00219,-94.425858,-63.141178,-5.4904246,-18.308086,78.269485
3960000000,-5.0941606,-16.542332,-77.090271,111.77044,-79.529892,146.4501,-17.846733,74.176254
3965000000,-4.6610308,-76.282333,-66.805481,-12.630823,-73.436241,101.09573,-19.290562,74.496185
3970000000,-2.4441304,-17.183969,-66.853844,172.28645,-70.273674,-156.31331,-17.783516,73.888748
3975000000,-7.2483964,-55.890175,-58.519863,117.12788,-63.475941,72.226349,-18.465219,68.524048
3980000000,-4.8902521,-47.886047,-60.286095,2.7756419,-61.233829,-10.096509,-18.791632,67.776367
3985000000,-2.4182711,-29.050817,-66.574059,-77.023781,-61.023796,-52.850929,-17.572071,66.083847
3990000000,-10.858816,-70.048286,-63.128613,169.07861,-60.901302,172.72215,-19.881752,68.382469
3995000000,-1.5470109,-42.311626,-63.84919,149.13911,-68.5,101.98934,-18.361984,70.444565
4000000000,-6.652494,-32.301144,-60.09211,25.533216,-64.141365,29.108156,-20.054031,68.102982
END

