!CSV A.01.01
!Keysight Technologies,N5247A,US56070710,A.10.64.09
!Date: Sunday, November 20, 2022 21:27:45
!Source: Standard

BEGIN CH1_DATA
Freq(Hz),S33(DB),S33(DEG),S34(DB),S34(DEG),S43(DB),S43(DEG),S44(DB),S44(DEG)
3000000000,-1.8235828,-101.70646,-59.166775,-5.8922229,-63.312298,20.676373,-18.066744,-158.38579
3005000000,-12.220601,-55.705917,-65.219856,-91.227203,-62.374889,-116.53674,-18.430515,-166.60062
3010000000,-0.80700141,-77.175636,-67.211731,89.203087,-62.554653,139.18443,-16.992886,-172.84529
3015000000,-8.5819845,-124.27569,-66.478333,-24.112617,-66.985085,4.169816,-16.560808,-173.8909
3020000000,-2.5053322,-61.511803,-62.036358,-128.14276,-62.286354,-135.69099,-17.442293,-179.51576
3025000000,-3.2601078,-113.72298,-58.858017,164.53317,-60.247849,137.53233,-16.274784,-179.48106
3030000000,-7.7512479,-45.487965,-56.25906,28.364525,-57.583496,22.46081,-16.617111,178.35251
3035000000,-0.67920452,-89.782394,-57.992527,-52.961773,-58.677811,-57.285763,-16.61618,175.76152
3040000000,-13.467713,-122.27488,-61.566566,-115.44871,-60.923771,-91.086014,-16.052343,171.64063
3045000000,-1.6079923,-71.473953,-57.916012,149.29669,-58.564518,151.46338,-16.54763,161.90953
3050000000,-4.7193775,-119.38657,-56.313137,25.244467,-59.451229,40.027161,-14.976778,161.05179
3055000000,-5.9460301,-47.046062,-64.557198,-81.963852,-63.755665,-104.03664,-16.010805,160.28967
3060000000,-0.95754153,-101.40107,-70.189102,141.81352,-70.136024,-148.03127,-16.045956,162.323
3065000000,-14.776481,-68.269173,-75.333214,-111.98235,-66.400192,29.148195,-15.384731,156.92009
3070000000,-1.2901617,-81.634422,-65.472908,-80.968155,-61.610107,-81.930847,-16.191662,159.49272
3075000000,-7.4439721,-125.04916,-60.321362,167.70573,-65.557594,-161.47688,-15.47284,149.38467
3080000000,-3.7115018,-56.393703,-61.896282,66.117897,-57.616806,98.973846,-15.781014,147.88521
3085000000,-1.9082398,-118.10522,-64.695953,3.2708917,-61.730221,-17.741983,-16.06728,145.89503
3090000000,-8.9170647,-48.835846,-57.975388,-112.72556,-58.848045,-82.920326,-15.679996,139.49026
3095000000,-0.83580875,-92.892021,-59.357777,-179.67569,-62.587013,150.98035,-15.744089,148.49113
3100000000,-11.45125,-129.32431,-59.656342,104.07194,-59.780037,97.976021,-15.179341,141.30135
3105000000,-1.9651393,-71.4515,-67.397034,-10.862208,-59.552692,-16.584972,-16.056128,141.33031
3110000000,-4.5515585,-131.86401,-63.331543,-170.25537,-60.810131,-146.54028,-15.538345,138.95561
3115000000,-5.3853912,-57.697525,-83.770874,174.3463,-67.722092,104.32715,-16.665951,129.625
3120000000,-1.1962287,-106.43052,-72.876442,-42.595852,-66.296455,-61.523373,-15.803056,132.65657
3125000000,-16.874229,-110.62093,-69.202103,-144.17743,-67.176422,-79.629356,-16.345217,132.4959
3130000000,-1.3487613,-82.076332,-63.691414,118.1433,-63.082294,135.23518,-16.349382,131.51006
3135000000,-6.9365444,-141.90439,-60.186409,58.428921,-59.920574,59.238544,-15.186648,130.40115
3140000000,-4.5904012,-65.069244,-61.654793,-61.666794,-57.313026,-49.807461,-16.534584,128.47679
3145000000,-2.0523808,-117.64594,-59.596546,-158.21503,-61.126492,-134.04996,-15.557867,126.89355
3150000000,-14.010736,-56.615772,-60.526367,162.41072,-65.218658,128.73633,-16.845491,130.76237
3155000000,-1.5538198,-97.663971,-59.696106,52.059425,-58.225044,45.436787,-17.490494,124.59708
3160000000,-11.089561,-136.81729,-63.012638,-48.204403,-67.169121,-59.479828,-16.488522,123.4875
3165000000,-3.5438652,-72.533302,-68.21405,179.66141,-80.592796,-69.187996,-16.447643,124.53438
3170000000,-3.3133039,-134.17679,-64.896477,115.21636,-71.198082,32.432907,-16.028784,121.95596
3175000000,-7.7624369,-51.930969,-62.973186,-132.71268,-69.976524,-98.108521,-16.233486,120.52549
3180000000,-1.7218722,-112.35806,-66.258911,-135.54802,-65.429779,154.69528,-16.567595,129.18918
3185000000,-18.226643,-117.64864,-60.991669,119.57018,-58.287964,89.137024,-17.383335,122.69356
3190000000,-2.4385908,-83.906067,-59.935654,4.3089252,-64.408478,-44.865532,-17.299994,131.97273
3195000000,-5.5811958,-150.20091,-61.119583,-55.082561,-61.933739,-86.837738,-18.280233,117.42429
3200000000,-5.770247,-61.238911,-58.594055,-171.41954,-57.08073,-166.14781,-16.365425,118.08778
3205000000,-2.4423592,-130.14287,-60.823315,93.046394,-60.413086,107.95197,-16.937235,115.95179
3210000000,-14.984433,-56.349152,-68.703087,-25.765644,-73.189453,92.612602,-17.456131,111.9595
3215000000,-1.5923431,-100.47331,-67.708336,-16.768476,-61.728298,-109.98814,-15.896499,117.11997
3220000000,-10.937467,178.29402,-68.447578,108.69031,-73.800018,164.73674,-16.718857,122.51785
3225000000,-2.9817319,-76.559959,-75.462608,102.95633,-86.462975,-135.54285,-16.556248,121.74191
3230000000,-4.1735001,-149.69977,-65.419434,-103.46911,-68.497856,170.14296,-16.686665,119.01553
3235000000,-11.641087,-48.171532,-61.91824,126.42625,-61.036247,163.43887,-17.086216,119.86317
3240000000,-1.9925272,-112.10936,-59.822701,66.374451,-60.01997,62.625397,-16.355904,112.95918
3245000000,-16.56328,152.2926,-65.53994,-31.970156,-59.809921,-45.510128,-17.332422,121.30554
3250000000,-2.7605791,-87.659088,-63.406662,-136.37448,-60.584476,-127.36901,-16.560972,112.18713
3255000000,-6.2364302,-162.8622,-59.333874,131.59888,-57.844746,140.61105,-15.868401,113.7955
3260000000,-7.8882041,-51.121441,-58.220844,50.988575,-59.785507,69.182343,-15.540586,120.94421
3265000000,-2.1533773,-129.29822,-57.988827,-42.844418,-62.827,-34.327717,-16.106667,111.73059
3270000000,-18.380968,34.146973,-62.279739,-139.5401,-60.745747,-143.15797,-16.097925,119.31396
3275000000,-2.4720917,-99.210068,-78.649498,-77.702866,-68.718567,173.93018,-16.316004,109.5189
3280000000,-8.8502684,178.71211,-68.929855,-19.804893,-70.434982,-90.837273,-16.579767,113.90218
3285000000,-5.5732436,-63.378937,-68.669022,0.20812722,-65.311081,-140.68044,-15.249187,111.88958
3290000000,-3.6531713,-154.23718,-61.167511,90.870827,-65.023941,87.730919,-15.948313,108.79032
3295000000,-9.5641375,-26.419861,-61.114014,22.608145,-59.994869,-3.7399328,-14.875509,108.44495
3300000000,-2.8544672,-121.51592,-57.054192,-126.08152,-59.96191,-65.489937,-14.80121,107.99464
3305000000,-15.037901,141.53784,-57.01516,164.46941,-57.55637,-159.08827,-15.861816,113.24276
3310000000,-3.8922992,-78.959549,-56.983765,91.377068,-57.44688,105.76284,-14.919943,107.7343
3315000000,-5.7025056,173.65974,-59.413883,6.2764921,-60.060352,-1.7659547,-16.336376,108.38735
3320000000,-7.5715852,-44.990932,-62.593304,-54.27784,-58.709568,-84.289406,-14.787288,104.80177
3325000000,-3.7475421,-132.77701,-75.109596,135.9371,-61.43782,173.30084,-15.167282,95.849091
3330000000,-15.251256,73.423439,-68.817291,73.709206,-63.966454,82.531372,-14.601277,105.03302
3335000000,-3.5085413,-94.97197,-68.089409,14.010963,-70.570045,-66.441093,-14.981509,94.498444
3340000000,-9.3674555,145.0643,-60.535599,153.68645,-62.307774,156.66884,-14.496621,103.8378
3345000000,-7.1352291,-58.936951,-58.429417,81.385933,-61.714272,104.26599,-15.709077,99.821068
3350000000,-5.367981,-150.72385,-59.49168,-17.498468,-58.101894,-15.588575,-15.136262,92.215645
3355000000,-10.982121,16.700056,-58.585155,-117.63344,-54.784039,-116.37928,-14.807946,100.25184
3360000000,-3.0816121,-117.85107,-54.894611,150.52849,-62.415359,152.8132,-15.931419,83.696388
3365000000,-12.720845,93.751205,-55.834267,43.844181,-55.424515,51.126297,-14.713979,84.861671
3370000000,-6.2986627,-66.774658,-58.840275,-21.726122,-58.168034,-46.935524,-14.145297,89.162231
3375000000,-7.1703358,-177.95422,-57.493286,-159.85551,-58.903748,-149.58977,-15.588179,89.373131
3380000000,-7.6693664,-24.590099,-59.913296,113.32021,-59.544247,108.32074,-14.566567,88.584854
3385000000,-4.7042837,-144.48875,-60.503761,-17.511099,-61.368313,19.015104,-16.076536,86.52478
3390000000,-13.331726,38.611439,-57.932003,-108.39162,-57.808376,-107.72153,-14.797187,78.056953
3395000000,-5.4204245,-87.800072,-58.436054,155.01933,-58.619598,156.20782,-14.973907,82.682846
3400000000,-11.405716,145.62434,-57.559189,40.039936,-57.09182,28.110792,-17.097433,78.286774
3405000000,-5.7837744,-50.654846,-54.388111,-64.596008,-56.141563,-64.852074,-14.9508,71.857246
3410000000,-7.5437899,-171.23756,-55.243004,-169.03802,-55.667305,-164.77147,-15.518911,79.861961
3415000000,-9.5909491,-0.9687807,-53.01672,96.486328,-54.881893,86.197517,-15.929376,74.807968
3420000000,-5.3751683,-105.97628,-55.371677,-17.540092,-54.180569,-4.9455953,-15.493094,74.109673
3425000000,-10.130377,89.179688,-56.999683,-113.27312,-55.646248,-114.91203,-16.422852,78.972488
3430000000,-4.5103898,-65.929176,-56.966217,162.60394,-58.812363,122.41935,-17.227137,65.745392
3435000000,-10.230217,168.47356,-54.085411,30.507641,-58.418701,36.402496,-16.978268,74.723511
3440000000,-7.6614614,-12.61109,-55.829578,-86.677414,-55.701374,-76.911407,-18.046877,63.282379
3445000000,-6.2500634,-124.76327,-55.311661,160.54897,-55.512547,161.42839,-16.105024,63.958447
3450000000,-7.7927151,40.57695,-53.045078,65.389061,-53.66523,75.814308,-16.301529,72.719849
3455000000,-4.2574692,-86.181358,-50.407684,-31.696705,-54.006302,-28.027185,-18.778622,66.104958
3460000000,-11.772991,117.46251,-54.029934,-142.65158,-52.229111,-142.10777,-16.394392,64.739082
3465000000,-5.2492871,-28.679005,-52.081844,130.23743,-52.152897,127.63773,-18.799532,75.673988
3470000000,-6.3804955,-152.32603,-52.309757,30.257086,-52.330105,29.61083,-19.528147,67.527359
3475000000,-5.5857887,11.185405,-53.017403,-71.787354,-53.037804,-80.924362,-18.687582,67.442764
3480000000,-5.286077,-97.200546,-54.514133,179.99663,-53.673424,179.62167,-19.956661,65.72171
3485000000,-13.742293,69.689804,-53.024128,51.901539,-53.239361,55.403004,-17.848286,56.86673
3490000000,-5.3205066,-48.838081,-53.739262,-69.147011,-54.073273,-64.869034,-19.646595,71.206909
3495000000,-10.928982,162.85135,-53.921082,-165.92412,-53.616863,178.01772,-19.276394,62.827972
3500000000,-4.7920418,-21.088514,-50.632675,94.274284,-50.729404,98.933754,-18.717741,65.506828
3505000000,-8.2620287,-124.58693,-49.980904,-18.111708,-49.441185,-15.540889,-18.994907,88.887566
3510000000,-11.062113,27.757587,-48.51646,-111.36009,-49.787949,-107.02765,-21.324221,71.288857
3515000000,-4.5663953,-70.753845,-48.723476,151.39595,-49.991108,163.89749,-20.849136,70.276947
3520000000,-11.73507,112.81467,-51.611351,45.947392,-51.216118,54.499214,-20.008238,68.44323
3525000000,-4.2582464,-38.09296,-53.627701,-51.377243,-53.074768,-38.877525,-21.578609,66.550247
3530000000,-9.0519323,-135.08893,-53.914131,-171.86208,-51.673206,-153.60223,-18.194838,77.384483
3535000000,-6.6289229,15.811928,-54.803894,74.335876,-55.244678,94.323479,-20.999344,79.192543
3540000000,-4.0049829,-94.861694,-53.203457,-21.787275,-53.202469,-27.199802,-19.233959,85.159096
3545000000,-9.313674,56.366917,-53.991631,-144.38857,-52.853329,-148.6871,-19.357271,82.301476
3550000000,-4.0926495,-54.678024,-50.867165,117.02969,-51.565193,114.68478,-21.814138,84.634155
3555000000,-12.069232,-179.26262,-48.139061,8.6226101,-49.175949,12.375885,-20.162035,75.700859
3560000000,-4.0439396,-11.097787,-49.132965,-85.099915,-50.061996,-90.45108,-20.898859,84.209763
3565000000,-5.3095536,-120.41676,-48.117977,178.98589,-48.43782,174.61392,-20.841589,86.136101
3570000000,-7.4964623,20.8472,-51.123348,76.286011,-49.695572,76.111702,-19.386843,62.882362
3575000000,-4.5849838,-69.785072,-49.752453,-16.436792,-50.740978,-9.4251165,-18.075903,94.473869
3580000000,-17.110224,119.73263,-53.000439,-128.98868,-54.036469,-131.22694,-19.80854,73.276512
3585000000,-2.7891071,-32.434357,-57.220078,118.70242,-55.872459,129.44412,-19.60181,86.479515
3590000000,-8.3999195,-152.70349,-54.983673,-15.929945,-55.459846,-18.946802,-20.897139,86.811188
3595000000,-6.1294827,-5.5118465,-55.857834,-111.23438,-54.182629,-126.43118,-19.891972,72.230423
3600000000,-5.2485299,-82.549904,-52.413345,124.44852,-50.64146,126.86496,-18.772957,87.507385
3605000000,-13.145658,61.42976,-49.647774,22.848814,-49.918266,23.062826,-20.519632,71.017448
3610000000,-2.6951888,-52.344055,-49.667171,-70.260857,-48.266514,-66.521286,-18.897791,71.87767
3615000000,-13.063354,168.82951,-49.730492,-153.96089,-49.819378,-160.9689,-17.709188,79.504601
3620000000,-4.8756523,-17.748087,-51.232773,102.95174,-49.999748,101.96748,-21.783916,77.2425
3625000000,-5.1802344,-104.37172,-52.390106,1.6519328,-52.567806,0.71260339,-17.883738,82.342155
3630000000,-7.2545185,39.99231,-54.755199,-90.229591,-55.044411,-90.9459,-21.00819,82.175652
3635000000,-2.4154651,-72.786461,-55.88575,139.46385,-57.596619,142.96758,-19.373665,70.227654
3640000000,-16.249937,90.443352,-60.684753,3.8176191,-58.447884,47.669075,-19.464746,76.440681
3645000000,-3.8530009,-33.668087,-57.060486,-106.05684,-55.622608,-100.76455,-21.42589,75.230911
3650000000,-7.9122472,-134.03882,-52.425179,140.54124,-54.071724,142.73276,-19.838661,57.650513
3655000000,-3.9312067,5.523118,-52.394741,42.859608,-52.383785,45.186661,-19.317348,69.387344
3660000000,-3.7052488,-90.222733,-50.701836,-48.987461,-51.882866,-41.020504,-19.872887,77.964134
3665000000,-11.299985,41.753063,-53.222584,-129.45097,-51.953304,-139.44415,-19.338816,63.332279
3670000000,-3.5823672,-47.433033,-52.636337,116.35648,-51.907768,116.83267,-19.582411,78.150185
3675000000,-12.722132,-174.92908,-53.535667,36.506969,-53.949482,35.347149,-21.520695,63.839169
3680000000,-3.1642396,-19.879526,-52.345467,-60.590076,-56.844322,-62.128181,-20.157137,74.009941
3685000000,-6.50002,-109.95421,-58.558655,-169.75407,-59.375568,-168.16023,-23.476229,68.004814
3690000000,-8.2038116,17.122866,-64.441238,70.373543,-59.825027,37.012783,-21.285299,57.712109
3695000000,-2.9367714,-60.07613,-60.957981,-71.912346,-60.972363,-50.923393,-18.712057,67.620865
3700000000,-14.003252,128.82498,-54.768425,171.89455,-58.229336,163.79578,-22.584084,74.651428
3705000000,-2.5216818,-34.781517,-52.474682,71.068832,-57.05006,68.848328,-20.257605,58.466209
3710000000,-10.56988,-131.1658,-50.8699,-31.177946,-53.15406,-19.81496,-21.622347,78.183807
3715000000,-5.4940786,0.22210218,-53.368469,-105.4278,-53.217701,-117.24706,-21.582962,78.254547
3720000000,-2.8834915,-82.544617,-54.387306,163.65237,-54.77924,156.59534,-23.028307,76.338943
3725000000,-8.6368017,64.6035,-54.058575,56.840851,-56.596226,58.807465,-23.704151,79.301117
3730000000,-2.0893981,-51.521049,-56.972527,-35.380569,-61.110764,-50.860996,-21.593775,59.239708
3735000000,-14.190167,-164.0094,-58.629234,-120.22737,-59.105946,-139.2739,-20.995663,75.331131
3740000000,-3.2528555,-7.8750906,-70.530495,50.462513,-62.547146,104.23845,-22.542645,93.876579
3745000000,-3.4142289,-104.83279,-75.072334,-155.99138,-67.517433,-112.36314,-25.128002,67.596558
3750000000,-5.0340662,27.869017,-60.575588,-147.36172,-60.316631,-177.46216,-20.355762,91.47747
3755000000,-2.944412,-67.252472,-57.927174,88.827599,-54.567402,98.242722,-23.720556,84.099983
3760000000,-26.438488,82.232323,-56.242348,8.0808697,-56.504707,21.821209,-23.157692,94.521645
3765000000,-2.4321055,-23.713566,-56.9673,-93.304855,-56.817631,-83.972939,-21.635838,75.664955
3770000000,-7.0703034,-125.13321,-55.642815,176.15971,-55.676003,177.36526,-25.415083,83.003654
3775000000,-4.0353436,-2.3629076,-53.344501,106.20687,-55.206146,98.763557,-19.749004,83.438255
3780000000,-4.2562118,-74.038055,-62.43858,35.766224,-59.251717,22.525101,-22.303116,101.60556
3785000000,-14.127679,38.017063,-61.46336,-70.767746,-61.377209,-71.288727,-20.847162,89.335838
3790000000,-1.5267829,-40.979645,-59.979767,-119.28662,-71.312073,-120.19656,-19.153584,89.969872
3795000000,-13.050686,-154.10655,-70.595848,162.74492,-70.342476,-150.9063,-20.890322,116.26447
3800000000,-2.9162464,-17.331835,-68.595612,149.74321,-66.300034,-160.15999,-21.712498,89.502533
3805000000,-4.5021553,-88.455528,-60.729748,129.64264,-66.009827,130.93886,-22.605791,90.543541
3810000000,-7.2896328,36.75285,-58.484749,47.85899,-57.865799,42.034687,-18.984877,99.816475
3815000000,-0.43943164,-60.260239,-56.078987,-47.709591,-55.087944,-42.850937,-21.113983,86.609756
3820000000,-13.470667,113.1846,-58.132835,-131.62602,-55.711563,-126.0272,-18.511259,99.377892
3825000000,-1.4433786,-31.63505,-59.039364,154.90912,-62.726772,152.5239,-19.116316,84.974869
3830000000,-6.1416526,-110.31232,-61.156605,55.255035,-61.681564,69.08432,-17.952965,104.51912
3835000000,-3.5951574,11.133315,-57.100388,-22.998556,-57.670612,-17.177568,-18.932276,109.33929
3840000000,-1.4254466,-79.199959,-62.705311,-118.43037,-61.927128,-98.51532,-23.524849,96.504326
3845000000,-9.4622746,41.462761,-63.458778,-136.62439,-61.669407,162.77446,-17.825712,91.754074
3850000000,-1.2467852,-41.914223,-73.632896,30.665264,-69.506432,100.73016,-19.758404,92.253059
3855000000,-9.4449091,-135.08267,-62.490303,145.02711,-69.481499,167.03442,-19.168041,82.674423
3860000000,-1.5038509,-10.101102,-58.303097,83.620178,-62.217922,91.201027,-17.361712,80.635483
3865000000,-3.7625494,-95.674515,-58.192448,-12.213013,-58.042301,-16.850971,-17.877262,90.739639
3870000000,-6.3072906,7.4008446,-59.678986,-104.60536,-62.56057,-90.966934,-17.072546,91.523842
3875000000,-1.1662335,-52.782475,-58.296154,-177.69536,-59.610462,175.07042,-18.165331,91.476036
3880000000,-16.73468,-165.95056,-60.4575,89.889725,-59.602699,100.27023,-18.469694,95.554306
3885000000,-0.60531646,-27.66486,-56.390324,30.13357,-58.908424,34.921101,-17.230659,75.959526
3890000000,-6.3533673,-105.45161,-63.838688,-92.490166,-59.042141,-67.66806,-18.866104,96.096413
3895000000,-4.2584963,-5.9778886,-62.827625,-166.6924,-69.275055,-144.64667,-18.039118,61.90921
3900000000,-0.50172311,-69.477104,-63.087494,119.91844,-60.71936,127.88622,-16.215389,84.286888
3905000000,-13.72337,70.772552,-66.775299,-133.58257,-64.015945,131.77419,-17.924093,81.079544
3910000000,0.02121396,-43.577621,-61.978226,114.27866,-64.999947,147.18808,-17.176229,77.835304
3915000000,-9.7774334,-116.95986,-62.880825,40.553417,-59.355038,23.792234,-16.92901,80.025856
3920000000,-2.0854046,-15.552877,-59.427254,-37.75251,-58.098083,-59.542686,-17.748812,77.146858
3925000000,-1.4186046,-89.329689,-58.174683,-166.88628,-59.614189,-142.05463,-17.69697,71.95002
3930000000,-5.9642091,24.58334,-57.386509,137.24298,-56.868969,140.70451,-18.335516,77.887962
3935000000,-0.30884331,-60.976521,-61.117931,34.217529,-62.55957,71.824982,-18.493145,65.00592
3940000000,-19.4478,-86.752449,-59.522182,-48.266922,-57.944569,-33.483982,-15.944128,67.863396
3945000000,-1.766623,-25.642193,-60.536621,-95.730263,-59.797596,-114.74358,-17.961605,72.816872
3950000000,-3.2498043,-103.93626,-65.034622,150.14285,-59.268394,179.12575,-16.440145,66.795731
3955000000,-3.0436363,-0.39737365,-70.304115,48.136616,-68.006348,50.477688,-18.750607,73.211761
3960000000,-0.89139384,-72.679474,-72.938164,-144.05748,-69.58416,85.335403,-17.608105,66.102013
3965000000,-19.192936,-4.1308761,-64.704079,45.425938,-66.184151,87.55851,-19.084286,68.974411
3970000000,0.22800377,-37.075291,-66.411369,-80.370102,-58.874565,-14.314827,-18.249891,65.786316
3975000000,-6.2094998,-125.76724,-59.819145,-101.47951,-57.123692,-90.304375,-17.825439,59.695576
3980000000,-1.3150185,-19.272583,-55.945309,-171.71237,-62.57008,-156.07199,-18.75692,58.127007
3985000000,-1.5312312,-82.702438,-56.2915,104.97255,-57.64241,87.087799,-17.031551,62.272476
3990000000,-11.598295,8.9631395,-56.937866,23.849993,-56.618412,9.6382036,-19.732037,57.711861
3995000000,0.90245205,-56.13488,-63.45491,-60.025246,-57.56078,-68.758606,-18.161587,68.340004
4000000000,-14.752031,-142.89102,-58.786179,178.0502,-63.857365,-155.7838,-20.02729,57.72699
END

