!CSV A.01.01
!Keysight Technologies,N5247A,US56070710,A.10.64.09
!Date: Saturday, November 19, 2022 23:10:28
!Source: Standard

BEGIN CH1_DATA
Freq(Hz),S33(DB),S33(DEG),S34(DB),S34(DEG),S43(DB),S43(DEG),S44(DB),S44(DEG)
3000000000,-12.818066,165.73537,-47.112331,-63.787266,-47.203758,-64.459618,-18.105511,-162.55966
3005000000,-13.053905,76.508331,-46.749619,-164.36502,-46.749058,-164.33893,-17.486504,-156.83292
3010000000,-12.977916,136.58858,-47.217613,99.319786,-47.288715,99.168449,-15.436217,-170.119
3015000000,-12.626943,151.00307,-47.093086,-12.581716,-47.180889,-12.374532,-15.918754,-156.86736
3020000000,-17.75415,69.396072,-47.24633,-114.17658,-47.352268,-113.63261,-16.427956,-178.0751
3025000000,-8.1051426,132.87543,-47.565269,142.78104,-47.612434,143.18365,-14.649323,-163.28697
3030000000,-24.784744,61.441841,-47.14999,36.920422,-47.235134,37.827019,-18.566786,177.00493
3035000000,-12.50036,94.264511,-46.546509,-66.536942,-46.497276,-66.423782,-14.126331,-175.10004
3040000000,-9.1900101,137.91757,-46.976639,-169.5744,-47.050961,-170.41196,-18.308455,173.22394
3045000000,-25.896681,92.762825,-47.684433,87.139633,-47.626293,87.430695,-15.699338,172.38254
3050000000,-9.4737062,96.474396,-47.588581,-19.735853,-47.6852,-19.367332,-14.319715,165.33517
3055000000,-10.944687,132.72238,-48.065079,-123.35123,-48.167675,-124.26575,-16.132601,-177.31065
3060000000,-16.684984,48.794247,-47.29874,131.28529,-47.38073,132.10011,-14.864398,156.82254
3065000000,-7.8629918,113.51241,-46.286026,32.0443,-46.311516,31.617147,-15.693943,-176.97426
3070000000,-17.890053,138.90552,-47.218166,-73.649902,-47.262276,-73.063171,-16.89382,151.93106
3075000000,-10.433929,81.634995,-47.741924,176.83682,-47.776295,176.85883,-16.262812,162.32608
3080000000,-7.3019471,113.28606,-47.053104,78.720421,-47.028469,77.867172,-16.380535,153.68019
3085000000,-27.252239,-162.56474,-47.193577,-28.882893,-47.281242,-28.002462,-17.082186,150.62398
3090000000,-7.1984544,85.77755,-46.904228,-133.09647,-47.001633,-133.95967,-13.839869,147.23256
3095000000,-14.063054,138.22044,-46.85548,129.4001,-46.979568,129.98717,-17.943052,167.00114
3100000000,-12.143435,93.909073,-47.414883,24.174435,-47.410969,24.060526,-14.614922,139.09326
3105000000,-8.5726814,83.067665,-47.14645,-84.233276,-47.114979,-84.322861,-16.869799,167.76207
3110000000,-10.440217,134.51341,-46.316769,173.45491,-46.461277,172.54817,-17.234188,130.95375
3115000000,-11.630442,37.319881,-46.976097,67.806564,-47.000488,67.852119,-17.218128,152.96469
3120000000,-7.4570026,109.11497,-47.306549,-32.089573,-47.390198,-32.996132,-16.633204,128.41028
3125000000,-16.319611,113.55064,-47.034328,-136.6313,-47.097672,-135.48007,-17.442789,146.69025
3130000000,-8.2350073,64.854477,-48.089718,115.05652,-48.003494,114.57207,-15.425883,125.54175
3135000000,-9.0233917,104.30006,-47.138569,10.498904,-47.325687,10.743837,-17.613087,160.19147
3140000000,-15.938846,81.613014,-46.823704,-87.782585,-46.826889,-86.781303,-15.897943,118.74993
3145000000,-8.9390049,61.622677,-47.82732,167.57402,-47.855751,167.1628,-17.334534,151.53336
3150000000,-8.2220888,120.03164,-46.817917,61.793468,-46.892025,61.556316,-18.18462,136.29031
3155000000,-10.90204,50.571342,-47.639595,-40.390762,-47.61771,-41.160374,-19.291946,121.99849
3160000000,-8.0515413,81.065887,-47.768303,-146.68188,-47.948299,-147.44766,-16.44812,136.25655
3165000000,-11.999701,90.515663,-46.331978,109.19328,-46.471066,109.70438,-19.057846,114.57586
3170000000,-12.955191,66.297447,-47.361469,5.7023921,-47.412464,5.9788465,-15.546512,133.9015
3175000000,-8.6955023,87.581169,-47.142159,-97.606606,-47.169586,-97.994522,-18.005522,137.19983
3180000000,-15.876233,63.075771,-47.261665,151.9888,-47.333401,153.45375,-17.913836,126.11092
3185000000,-6.6082253,58.176975,-47.661354,51.775124,-47.533989,51.773632,-16.96681,148.51593
3190000000,-10.645935,82.689102,-47.402321,-51.419567,-47.507198,-51.749672,-20.492622,134.00313
3195000000,-13.968418,50.455471,-46.892452,-159.36755,-46.963608,-158.95129,-22.083506,119.98483
3200000000,-6.7735744,63.728416,-46.783867,100.17425,-46.945049,99.511124,-15.745609,121.49509
3205000000,-9.9096165,109.57127,-47.485054,-5.9014459,-47.669189,-6.5103569,-25.567329,131.1469
3210000000,-8.0393963,26.730427,-48.388824,-109.24516,-48.480316,-108.91844,-14.006444,115.13859
3215000000,-9.069026,71.209122,-48.269329,144.32222,-48.363426,144.66013,-21.653854,136.47665
3220000000,-12.016683,72.659409,-47.846455,40.987835,-48.072437,41.444752,-15.645885,127.15405
3225000000,-9.0906286,35.047058,-48.047401,-65.21701,-48.138695,-65.67646,-18.817322,127.80222
3230000000,-8.0801439,77.914276,-47.683636,-164.97356,-47.762348,-165.86052,-18.098679,143.24469
3235000000,-13.220712,58.207691,-48.351097,88.182167,-48.483349,89.029671,-20.316439,108.92231
3240000000,-4.9368725,38.982037,-48.533558,-18.895449,-48.697697,-20.498428,-16.760321,125.73835
3245000000,-14.388059,104.31395,-48.141594,-123.12775,-48.20805,-123.33715,-20.11655,136.10089
3250000000,-9.4098892,36.378845,-47.99699,130.8987,-48.069805,131.3784,-17.121166,101.18118
3255000000,-7.8244905,55.758774,-47.936199,28.438534,-48.268463,28.285366,-17.547396,136.42427
3260000000,-11.592276,68.872589,-48.696251,-73.53154,-48.658382,-73.521919,-16.034367,109.25163
3265000000,-7.6827154,18.012476,-49.0518,177.20233,-49.216587,177.39265,-18.43124,134.99205
3270000000,-7.0432782,66.597054,-48.343128,73.475716,-48.552246,72.118004,-16.694435,122.10765
3275000000,-16.140594,10.395562,-48.644882,-31.000446,-48.780018,-31.180569,-20.817757,106.52865
3280000000,-7.9846535,47.058727,-48.346802,-135.74356,-48.390553,-135.83302,-14.645599,118.18729
3285000000,-8.220561,59.305058,-49.269493,120.17403,-49.321495,119.63025,-20.586302,117.487
3290000000,-12.92428,-6.726819,-49.57513,9.87782,-49.868813,10.821184,-15.848248,107.54868
3295000000,-6.1568022,29.718399,-49.571964,-96.190102,-49.774467,-95.502319,-15.616888,115.60973
3300000000,-10.992882,69.670547,-49.426956,163.44116,-49.582073,163.19687,-17.606026,121.07842
3305000000,-9.612936,3.3654225,-49.377411,57.774147,-49.401844,57.950207,-16.508955,110.76116
3310000000,-7.2711315,47.922024,-50.231644,-45.449162,-50.250324,-45.076473,-16.910944,122.94183
3315000000,-12.382977,42.899891,-50.387299,-154.21892,-50.445038,-153.95883,-20.018797,96.861778
3320000000,-8.556963,7.8989668,-50.645382,96.867905,-50.686947,96.826561,-15.154081,104.75141
3325000000,-8.8047991,36.805153,-50.650188,-8.4614058,-50.956379,-7.6083784,-19.420946,100.29073
3330000000,-20.45253,-30.386026,-50.586754,-112.26134,-50.671658,-112.56875,-14.028221,98.821671
3335000000,-4.4663773,21.694286,-52.088444,140.52061,-52.023933,139.62807,-18.007761,103.32479
3340000000,-11.624029,35.879486,-52.545807,36.213032,-52.599056,38.434998,-14.638062,108.30633
3345000000,-11.430901,3.6594892,-52.877972,-72.524094,-52.87772,-72.365067,-19.310732,91.319527
3350000000,-5.7758656,12.000668,-53.184181,-179.39894,-53.386295,179.05313,-15.019765,108.08008
3355000000,-14.588394,68.555435,-53.855762,76.415672,-54.057655,75.728119,-21.998409,76.512276
3360000000,-8.9727774,-15.210253,-54.5854,-29.992758,-54.862347,-29.44886,-15.027774,92.945343
3365000000,-6.2218318,27.59029,-56.436779,-144.19,-56.329201,-143.42233,-18.831404,70.58493
3370000000,-11.95559,-1.8522127,-57.921333,107.39125,-58.532013,107.23162,-14.969696,89.193932
3375000000,-6.6724143,0.010580821,-59.694405,-4.8313732,-59.254112,-2.9552283,-16.779583,83.354622
3380000000,-10.649911,40.185528,-60.29216,-103.19732,-60.955032,-104.67722,-17.267931,95.554604
3385000000,-15.797543,12.164346,-64.794136,142.93222,-65.690544,148.85983,-17.790855,72.412003
3390000000,-5.1995225,-2.2649012,-71.427269,14.313617,-71.095177,37.81271,-17.213295,85.347687
3395000000,-15.078543,59.309643,-72.581406,161.59337,-71.923676,167.25792,-18.48876,74.574646
3400000000,-6.6823711,-24.025904,-67.379532,40.23563,-66.894569,43.994881,-17.214062,70.991119
3405000000,-9.6283779,-5.5908017,-64.902428,-99.841751,-64.971054,-101.5545,-19.285511,68.657272
3410000000,-11.527581,43.268909,-60.960106,144.80328,-60.429867,142.89752,-15.50919,69.139923
3415000000,-5.1762576,-25.148039,-58.832268,35.693275,-58.803963,30.859222,-19.116804,69.630997
3420000000,-9.4033127,37.459351,-56.918602,-70.518288,-57.032967,-66.913704,-16.924969,84.891319
3425000000,-11.625164,-23.251524,-56.42868,-179.19421,-56.718941,-177.86169,-21.066809,47.07568
3430000000,-7.3921118,-17.153551,-56.529255,68.194908,-56.387199,70.446213,-17.711288,81.361511
3435000000,-14.064702,13.707644,-55.17725,-38.318081,-55.184212,-38.83395,-21.743711,43.823971
3440000000,-10.981243,-24.738974,-54.419361,-149.57677,-54.591522,-148.53288,-20.85598,54.323635
3445000000,-5.9649925,-3.6351769,-54.90316,109.07549,-54.884659,108.75227,-16.788811,53.306782
3450000000,-12.549353,-6.8064523,-53.966209,2.8226912,-54.245628,3.1053746,-22.340204,62.947674
3455000000,-9.7855444,-46.416538,-54.778404,-105.56121,-54.467522,-104.8185,-18.470327,57.641682
3460000000,-8.5788794,11.966334,-54.081303,144.84245,-53.83905,146.99068,-19.902311,68.764473
3465000000,-11.984616,-28.18919,-53.776512,45.973419,-53.911171,45.042728,-25.682764,63.284782
3470000000,-7.9831829,-27.603437,-53.747765,-62.90984,-53.790169,-60.769299,-18.576572,60.121403
3475000000,-8.3895206,5.9908295,-53.373451,-168.53241,-53.621387,-168.4644,-35.079182,94.621002
3480000000,-11.652396,-72.227112,-53.813229,82.671432,-53.56303,82.773537,-20.109186,42.466881
3485000000,-5.4667416,-6.7129264,-53.846386,-22.537394,-54.183571,-22.336838,-21.717152,37.470116
3490000000,-19.664677,-31.498842,-53.531235,-124.96656,-53.579586,-125.77101,-22.435966,101.31355
3495000000,-9.6614914,-16.288921,-54.388626,133.66727,-54.573196,134.5605,-17.979544,16.033735
3500000000,-6.1562891,-28.336632,-53.964832,23.723587,-54.078236,23.986389,-18.351553,109.2327
3505000000,-22.227589,70.264526,-54.478668,-80.204102,-54.28801,-80.759285,-24.332537,19.532272
3510000000,-5.5251484,-43.434662,-54.912628,168.08673,-54.963417,168.53207,-22.605371,97.511742
3515000000,-10.949169,10.700903,-54.657688,63.032516,-54.821014,62.789494,-28.860334,49.444061
3520000000,-14.928485,-57.75621,-55.147778,-46.930088,-55.10136,-46.999184,-26.722456,28.110922
3525000000,-8.0965757,-31.127167,-54.79924,-149.12326,-54.751171,-148.14503,-20.726879,58.360416
3530000000,-9.3291082,-16.536087,-56.039444,109.59047,-56.125225,111.2448,-22.382498,87.784531
3535000000,-12.639725,-76.475494,-57.340302,2.4476542,-56.767063,4.0306044,-26.80307,44.112331
3540000000,-8.2033596,-26.885641,-55.914902,-112.50157,-56.005577,-110.51759,-17.940228,96.444923
3545000000,-13.113606,12.142174,-56.638115,134.34937,-56.6866,136.99638,-38.646053,-113.72845
3550000000,-7.1871872,-55.982475,-56.769314,36.937698,-56.382954,37.137455,-19.612045,85.066696
3555000000,-11.620132,3.8118188,-57.561424,-74.136482,-57.684887,-70.115776,-46.464493,115.08481
3560000000,-11.005688,-50.389553,-60.485771,172.45329,-60.51849,174.71167,-23.053783,85.366028
3565000000,-12.219503,-81.115662,-60.85437,63.17387,-61.158562,60.776009,-25.292063,39.083694
3570000000,-6.1459012,1.5849743,-61.657734,-54.815247,-61.218693,-48.459652,-22.360088,89.241814
3575000000,-11.337831,-109.09181,-61.161572,-171.26088,-61.663479,-172.15802,-22.419249,62.681465
3580000000,-7.2534232,-24.793081,-63.159866,85.398285,-63.693794,85.482101,-21.818563,94.443718
3585000000,-11.246098,-46.50798,-63.555779,-54.363693,-62.681309,-59.208153,-23.118748,97.627708
3590000000,-17.266876,-108.3447,-63.031181,-171.07143,-62.589001,-174.49243,-30.965393,62.200916
3595000000,-5.3803205,-28.056679,-61.20166,55.216595,-61.422192,58.29417,-19.645594,83.455635
3600000000,-32.777119,-62.540459,-60.041973,-53.956833,-60.869133,-59.246525,-36.7085,117.62267
3605000000,-6.2996821,-48.303234,-60.275883,175.81599,-59.822948,175.11754,-21.005186,54.765228
3610000000,-12.413267,-41.013065,-58.024158,59.404491,-57.81435,59.666607,-22.190603,78.394592
3615000000,-23.103083,-10.704906,-56.382427,-51.747444,-56.642448,-50.283726,-23.562035,79.156395
3620000000,-7.8838811,-54.993645,-55.37236,-162.07388,-55.362251,-161.3629,-21.6553,67.141441
3625000000,-10.246593,-29.114632,-54.85619,86.531952,-54.65379,86.101593,-22.25828,96.541939
3630000000,-25.98897,-107.70472,-54.405518,-20.650707,-54.424702,-21.819986,-27.743162,84.67334
3635000000,-5.6169386,-58.332043,-53.573708,-132.08998,-53.379879,-132.12932,-20.765131,53.654068
3640000000,-17.788448,1.3549632,-52.542908,120.22095,-52.383457,119.51504,-22.871328,143.11473
3645000000,-7.1766691,-69.31002,-52.261395,14.389891,-52.169979,14.497879,-18.270691,10.023523
3650000000,-16.933735,-36.193424,-51.387779,-90.679085,-51.464211,-89.732986,-19.723179,108.23849
3655000000,-7.426815,-17.432085,-51.481125,158.53526,-51.322392,159.74748,-21.822714,19.179756
3660000000,-6.0709872,-94.346321,-50.98056,52.964737,-51.066551,53.401451,-22.591257,92.014267
3665000000,-7.8616962,13.035906,-50.561016,-53.647488,-50.764107,-54.028469,-21.697454,61.167671
3670000000,-9.5953588,-104.17715,-49.857533,-160.96397,-49.787052,-160.08948,-29.869392,120.72589
3675000000,-10.92759,-23.39502,-49.878948,94.853058,-49.65749,94.922745,-23.015593,47.494972
3680000000,-7.6336455,-49.562374,-50.14798,-11.875984,-50.14682,-11.654301,-25.307249,121.41068
3685000000,-14.120407,-110.51748,-49.82444,-115.83931,-49.801304,-115.29385,-23.494247,-34.107361
3690000000,-6.0870461,-39.714657,-49.687405,136.20992,-49.787113,136.3775,-19.640629,68.30249
3695000000,-22.630642,-48.687279,-49.279987,29.999277,-49.229561,30.185349,-29.544161,-25.632307
3700000000,-9.3658543,-70.556587,-49.144592,-73.244507,-49.177319,-73.133011,-21.912664,72.127586
3705000000,-7.7916613,-35.954494,-48.51403,-176.98396,-48.64217,-177.11597,-23.435881,29.943655
3710000000,-16.418379,-116.58865,-48.780037,75.692215,-48.608116,75.134758,-23.159075,136.79077
3715000000,-6.4955249,-54.470558,-48.892845,-29.439495,-48.813473,-29.258881,-19.946901,22.041842
3720000000,-10.766899,-51.651066,-48.404488,-134.89677,-48.485485,-135.26187,-20.969244,157.92072
3725000000,-25.053452,-92.66433,-48.312836,119.86012,-48.32761,120.40644,-21.986763,2.2992637
3730000000,-4.2088661,-57.938637,-48.018269,15.046938,-48.315811,16.322758,-27.811584,89.031883
3735000000,-25.641251,25.438532,-48.444988,-90.319511,-48.477741,-89.482071,-24.391201,85.929184
3740000000,-7.5498924,-65.282829,-48.187683,165.73117,-48.250938,165.51315,-39.300499,37.144257
3745000000,-8.3390856,-77.489258,-47.803745,57.771721,-48.025871,59.725906,-23.040483,93.271278
3750000000,-11.277671,9.5920868,-47.768433,-43.328022,-48.008739,-43.186714,-29.83782,155.61746
3755000000,-4.4298244,-111.14565,-48.029537,-149.2428,-48.093159,-148.44754,-30.017332,37.27047
3760000000,-6.6213021,-0.86920077,-47.833515,107.44868,-48.013767,107.89796,-21.978718,133.81247
3765000000,-4.698297,-89.056549,-47.928963,1.5698884,-47.922932,2.1678381,-25.535442,-40.073723
3770000000,-13.913176,-112.39745,-47.416462,-104.48291,-47.570942,-103.80829,-22.168222,101.45525
3775000000,-5.2175326,-28.9401,-47.450947,154.50217,-47.587395,154.43454,-25.831453,55.016758
3780000000,-9.1707335,-138.59293,-47.596153,48.942104,-47.451164,48.837551,-24.233116,149.81232
3785000000,-5.2165203,-45.393959,-47.829948,-58.38876,-47.793709,-57.19376,-18.929598,55.436958
3790000000,-10.447303,-76.65155,-47.740917,-163.03534,-47.923328,-162.01768,-17.619923,158.18628
3795000000,-9.4046421,-111.46911,-47.560905,94.475571,-47.635681,93.025955,-25.659672,38.727123
3800000000,-7.4903417,-44.997696,-47.262135,-8.0668907,-47.352226,-7.8644881,-20.334908,138.19579
3805000000,-11.863278,-81.975914,-47.836098,-112.04443,-47.610996,-111.81026,-43.065048,65.326057
3810000000,-9.6866608,-89.790436,-47.501637,141.43478,-47.526001,142.43292,-22.085169,87.387253
3815000000,-4.2800016,-62.725159,-47.678299,38.652424,-47.831516,39.492546,-23.87842,106.84147
3820000000,-12.742816,173.59711,-47.526901,-68.77626,-47.471294,-67.839447,-23.503727,111.82623
3825000000,-3.1680014,-61.182301,-47.08345,-171.43575,-47.177921,-171.0188,-21.01615,68.298248
3830000000,-14.026193,-130.90602,-47.809456,87.093109,-47.80574,88.709541,-15.815242,128.55869
3835000000,-9.1117554,-57.546387,-47.56546,-18.51436,-47.605141,-18.342901,-46.659264,-72.707344
3840000000,-3.9360282,-101.35406,-47.708744,-121.62712,-47.700054,-121.76768,-18.625576,110.57719
3845000000,-15.720749,19.185856,-47.596474,132.81723,-47.738834,133.42516,-30.028379,97.141251
3850000000,-3.1897264,-95.116989,-47.288029,30.538504,-47.174969,30.622969,-24.168381,103.62844
3855000000,-12.638404,-102.26917,-47.477783,-74.306656,-47.544544,-73.158211,-19.156507,68.293747
3860000000,-9.1016808,-61.332272,-47.924068,-178.39304,-47.936432,-177.69032,-22.198341,133.19084
3865000000,-5.824235,-108.86283,-47.354321,78.270599,-47.476128,78.525009,-16.203846,60.033894
3870000000,-8.2679815,-56.163593,-47.430378,-27.870689,-47.601582,-27.917444,-17.733961,141.3031
3875000000,-6.763514,-117.53592,-47.382828,-132.44997,-47.213951,-132.03233,-20.130848,63.08091
3880000000,-10.423676,-98.860435,-47.430882,125.80296,-47.303703,126.12116,-22.48185,120.62997
3885000000,-8.1977015,-55.305,-47.580753,21.334448,-47.554878,22.288858,-19.017473,82.269646
3890000000,-4.2859554,-121.16161,-47.602886,-81.608154,-47.683846,-82.029694,-37.808285,-179.01132
3895000000,-9.6182089,-86.080444,-47.835873,173.39752,-47.741688,173.55756,-15.209531,56.199665
3900000000,-7.2522073,-85.52932,-47.400108,71.242592,-47.492844,71.45871,-20.21353,124.46984
3905000000,-7.8164845,-122.51212,-47.440903,-32.939354,-47.355137,-31.82037,-18.357525,38.855965
3910000000,-6.6204214,-57.273499,-47.374691,-139.35921,-47.444099,-137.78333,-16.288593,105.26423
3915000000,-6.2014027,-134.71011,-47.413067,118.75842,-47.294353,119.23108,-23.679571,44.49015
3920000000,-7.2697096,-75.460838,-47.379864,13.768008,-47.502399,14.143236,-19.932287,97.232399
3925000000,-6.8368459,-110.51969,-47.446823,-90.127083,-47.411591,-89.655769,-19.358541,55.903191
3930000000,-17.002211,-144.57564,-47.605961,165.9984,-47.568386,166.90446,-25.221422,151.21312
3935000000,-2.5705645,-94.806793,-47.206001,62.47654,-47.394337,64.413963,-14.237634,31.09654
3940000000,-23.312777,-140.07587,-47.335793,-40.911327,-47.533821,-40.724194,-19.220119,125.29635
3945000000,-4.2287264,-116.77266,-47.337917,-144.46388,-47.371586,-144.3353,-17.174393,27.918737
3950000000,-8.8220377,-95.866913,-47.567669,110.66959,-47.583138,112.31883,-17.425793,84.977516
3955000000,-11.191314,-108.10727,-47.017685,6.1467171,-47.279884,6.8101482,-27.568556,94.738724
3960000000,-5.6264591,-127.66447,-47.467648,-95.41935,-47.359802,-94.666687,-18.527143,36.839546
3965000000,-10.983892,-83.303047,-47.173954,161.33058,-47.289185,162.23846,-20.700512,101.10297
3970000000,-7.20439,-133.53372,-47.630424,56.579685,-47.549438,56.827328,-24.53298,9.6843853
3975000000,-4.615952,-121.39632,-47.659019,-47.441757,-47.488892,-47.217758,-18.368364,35.234123
3980000000,-12.419094,-91.423157,-47.262386,-152.66606,-47.353313,-151.11646,-19.940107,95.229477
3985000000,-6.3098769,-135.68484,-47.494522,104.24796,-47.523994,105.05534,-19.239326,6.9857078
3990000000,-10.277013,-113.92142,-47.427933,1.3243681,-47.387791,2.8452997,-19.549721,88.885399
3995000000,-7.7146525,-102.77028,-47.630737,-102.83574,-47.484764,-101.74579,-22.974182,41.662827
4000000000,-3.3973784,-159.04805,-47.098255,149.90428,-46.990353,148.98866,-32.975296,9.04387
END

