!CSV A.01.01
!Keysight Technologies,N5247A,US56070710,A.10.64.09
!Date: Saturday, November 19, 2022 23:10:56
!Source: Standard

BEGIN CH1_DATA
Freq(Hz),S33(DB),S33(DEG),S34(DB),S34(DEG),S43(DB),S43(DEG),S44(DB),S44(DEG)
3000000000,-12.830343,165.50467,-47.086933,-63.638206,-47.175861,-64.034409,-18.074242,-162.52164
3005000000,-13.056347,76.41217,-46.683784,-163.57068,-46.913712,-163.38431,-17.500759,-156.89676
3010000000,-12.965239,136.44446,-47.195053,100.15228,-47.324249,99.704781,-15.443851,-169.9686
3015000000,-12.64353,150.92281,-47.143974,-12.088877,-47.203907,-11.866499,-15.913161,-156.7854
3020000000,-17.710499,69.359146,-47.221119,-114.04776,-47.373306,-114.15245,-16.416681,-177.99249
3025000000,-8.1154184,132.76176,-47.6796,142.65756,-47.805393,142.58508,-14.665318,-163.3414
3030000000,-24.791298,61.372604,-47.257,37.051128,-47.297859,36.878349,-18.581043,177.41196
3035000000,-12.476314,94.129417,-46.501415,-66.067986,-46.493057,-66.24427,-14.102865,-175.12323
3040000000,-9.2016077,137.80228,-46.94455,-169.78053,-47.057446,-170.74606,-18.332008,173.1785
3045000000,-25.861652,92.444633,-47.646622,87.879784,-47.616646,88.048111,-15.703312,172.53215
3050000000,-9.4558401,96.379547,-47.539669,-19.685276,-47.645519,-19.691402,-14.324373,165.48375
3055000000,-10.95488,132.61147,-48.209526,-124.30174,-48.087933,-123.22392,-16.107477,-177.3429
3060000000,-16.648453,48.624401,-47.357811,132.65712,-47.295738,132.58475,-14.888771,156.74193
3065000000,-7.8677473,113.42725,-46.295147,31.99609,-46.296963,32.219173,-15.686685,-176.72952
3070000000,-17.861973,138.73892,-47.244392,-72.792534,-47.368874,-73.115959,-16.863438,151.96681
3075000000,-10.416434,81.412872,-47.744637,177.84143,-47.848713,177.83815,-16.271709,162.2594
3080000000,-7.304832,113.25621,-47.052681,79.27684,-46.961117,78.262306,-16.398001,153.79245
3085000000,-27.406038,-162.88094,-47.108418,-28.182041,-47.338264,-27.759666,-17.074528,150.91039
3090000000,-7.1944823,85.714485,-46.902771,-132.51912,-46.942356,-133.25618,-13.822512,147.22629
3095000000,-14.049944,137.92871,-46.82029,129.36873,-46.898571,130.36067,-17.977428,166.98351
3100000000,-12.159965,93.670639,-47.437435,23.977083,-47.534195,24.416842,-14.629757,139.33942
3105000000,-8.5575857,83.014458,-47.129936,-83.740822,-47.215073,-84.557739,-16.833881,167.67982
3110000000,-10.461063,134.37123,-46.349964,173.50797,-46.628754,172.98138,-17.241772,130.85043
3115000000,-11.612399,37.255974,-47.010109,68.837494,-47.026917,68.433083,-17.244394,153.12866
3120000000,-7.4505234,109.00068,-47.335991,-31.625469,-47.407795,-32.103249,-16.624062,128.75941
3125000000,-16.334757,113.31786,-46.973969,-135.15344,-47.093586,-134.93121,-17.413202,146.52609
3130000000,-8.2270441,64.753067,-48.130695,115.18938,-48.060608,116.78322,-15.460303,125.42873
3135000000,-9.0294323,104.14884,-47.197086,11.186673,-47.281288,10.366498,-17.599146,160.56323
3140000000,-15.954324,81.439568,-46.876286,-87.333176,-46.874069,-86.6008,-15.858629,118.84579
3145000000,-8.9174519,61.547745,-47.887806,167.78027,-48.073353,167.6655,-17.362371,151.32823
3150000000,-8.2379923,119.92475,-46.869579,62.717892,-46.918579,61.281395,-18.230843,136.55141
3155000000,-10.888901,50.540901,-47.660614,-40.151424,-47.60178,-39.583961,-19.255028,122.48062
3160000000,-8.0376768,80.876205,-47.875465,-146.20526,-47.876774,-146.2309,-16.42231,136.02473
3165000000,-12.02381,90.383125,-46.369747,109.13094,-46.555729,110.42259,-19.128538,114.33704
3170000000,-12.948291,66.127655,-47.312954,7.3062434,-47.475639,6.9995241,-15.553425,134.37299
3175000000,-8.6884193,87.544144,-47.278622,-96.954315,-47.224564,-96.801056,-17.929434,137.0567
3180000000,-15.826432,62.748161,-47.231701,152.24231,-47.352734,153.88794,-17.963232,125.70033
3185000000,-6.6165347,57.986279,-47.78484,53.121708,-47.699627,51.351715,-16.974873,148.92456
3190000000,-10.639952,82.704109,-47.589401,-50.621143,-47.623432,-49.994808,-20.420856,134.37129
3195000000,-13.927585,50.242096,-46.902355,-158.57079,-47.018227,-158.6541,-21.977039,119.38672
3200000000,-6.7721028,63.618385,-46.882603,100.84327,-46.923901,100.16791,-15.82745,121.4065
3205000000,-9.9249601,109.50887,-47.685692,-5.6148996,-47.815258,-6.1291952,-25.468943,133.00262
3210000000,-8.0283718,26.704714,-48.322178,-108.81644,-48.550888,-108.4505,-13.953465,115.01567
3215000000,-9.0641232,70.986382,-48.346828,145.32408,-48.39978,145.96239,-21.775639,136.09328
3220000000,-12.043768,72.501602,-48.168159,41.668777,-48.36211,42.317184,-15.692997,127.66547
3225000000,-9.0812969,35.010109,-48.148945,-64.988045,-48.194241,-63.867722,-18.712389,128.11209
3230000000,-8.0659189,77.746567,-47.911865,-164.82614,-47.979916,-164.58241,-18.125996,142.58211
3235000000,-13.234117,57.816761,-48.541451,89.747337,-48.560291,89.070724,-20.479115,108.93425
3240000000,-4.9404655,38.960552,-48.739368,-17.465363,-48.76247,-18.878029,-16.703613,126.46432
3245000000,-14.391061,104.01717,-48.249313,-122.16573,-48.422741,-122.13161,-20.00691,135.17679
3250000000,-9.4078331,36.180851,-48.257168,131.45032,-48.282646,131.32837,-17.216362,100.55441
3255000000,-7.8192835,55.621498,-48.271027,29.195848,-48.51268,29.740103,-17.52899,137.46271
3260000000,-11.602674,68.802689,-48.921604,-72.164024,-48.996658,-71.839981,-15.919361,109.39449
3265000000,-7.6548615,17.937351,-49.359009,179.12352,-49.505684,178.76942,-18.511061,134.13573
3270000000,-7.0605664,66.434303,-48.72998,74.388306,-48.732433,74.098663,-16.819117,122.61189
3275000000,-16.159615,10.340387,-48.825653,-29.75013,-48.929546,-28.724064,-20.683578,108.18943
3280000000,-7.9739714,46.928844,-48.703876,-133.46361,-48.884609,-134.18526,-14.580515,117.38232
3285000000,-8.2221174,59.183994,-49.569431,122.53167,-49.742477,122.81701,-20.891331,117.3008
3290000000,-12.874283,-7.0123239,-50.116989,13.736918,-50.192783,13.456611,-15.846875,108.79156
3295000000,-6.161242,29.636665,-50.149399,-92.883972,-50.381229,-92.578476,-15.46503,115.22643
3300000000,-10.983136,69.533432,-50.053356,165.15111,-50.047905,165.27086,-17.76222,120.1267
3305000000,-9.5941048,3.1614137,-49.980106,60.045559,-50.046185,61.147591,-16.645214,111.84389
3310000000,-7.2821121,47.841267,-50.750324,-40.11739,-50.865639,-40.354549,-16.675915,123.41309
3315000000,-12.380603,42.859562,-51.052349,-149.68877,-51.034222,-149.00928,-19.875132,94.631271
3320000000,-8.528141,7.7356443,-51.37262,100.73206,-51.463245,102.6051,-15.385596,105.02566
3325000000,-8.8217707,36.653522,-51.702183,-1.0517884,-51.915314,-0.55011743,-19.254032,102.63118
3330000000,-20.438999,-30.589508,-51.744869,-106.79275,-51.693966,-106.97072,-13.883044,98.103027
3335000000,-4.461524,21.63307,-53.285725,151.20868,-53.306122,147.29378,-18.275265,102.17876
3340000000,-11.605466,35.516502,-53.672382,49.145454,-53.86211,48.065647,-14.685884,109.94595
3345000000,-11.44969,3.3596601,-54.526222,-60.103474,-54.569733,-60.520885,-18.885096,91.91127
3350000000,-5.7720342,12.027913,-54.684383,-165.58635,-54.737732,-164.2753,-15.141531,106.4581
3355000000,-14.626234,68.154968,-55.429672,96.064362,-55.287109,95.005966,-22.62052,77.737015
3360000000,-8.9761515,-15.411022,-55.979763,-8.2070875,-56.015198,-8.4434137,-14.821802,94.277061
3365000000,-6.2180395,27.545511,-57.909832,-114.03857,-57.758797,-112.00541,-18.492573,68.765327
3370000000,-11.919964,-2.01002,-58.936001,150.26402,-59.237221,149.86325,-15.276585,88.879036
3375000000,-6.6697664,-0.2281165,-60.295742,47.50592,-60.369793,47.752766,-16.764559,85.949905
3380000000,-10.666712,40.27734,-58.798241,-48.700359,-59.286278,-48.750889,-16.91362,94.244881
3385000000,-15.738235,12.032673,-59.753731,-139.28596,-60.426125,-137.82391,-17.972904,69.738075
3390000000,-5.1851468,-2.4293292,-60.106014,119.91605,-59.929173,120.62504,-17.457098,87.780716
3395000000,-15.165144,59.22451,-61.78685,31.728756,-61.664513,30.463057,-18.042175,76.162239
3400000000,-6.696898,-24.057705,-62.779385,-70.235077,-62.495049,-67.895889,-17.095673,68.163589
3405000000,-9.579422,-5.6663914,-59.456272,-170.06157,-59.744099,-169.43536,-19.897373,69.008606
3410000000,-11.593706,42.951809,-59.016983,94.496124,-58.773052,96.3871,-15.37228,71.479294
3415000000,-5.1919489,-25.204159,-57.583012,-4.2777162,-57.900928,-3.5491917,-18.664267,67.427238
3420000000,-9.3802996,37.338955,-57.27496,-99.032753,-57.530323,-99.211967,-17.366455,83.826782
3425000000,-11.581071,-23.596106,-56.68399,154.49181,-56.863625,156.21346,-21.575563,51.235069
3430000000,-7.4150677,-17.412436,-56.491341,48.127476,-56.298744,46.347046,-17.183548,80.670906
3435000000,-14.045038,13.952821,-55.59721,-57.124073,-55.896339,-54.708691,-21.628519,38.047215
3440000000,-10.927547,-24.959126,-54.472267,-166.94016,-54.622181,-167.1118,-21.587698,56.906273
3445000000,-5.9799128,-3.8362186,-55.100632,95.245163,-54.821201,94.43837,-16.47121,55.619083
3450000000,-12.580012,-6.7411742,-54.416664,-11.125165,-54.614101,-11.753868,-21.966116,57.909924
3455000000,-9.7592878,-46.302578,-54.742577,-118.75244,-54.651707,-118.90353,-19.048176,56.678108
3460000000,-8.592741,11.523303,-54.162632,134.10455,-54.207397,136.31787,-19.698328,73.390594
3465000000,-12.058282,-28.452274,-54.270966,34.022419,-54.401981,34.999817,-24.467134,59.223396
3470000000,-7.9621329,-27.451818,-53.813099,-72.544518,-53.628544,-71.155495,-19.027115,57.115402
3475000000,-8.3774633,5.650826,-53.884853,-177.39059,-53.714439,-178.41672,-33.782726,118.14037
3480000000,-11.612025,-72.721054,-53.724014,75.236923,-53.89135,73.621056,-19.512352,44.657219
3485000000,-5.4877539,-6.6385694,-54.057293,-31.91633,-54.013046,-31.494471,-21.419796,32.387611
3490000000,-19.503248,-31.138416,-53.547272,-135.51068,-53.713402,-134.75211,-22.850485,107.19714
3495000000,-9.6552868,-16.785919,-54.451881,123.58763,-54.541573,123.90672,-18.034887,19.862598
3500000000,-6.1806469,-28.410563,-53.73151,14.496086,-54.027229,15.949622,-18.496725,105.20213
3505000000,-22.200615,69.773956,-54.551456,-89.628967,-54.461285,-91.826607,-24.941351,12.193467
3510000000,-5.4971342,-43.567986,-54.797432,159.18317,-54.818378,159.88255,-21.977045,102.47841
3515000000,-11.019484,10.559642,-54.855316,53.831615,-54.815411,54.247295,-26.991463,48.119347
3520000000,-14.980073,-57.479424,-55.120968,-54.457741,-55.026451,-53.402153,-26.712385,17.36809
3525000000,-8.0509357,-31.313553,-54.49271,-156.78006,-54.841434,-157.84256,-21.203588,62.722237
3530000000,-9.3568859,-16.902254,-56.347126,99.661469,-56.607449,98.488609,-21.493547,87.234207
3535000000,-12.676104,-76.790154,-56.840435,-6.616858,-56.665443,-6.9757018,-26.113178,34.889999
3540000000,-8.172822,-26.781237,-55.87886,-121.4958,-55.841118,-121.88991,-18.33593,99.622101
3545000000,-13.146622,11.482528,-56.803505,123.41011,-57.304108,124.25422,-40.461689,-163.24353
3550000000,-7.2153025,-56.207191,-57.110291,28.090792,-57.190285,27.336391,-19.402079,80.559517
3555000000,-11.589596,3.862601,-57.882381,-82.004173,-58.413033,-82.660721,-46.008537,-128.3578
3560000000,-10.972426,-50.535275,-61.775188,159.49619,-61.208416,161.97568,-22.664444,91.582611
3565000000,-12.177574,-81.509521,-61.870296,46.221607,-61.578514,47.312412,-24.11179,40.732166
3570000000,-6.1663985,1.7251424,-62.346489,-65.805473,-62.452415,-68.444534,-23.166578,85.514709
3575000000,-11.339815,-108.71189,-62.822338,171.01878,-62.517307,176.45631,-23.086689,67.670258
3580000000,-7.2613482,-25.202808,-66.637268,75.616135,-65.634842,79.385902,-20.980034,93.918411
3585000000,-11.303644,-46.573818,-64.327644,-68.322868,-64.631607,-69.255058,-23.55702,91.567223
3590000000,-17.266747,-108.0472,-66.300804,173.97412,-65.488342,179.1636,-33.673191,65.33683
3595000000,-5.3675623,-28.202814,-63.228115,46.841553,-63.3004,49.186722,-19.211325,86.288132
3600000000,-32.721283,-67.081764,-62.421932,-64.842575,-62.376568,-67.293282,-35.889675,89.620178
3605000000,-6.3156495,-48.293266,-61.934986,166.75175,-61.608967,163.45168,-21.581783,51.231277
3610000000,-12.368155,-41.067768,-59.937805,52.695404,-59.787182,51.312485,-22.148895,84.142075
3615000000,-23.208029,-12.163116,-58.388508,-53.287682,-58.464233,-54.170212,-22.66691,77.478439
3620000000,-7.9048605,-55.165817,-56.97567,-164.69377,-57.259331,-166.13297,-21.901182,62.228947
3625000000,-10.229064,-28.964828,-56.601635,86.266876,-56.713394,85.998932,-22.564022,101.86717
3630000000,-25.632816,-107.43713,-56.100922,-24.383055,-55.993198,-24.395992,-26.317501,87.482338
3635000000,-5.6290317,-58.529976,-55.115982,-132.49057,-54.865166,-133.19992,-20.389021,49.80743
3640000000,-17.799719,1.2962794,-53.763199,119.5464,-54.18565,119.79504,-23.029533,148.82954
3645000000,-7.1740723,-69.352425,-53.482834,14.835129,-53.461952,14.390073,-18.596291,12.640483
3650000000,-16.867743,-36.91927,-52.827076,-88.947563,-52.76001,-87.702042,-19.534922,104.68587
3655000000,-7.4666023,-17.453392,-52.789047,162.21732,-52.825382,162.34259,-21.804888,14.38493
3660000000,-6.0737977,-94.230232,-52.10247,54.075378,-52.458206,54.577145,-22.557556,97.43557
3665000000,-7.8958449,12.805448,-51.765842,-51.592155,-51.785046,-51.375179,-21.018822,62.284176
3670000000,-9.5951929,-104.3782,-50.637112,-157.39853,-50.642399,-158.63132,-31.652122,114.59877
3675000000,-10.935557,-23.46283,-50.717793,97.160728,-50.60178,98.354073,-23.80353,48.256237
3680000000,-7.626173,-49.596855,-50.869316,-9.6682711,-50.910797,-8.5418873,-24.402477,120.78904
3685000000,-14.045654,-110.60217,-50.310825,-111.82296,-50.631779,-112.36995,-22.952087,-30.532448
3690000000,-6.1079535,-39.815228,-50.272495,138.39674,-50.375702,138.63878,-20.16486,67.297333
3695000000,-22.63261,-48.62487,-49.851189,32.290318,-49.976093,31.503059,-31.438629,-25.591333
3700000000,-9.3405046,-70.678314,-49.783878,-71.157379,-49.738098,-70.19088,-21.344345,70.371887
3705000000,-7.8062425,-36.080326,-49.137512,-175.14444,-49.29771,-174.81119,-23.432518,25.260857
3710000000,-16.422886,-116.6574,-49.260696,78.363937,-49.484882,78.081451,-22.804165,140.31598
3715000000,-6.4891558,-54.641365,-49.368408,-26.726696,-49.255882,-27.100002,-19.7985,24.789265
3720000000,-10.781897,-51.76556,-48.904613,-133.78984,-48.935261,-133.16084,-21.503483,157.38335
3725000000,-24.93741,-93.38829,-48.815784,122.0798,-48.831402,121.91848,-22.315796,-0.95983315
3730000000,-4.2171373,-58.001385,-48.504204,17.21928,-48.7048,16.676929,-27.019869,93.523064
3735000000,-25.767612,23.675673,-48.727509,-88.032051,-48.943275,-87.68013,-24.04368,82.128944
3740000000,-7.571846,-65.569969,-48.565327,166.8681,-48.649982,166.97258,-40.433048,10.625118
3745000000,-8.3433113,-77.440842,-48.354279,60.612255,-48.32695,61.41959,-22.929867,96.905273
3750000000,-11.320329,9.4606819,-48.288574,-41.819878,-48.246639,-40.627449,-29.722044,148.05298
3755000000,-4.4238939,-111.19894,-48.317574,-147.48206,-48.327892,-147.79762,-29.629894,30.296175
3760000000,-6.6526046,-0.98169041,-48.092541,109.31682,-48.287331,109.20932,-21.938778,136.77299
3765000000,-4.7055402,-89.095505,-48.146809,2.7432637,-48.332287,4.4760323,-26.22333,-37.964409
3770000000,-13.833044,-112.43949,-47.620918,-103.39448,-47.855526,-103.54916,-22.184443,98.326851
3775000000,-5.2405534,-29.012007,-47.716858,155.26111,-47.840523,155.26691,-26.505655,53.106403
3780000000,-9.1693144,-138.61519,-47.718868,50.123108,-47.777615,50.19912,-23.707155,150.08597
3785000000,-5.2102742,-45.54599,-48.209343,-55.734341,-48.012501,-56.817215,-18.671734,55.222157
3790000000,-10.463208,-76.946373,-47.896694,-161.60622,-48.016792,-160.06096,-17.819832,159.08348
3795000000,-9.3940058,-111.53497,-47.847881,94.976051,-47.7906,95.223404,-26.233637,39.710781
3800000000,-7.4950118,-45.221352,-47.519005,-6.7277927,-47.625008,-6.4728355,-20.082172,136.9989
3805000000,-11.873432,-82.198898,-47.877769,-110.92375,-48.094868,-110.68068,-40.947544,42.513241
3810000000,-9.6656818,-90.061333,-47.654491,142.24309,-47.779068,142.66151,-22.469723,88.693359
3815000000,-4.293622,-62.776596,-47.922993,39.381397,-47.892117,40.13644,-23.462198,108.20785
3820000000,-12.738256,174.00752,-47.648411,-67.868568,-47.69931,-66.217857,-23.451811,109.43446
3825000000,-3.1853364,-61.3643,-47.145493,-170.39055,-47.332001,-169.59186,-21.219879,67.019905
3830000000,-14.034122,-130.8118,-47.76651,87.99614,-47.950859,89.621918,-15.747684,129.5677
3835000000,-9.1241398,-57.870464,-47.6675,-17.109238,-47.62825,-17.406954,-54.070946,-35.478203
3840000000,-3.9357753,-101.38913,-47.845207,-120.81733,-48.040493,-121.14798,-18.80797,109.45656
3845000000,-15.815576,19.067413,-47.862488,133.6041,-47.939312,133.71007,-30.491179,101.9834
3850000000,-3.203732,-95.220367,-47.240097,30.901281,-47.351856,31.32972,-23.80542,104.4814
3855000000,-12.590947,-102.35413,-47.543812,-72.899658,-47.75103,-72.333656,-19.017717,67.440025
3860000000,-9.1256599,-61.587585,-48.060764,-175.84392,-47.961414,-176.21515,-22.454655,134.41171
3865000000,-5.8212337,-108.94032,-47.667801,78.847824,-47.624271,79.442978,-16.275183,61.056366
3870000000,-8.277566,-56.36364,-47.50499,-27.468948,-47.709602,-26.145096,-17.694757,140.12857
3875000000,-6.757472,-117.69091,-47.446575,-130.99579,-47.419159,-130.71849,-20.194714,61.678604
3880000000,-10.420894,-99.070709,-47.553249,126.56718,-47.777451,126.48981,-22.526941,122.53898
3885000000,-8.2203054,-55.488068,-47.760387,22.528086,-47.714699,23.865259,-18.832853,83.128166
3890000000,-4.2843041,-121.18973,-47.8176,-80.335533,-47.902294,-81.558998,-39.893997,179.66383
3895000000,-9.5854712,-86.444031,-48.031494,174.96547,-47.989548,175.01627,-15.328914,56.018185
3900000000,-7.2835355,-85.720917,-47.367958,71.07283,-47.56691,71.223259,-20.047127,125.23484
3905000000,-7.8055925,-122.49403,-47.522285,-32.813385,-47.544495,-31.857166,-18.213604,39.292961
3910000000,-6.6428418,-57.464958,-47.375774,-137.50941,-47.654476,-137.33139,-16.422029,104.81392
3915000000,-6.1975942,-134.72693,-47.646347,119.13794,-47.558056,119.56802,-24.03161,45.463814
3920000000,-7.2836404,-75.814911,-47.416603,14.377029,-47.615303,14.709865,-19.721689,97.185097
3925000000,-6.8509526,-110.62983,-47.527035,-89.539063,-47.484486,-89.174988,-19.283146,54.870434
3930000000,-16.92511,-144.77942,-47.814167,165.92409,-47.741955,167.8271,-25.221016,153.37665
3935000000,-2.5788906,-94.89006,-47.488106,63.774632,-47.515572,64.940613,-14.27779,31.6891
3940000000,-23.177145,-140.57861,-47.566265,-40.301044,-47.694492,-40.071072,-19.175659,124.28113
3945000000,-4.2280297,-116.96436,-47.459763,-143.5029,-47.413376,-143.43658,-17.158781,26.922083
3950000000,-8.8343678,-95.974625,-47.604088,112.11578,-47.590984,113.54639,-17.476122,86.192894
3955000000,-11.201136,-108.34554,-47.318035,6.2929463,-47.288967,7.7804103,-27.086571,93.606865
3960000000,-5.6154699,-127.81138,-47.52705,-95.679169,-47.467266,-93.947655,-18.481119,35.95583
3965000000,-11.00287,-83.583488,-47.402069,160.53938,-47.38496,162.3961,-20.810589,101.8486
3970000000,-7.2045941,-133.75365,-47.726063,56.393929,-47.701408,57.147831,-24.739925,11.142709
3975000000,-4.6173654,-121.45997,-47.802086,-47.550594,-47.73888,-46.995838,-18.211227,35.310284
3980000000,-12.404162,-91.794395,-47.432556,-151.94501,-47.419346,-150.14455,-20.140694,95.053001
3985000000,-6.3071508,-135.93547,-47.573132,105.47192,-47.549183,106.18517,-19.432009,7.232758
3990000000,-10.27602,-114.12894,-47.385696,1.8002951,-47.359619,3.6335936,-19.376795,88.450821
3995000000,-7.7333894,-102.95274,-47.764996,-101.74057,-47.72068,-100.26907,-22.950809,40.03968
4000000000,-3.3908865,-159.07426,-47.069519,150.12686,-46.993896,148.99704,-33.65831,6.6129899
END

