!CSV A.01.01
!Keysight Technologies,N5247A,US56070710,A.10.64.09
!Date: Saturday, November 19, 2022 21:27:05
!Source: Standard

BEGIN CH1_DATA
Freq(Hz),S33(DB),S33(DEG),S34(DB),S34(DEG),S43(DB),S43(DEG),S44(DB),S44(DEG)
3000000000,-11.797075,168.23935,-66.033264,134.35432,-65.927811,130.46623,-15.617453,-114.35954
3005000000,-15.189277,94.377426,-77.891273,-44.547264,-77.511543,-48.168987,-15.09232,-160.28386
3010000000,-11.096997,171.04117,-62.731617,-164.35269,-63.714306,-160.08702,-18.231319,-141.35847
3015000000,-11.414115,134.2562,-61.761272,126.67224,-61.3909,125.37808,-12.414892,-147.7413
3020000000,-31.331877,127.82487,-62.836933,14.133973,-62.706139,10.08354,-21.137915,173.97958
3025000000,-7.4409332,148.40814,-61.706753,-70.064194,-61.530964,-68.127747,-11.978825,-143.59138
3030000000,-21.418489,51.953526,-60.252907,161.47185,-61.089436,162.03801,-18.440346,171.98506
3035000000,-10.804523,148.10422,-61.590786,105.39318,-62.079285,108.06657,-14.390412,-142.59367
3040000000,-10.668476,127.25504,-67.814163,-25.609173,-68.046234,-28.758497,-13.626616,-176.84325
3045000000,-18.626085,-171.77956,-66.972023,179.12274,-67.356392,177.26094,-19.675533,-155.48587
3050000000,-8.8664417,117.00565,-60.613003,103.80077,-61.033222,104.01383,-11.990529,-177.36761
3055000000,-14.746556,144.72231,-63.419884,-0.29730523,-63.641319,4.5573688,-18.465519,-172.98291
3060000000,-14.079595,125.65369,-63.512878,-102.84045,-63.277008,-101.34528,-14.701075,-166.30988
3065000000,-11.033482,118.54735,-56.172585,156.72403,-56.372772,154.46582,-14.402284,173.91635
3070000000,-11.902536,159.41685,-71.746552,135.36832,-71.171883,125.23543,-18.351826,-154.57718
3075000000,-10.251763,91.406883,-61.805656,3.3449137,-61.977406,3.2998388,-12.579281,168.04726
3080000000,-10.119735,138.45865,-68.310219,-162.02306,-68.695267,-160.96829,-19.410509,170.41315
3085000000,-15.403375,144.9055,-65.464844,64.513641,-65.702393,54.455658,-14.185101,-178.43065
3090000000,-9.2024736,99.279831,-60.048782,-17.09823,-59.700424,-16.30578,-15.504947,139.79219
3095000000,-11.77807,153.39998,-67.59845,-152.71382,-67.833511,-153.86131,-14.372458,-156.06979
3100000000,-10.65156,102.54404,-58.209793,167.09427,-58.469173,168.37492,-13.884764,139.33406
3105000000,-12.658969,112.52991,-61.25462,100.0747,-60.925571,99.473328,-16.633587,-160.86148
3110000000,-8.3869486,133.68251,-79.627075,-75.022705,-85.662178,-128.36177,-13.739727,152.14851
3115000000,-14.803164,53.562462,-63.076946,161.01636,-62.545418,166.21588,-21.678459,156.47066
3120000000,-6.9617295,129.86981,-59.945683,64.373619,-59.814861,62.450134,-14.17223,163.59831
3125000000,-14.16602,92.089554,-62.285637,-9.2903814,-62.54351,-9.3021069,-19.846283,146.40735
3130000000,-11.764318,108.93295,-61.807178,-126.20018,-62.380348,-129.87187,-16.455086,165.3132
3135000000,-7.4689951,107.43353,-60.414467,154.70341,-60.254223,155.88121,-14.96306,154.68503
3140000000,-20.147388,109.20483,-63.915703,73.032417,-64.318329,69.737534,-22.002249,151.98869
3145000000,-7.9698286,97.48877,-65.833061,-68.381256,-66.000458,-60.433651,-13.269819,152.99205
3150000000,-11.613437,117.46956,-68.296272,161.14723,-68.133987,171.55086,-23.247156,145.15199
3155000000,-10.787747,100.86058,-69.175346,46.035477,-70.25753,48.346695,-16.572807,162.85626
3160000000,-8.8229027,85.853981,-63.946449,-22.588579,-64.259285,-17.826927,-16.952627,131.73347
3165000000,-12.253975,118.7673,-65.108925,-137.74355,-64.915062,-139.81715,-18.107414,-176.49864
3170000000,-9.9962883,91.805977,-64.803139,127.54833,-65.224937,128.68533,-14.099652,127.86315
3175000000,-10.708566,100.95583,-59.815331,34.710804,-59.620193,33.575165,-19.533905,-178.38669
3180000000,-12.195788,95.423103,-81.073196,51.560612,-77.593819,84.851395,-15.297505,140.61603
3185000000,-7.6245146,73.37719,-74.708717,-165.1277,-72.130676,-163.23358,-23.214691,145.31689
3190000000,-12.384332,109.43633,-72.949539,169.83279,-72.536896,177.6342,-15.212316,167.86021
3195000000,-9.5100584,86.140373,-63.232677,-76.389023,-63.41861,-77.494545,-22.646685,104.14519
3200000000,-9.322794,73.627686,-60.29813,-174.57204,-60.354519,-174.53452,-14.998101,159.70216
3205000000,-8.5031586,115.79559,-62.447891,132.93813,-62.724545,126.43048,-19.892145,130.79124
3210000000,-9.1747627,40.471073,-66.80201,61.950268,-66.95768,56.901592,-19.821526,137.78986
3215000000,-8.8024902,111.51643,-71.242378,12.858997,-72.450539,15.709727,-15.069147,148.43124
3220000000,-7.7482386,66.918343,-86.683037,174.6255,-91.068985,150.10298,-22.475039,133.44737
3225000000,-17.869307,59.350601,-68.926949,-15.151986,-67.751167,-15.667467,-15.194934,161.60579
3230000000,-5.3863091,90.278976,-67.640541,-74.797012,-67.626137,-68.095024,-18.034561,124.55596
3235000000,-13.571362,42.978153,-61.018879,-165.21416,-61.012344,-165.79851,-18.812487,-175.16107
3240000000,-7.0277567,73.613586,-67.261124,141.30103,-67.947701,133.46466,-13.738796,116.06113
3245000000,-11.908143,76.4645,-65.21627,80.355637,-65.321846,84.753571,-19.939163,-154.56801
3250000000,-11.669672,77.354309,-69.49913,13.262961,-70.53112,12.455522,-14.184532,125.38755
3255000000,-6.3057122,64.455063,-82.269096,42.166203,-84.537781,4.3200073,-24.714462,145.19366
3260000000,-14.594475,74.375801,-66.896347,13.82401,-67.683815,15.953418,-13.802757,149.22566
3265000000,-8.4213924,59.832157,-67.24543,-131.99652,-69.357994,-132.09933,-19.3067,105.53642
3270000000,-7.7529922,67.047028,-65.68177,-144.90291,-66.292908,-146.83218,-15.423332,163.22984
3275000000,-16.236553,67.628296,-67.620552,150.45403,-68.769081,155.22995,-16.920065,111.60389
3280000000,-6.5447893,65.216217,-65.725266,79.250824,-66.60881,65.210144,-19.528212,148.93059
3285000000,-10.236129,53.211102,-90.913582,176.81714,-81.042755,87.824287,-14.089365,143.63312
3290000000,-13.590101,68.861916,-65.418999,-14.125754,-66.129776,-20.253122,-21.328945,95.36676
3295000000,-7.002614,42.195286,-67.26442,-39.411011,-65.998642,-36.581921,-12.972569,150.86627
3300000000,-9.6040096,89.427864,-70.17762,-132.44157,-70.815178,-142.25752,-17.493671,103.54214
3305000000,-7.2164354,27.711994,-64.256119,-138.7926,-63.752983,-136.15196,-18.162481,163.70505
3310000000,-13.278258,67.463921,-68.850143,66.161301,-68.42984,75.596901,-13.127372,115.71107
3315000000,-7.4379187,67.385292,-81.728584,46.869556,-79.865685,40.069569,-26.511055,-163.33896
3320000000,-10.357622,14.990082,-71.523109,102.98398,-73.337318,102.92827,-11.909493,122.54245
3325000000,-7.4889488,64.770706,-73.241791,-26.956661,-75.629158,-19.897293,-23.898933,91.316383
3330000000,-12.324141,-0.88254935,-75.493683,-108.14404,-73.940201,-110.09919,-13.15914,135.90901
3335000000,-7.8873334,52.925251,-71.409958,174.05977,-70.740143,178.99268,-16.668545,86.325043
3340000000,-7.9682689,42.072098,-67.35051,134.15442,-68.710747,146.02324,-15.519748,149.69165
3345000000,-14.400227,27.471558,-73.891228,19.651527,-73.013359,1.7948409,-15.816185,98.481522
3350000000,-5.9151735,38.507984,-75.596161,135.64114,-75.666756,140.47774,-18.098831,128.11581
3355000000,-13.665539,24.698309,-69.36853,109.28896,-68.917313,113.5045,-16.190975,127.02268
3360000000,-12.445898,34.871887,-65.056213,-29.377495,-66.385414,-33.530094,-16.392626,79.443298
3365000000,-5.6313272,39.850426,-65.458755,-96.813057,-67.020157,-101.23441,-17.097961,136.43831
3370000000,-11.774122,8.7790489,-67.755379,160.80159,-67.553085,154.0867,-14.13635,84.101936
3375000000,-8.0744953,31.927382,-65.134857,56.603554,-65.898972,61.509037,-22.264006,134.74545
3380000000,-10.734527,26.881296,-68.109177,-55.964947,-68.336212,-59.72823,-12.964447,103.48684
3385000000,-11.807902,64.295113,-76.866249,152.13933,-78.860519,143.79076,-29.544674,49.441616
3390000000,-4.2756758,9.4142189,-64.57885,42.47213,-65.388489,41.24271,-12.621195,107.11397
3395000000,-21.290628,102.19669,-65.52475,-61.003315,-65.836304,-54.737972,-21.039549,52.254375
3400000000,-5.7018037,19.0329,-62.923439,-142.99178,-63.625935,-138.70615,-16.29936,114.98506
3405000000,-11.852584,-11.928732,-61.110741,89.051704,-61.297497,88.244102,-16.307245,66.817894
3410000000,-7.0233054,57.846233,-83.200371,4.4667954,-76.832504,8.3765955,-20.795593,121.0786
3415000000,-4.7708969,-18.458437,-65.164085,-124.98659,-65.246803,-120.86018,-14.942657,80.549805
3420000000,-10.601599,80.093025,-68.510216,42.839184,-68.961456,41.0214,-22.190903,100.89183
3425000000,-6.9793997,10.387248,-70.350739,-5.4098897,-70.163857,-2.5764835,-18.20125,96.091652
3430000000,-11.29253,-7.4250464,-61.953907,-107.16185,-61.951256,-104.61313,-18.332323,53.978626
3435000000,-8.5310163,31.663559,-69.34462,-166.59233,-70.003304,-164.01349,-20.26642,129.94543
3440000000,-10.320053,-20.65867,-69.725426,68.264206,-68.890717,65.672798,-16.761522,46.467976
3445000000,-8.7177773,28.425552,-72.191658,50.656891,-71.397652,49.433132,-23.475145,99.262772
3450000000,-8.2039967,9.2647409,-68.486008,-57.077129,-68.747185,-57.51833,-16.309811,83.761688
3455000000,-13.053024,-30.337881,-73.149696,-38.376923,-70.743126,-42.358547,-24.698757,8.3890018
3460000000,-6.7325206,29.61512,-71.846458,-36.507645,-73.345779,-26.942984,-14.676815,99.513321
3465000000,-9.6791306,-29.170973,-65.150597,-144.10315,-66.394478,-142.1835,-22.589264,-17.186964
3470000000,-12.470106,22.501236,-65.253975,-179.98367,-65.97776,-175.91211,-17.58013,107.00456
3475000000,-5.9304242,7.3045187,-62.951107,114.53245,-63.249107,121.69032,-21.445646,45.854435
3480000000,-17.139084,-64.455605,-64.173973,65.288239,-63.766735,62.161934,-28.70715,164.36241
3485000000,-4.2623591,10.342103,-63.352188,-39.635761,-63.16317,-43.480064,-16.084011,60.006287
3490000000,-16.834017,-74.906998,-70.970993,-104.33488,-71.219658,-101.76113,-28.776197,-170.90913
3495000000,-7.4937768,26.133974,-75.834526,-112.22192,-79.68158,-115.74697,-19.563122,60.12989
3500000000,-6.114397,-28.437033,-65.978302,-90.515167,-66.02462,-97.368118,-23.763956,73.014755
3505000000,-15.057644,80.41275,-65.284088,-130.71913,-64.349915,-136.75966,-23.36433,161.15625
3510000000,-4.6040058,-20.808079,-61.667603,133.61319,-61.62175,130.86945,-17.662312,50.389332
3515000000,-17.273535,24.591452,-62.531712,35.241783,-62.906696,37.475716,-23.911104,-155.94594
3520000000,-10.005333,0.36868727,-62.877625,-59.431213,-62.996712,-57.77713,-17.302198,74.60675
3525000000,-9.3185368,-34.818886,-66.705513,-156.19547,-67.023674,-161.11319,-23.980238,-40.969769
3530000000,-9.9258156,18.92992,-68.936516,75.036652,-68.079445,70.115829,-14.562639,115.72537
3535000000,-9.2198887,-37.622921,-63.055256,-56.42046,-63.288288,-56.113449,-19.510565,-34.851715
3540000000,-12.110614,-6.0195274,-59.152359,-147.8459,-59.270416,-145.56442,-14.535923,129.05345
3545000000,-8.7837553,7.5036945,-59.308052,117.2919,-59.115688,118.84736,-22.508705,6.6467924
3550000000,-8.98841,-54.518276,-62.448399,19.329838,-62.553322,18.472681,-22.0368,164.58347
3555000000,-9.2800035,41.823799,-62.825058,-92.687798,-62.483425,-92.776482,-18.768909,75.210289
3560000000,-6.3737235,-35.787178,-59.602085,-179.66136,-59.99387,-178.48613,-27.621265,-117.00594
3565000000,-24.142492,-105.43672,-63.323174,29.997549,-64.011894,24.753656,-19.637598,101.61396
3570000000,-4.2584009,2.2657206,-61.16238,-51.616035,-61.487259,-49.084835,-24.979219,40.596489
3575000000,-10.36995,-115.14836,-57.832642,-171.59903,-57.565601,-170.71294,-19.631334,145.25853
3580000000,-5.7322826,18.832729,-60.472511,87.402382,-60.580269,88.816765,-18.009762,53.653835
3585000000,-6.7134032,-52.664734,-58.805637,-18.783604,-58.658997,-15.856561,-20.195553,-175.57678
3590000000,-20.781336,90.886284,-58.043877,-128.60272,-58.438057,-128.88515,-18.5026,77.804588
3595000000,-4.0888047,-22.496716,-58.530777,144.77344,-58.746021,145.59897,-35.036957,8.2714834
3600000000,-19.593637,-168.12318,-58.691525,36.613552,-58.622803,33.443024,-16.310188,137.92989
3605000000,-5.2268119,-8.4024496,-59.400536,-95.088875,-58.911308,-94.580025,-18.281895,4.7718372
3610000000,-10.691335,-62.050755,-57.898655,156.20151,-58.124153,158.02911,-16.687365,138.82434
3615000000,-12.084544,32.152916,-58.252007,57.69096,-57.793472,59.160599,-19.520092,43.967518
3620000000,-6.8387403,-49.880764,-55.82333,-66.724495,-55.931557,-64.80397,-24.009666,-172.59326
3625000000,-16.215639,8.0245047,-58.458427,-155.39859,-58.570538,-154.59294,-15.839262,82.52636
3630000000,-10.428764,-9.9711351,-59.078972,112.75432,-59.1665,111.171,-23.384237,-102.55457
3635000000,-7.6429501,-63.132866,-64.489235,-39.125187,-64.237144,-38.70763,-16.009092,88.734299
3640000000,-11.489997,25.023058,-62.593018,-134.55493,-63.237484,-130.28032,-41.63171,104.63953
3645000000,-6.2088819,-54.857136,-57.880558,112.36322,-57.556137,113.21137,-30.564686,78.019997
3650000000,-19.339163,44.705841,-60.473274,-4.7772961,-60.446056,-1.4456145,-17.434265,73.620697
3655000000,-4.4413786,-15.78896,-57.59034,-53.083275,-57.801247,-53.054417,-26.014278,-133.07025
3660000000,-8.8747416,-106.50345,-61.78017,172.15053,-62.342239,179.58714,-16.493584,84.112991
3665000000,-5.0750504,23.52372,-71.365677,111.26237,-72.130829,128.00027,-27.649479,-41.157223
3670000000,-6.5671906,-81.84581,-64.698471,-55.338539,-65.556633,-55.319504,-16.92975,124.57126
3675000000,-11.475283,30.750267,-63.383755,-177.80669,-63.91188,-177.05141,-17.692856,-8.0587759
3680000000,-4.7701406,-43.406059,-63.47081,121.73926,-63.11134,116.9544,-15.702795,146.94081
3685000000,-18.448206,-179.94615,-61.074646,6.4322805,-60.979996,5.9678473,-17.428541,-9.2865782
3690000000,-3.5357511,-16.51309,-63.639942,-106.11897,-64.134392,-106.65426,-21.033306,141.55995
3695000000,-13.30703,-103.96413,-67.770737,175.5563,-66.628891,169.70656,-21.106749,52.692856
3700000000,-9.5850658,-8.1424274,-72.760399,125.4841,-73.290504,120.69112,-28.247728,-99.634033
3705000000,-6.3778076,-48.417896,-66.506203,-82.418182,-67.301636,-83.93618,-17.7104,78.880669
3710000000,-22.512745,119.4493,-68.093155,-147.40436,-67.85778,-148.77278,-29.505211,-108.80688
3715000000,-4.0388517,-30.288345,-63.18301,97.106033,-62.724274,94.11129,-25.890812,94.682373
3720000000,-12.35279,-71.693596,-68.928932,10.576433,-70.016685,-2.5646977,-25.266613,82.895027
3725000000,-12.788511,-3.6090183,-68.628258,-59.787277,-68.707909,-63.950665,-24.846603,-124.49439
3730000000,-5.386353,-55.642342,-77.815025,122.16774,-77.116737,106.46207,-17.899063,69.69043
3735000000,-15.782732,57.499054,-68.630493,131.46188,-69.132996,131.04588,-25.394592,-119.61197
3740000000,-4.6752858,-38.553291,-69.432472,-119.82708,-67.452858,-118.09949,-20.903208,121.86881
3745000000,-10.52984,-86.899643,-76.580498,-175.29874,-78.512405,-176.81453,-21.545204,-16.94957
3750000000,-7.463697,4.3946238,-64.563202,84.785652,-64.78849,88.780518,-15.580523,162.24443
3755000000,-5.580081,-105.0611,-83.270325,-54.069187,-80.326874,-36.138191,-17.355501,3.3714895
3760000000,-4.7598028,20.573116,-70.585899,-90.269417,-70.223366,-92.297882,-16.177351,176.53769
3765000000,-2.4345109,-71.633797,-81.834221,-170.68356,-75.46846,-150.30328,-19.69224,34.68705
3770000000,-19.42898,169.21938,-75.741203,52.966606,-77.199928,74.980553,-21.982616,-131.57144
3775000000,-3.0499182,-21.901243,-70.502205,-60.201187,-70.802803,-54.069546,-16.60235,96.655617
3780000000,-9.3127213,-130.90251,-79.801971,-165.65697,-77.995667,176.55301,-21.434666,-101.61163
3785000000,-4.2183785,-13.065919,-72.567848,162.85535,-77.153374,148.36775,-18.041908,114.89703
3790000000,-5.743022,-83.533981,-73.792412,-164.30199,-73.576904,-179.22906,-27.265955,114.52049
3795000000,-25.661184,-15.190475,-67.573967,-124.16573,-66.589584,-123.02859,-21.820358,-146.50896
3800000000,-4.3500619,-38.507908,-73.789093,142.12384,-74.687462,161.52786,-16.653412,92.539131
3805000000,-12.718724,-84.575752,-78.458321,-65.28627,-78.8302,-58.539829,-18.656073,-110.59148
3810000000,-8.4440861,-42.063305,-75.819427,108.09692,-76.4319,105.62442,-15.303894,112.36492
3815000000,-5.5856338,-70.477127,-73.764587,-109.4669,-74.205559,-106.04591,-24.355053,-36.107533
3820000000,-18.190935,57.672977,-76.747955,-146.515,-75.598068,-135.50403,-13.854649,151.80408
3825000000,-2.0677443,-53.200848,-77.196075,114.75186,-78.293663,132.4424,-16.539972,20.989128
3830000000,-13.682853,-135.35197,-67.949074,176.24069,-68.167053,172.9557,-13.053454,167.42126
3835000000,-5.7957859,-31.34396,-76.325836,-30.366179,-75.604507,-38.54459,-21.158688,52.910919
3840000000,-4.9107838,-100.66668,-75.241982,165.55711,-74.673645,179.76028,-23.047268,-167.31758
3845000000,-8.1028795,21.340603,-73.503494,99.032219,-73.708244,97.775398,-15.643879,116.37234
3850000000,-1.3201586,-78.364838,-80.512871,-49.129997,-77.52388,-45.676262,-26.248781,-55.008556
3855000000,-20.214108,-143.49025,-72.101242,-121.04367,-72.180092,-127.62334,-15.179259,122.6889
3860000000,-4.5664191,-44.171391,-71.294968,177.55299,-72.796844,159.00998,-26.013981,69.372879
3865000000,-8.3535156,-114.21224,-70.218079,88.109306,-70.847214,99.085991,-23.966343,147.02507
3870000000,-4.736845,-25.837067,-74.312149,-14.696308,-72.719551,-18.900373,-15.307619,107.89841
3875000000,-3.9779036,-104.09284,-78.907829,129.33124,-77.478432,111.33341,-27.464718,-102.72371
3880000000,-16.675287,-38.831863,-67.487396,70.591171,-66.658073,73.89286,-14.90522,118.14526
3885000000,-4.7964149,-58.422585,-69.42836,-60.213657,-68.003967,-63.459644,-21.821211,32.545635
3890000000,-8.6525059,-109.03543,-64.462677,-79.295982,-64.062782,-82.795235,-15.568969,166.10837
3895000000,-5.5827575,-52.229931,-67.168831,167.99452,-66.765373,160.95181,-12.683702,37.535717
3900000000,-6.4461846,-97.585472,-68.267555,108.30357,-68.418694,102.12141,-13.414589,175.60667
3905000000,-11.924674,-61.960743,-68.596207,-109.79415,-69.091179,-110.11118,-14.298592,51.08812
3910000000,-4.8532777,-59.145985,-69.614746,115.84532,-68.481804,121.20338,-21.327772,168.52542
3915000000,-7.7579083,-121.49479,-65.020309,81.364189,-65.35997,82.785988,-15.415499,92.433228
3920000000,-5.2013235,-46.47543,-62.80225,-17.657351,-62.676041,-19.685335,-29.969952,-15.21105
3925000000,-5.1216426,-115.67001,-63.159885,-87.123787,-63.219845,-87.40554,-15.565617,108.67669
3930000000,-10.996047,-8.8223734,-62.468826,153.37239,-61.968262,152.53366,-31.13797,37.872475
3935000000,-0.94083303,-91.108948,-83.032127,94.639786,-78.193237,98.286674,-24.305662,64.122009
3940000000,-27.88566,73.036598,-76.759148,-129.04652,-77.688904,-90.495804,-14.61039,96.611954
3945000000,-2.9224594,-86.610512,-70.525139,165.53729,-73.203972,154.33646,-23.450106,-49.740814
3950000000,-13.630418,-104.36272,-63.083511,74.137917,-62.661423,76.649475,-12.987079,94.053535
3955000000,-5.7987475,-59.118061,-61.758095,-18.000389,-61.702629,-15.616165,-24.807262,-41.909122
3960000000,-3.83885,-121.04514,-63.443821,-125.95608,-64.370743,-129.4807,-18.063219,105.88366
3965000000,-11.80779,-38.178947,-67.799881,153.64481,-68.180305,160.15669,-18.199694,43.525658
3970000000,-4.0950971,-102.7083,-68.777534,36.313244,-68.287048,35.231617,-20.35173,-178.62973
3975000000,-10.871028,-110.02711,-69.903877,-55.811394,-70.602692,-57.880211,-13.405817,44.141247
3980000000,-4.6589108,-71.290085,-64.097359,-174.30347,-64.635445,179.224,-23.799662,177.24785
3985000000,-5.7659631,-133.22662,-62.552116,50.15934,-62.403191,51.314087,-17.160385,66.058319
3990000000,-11.08118,-64.513741,-67.019165,-28.321819,-67.396233,-27.394663,-24.977901,-9.003355
3995000000,-4.4589438,-94.567848,-60.956909,-145.49904,-61.264023,-142.06627,-16.841173,117.07681
4000000000,-7.3140025,-141.54047,-65.215714,124.24512,-64.368149,119.3229,-19.114012,-5.8917027
END

