!CSV A.01.01
!Keysight Technologies,N5247A,US56070710,A.10.64.09
!Date: Friday, November 18, 2022 21:38:58
!Source: Standard

BEGIN CH1_DATA
Freq(Hz),S33(DB),S33(DEG),S34(DB),S34(DEG),S43(DB),S43(DEG),S44(DB),S44(DEG)
3000000000,-3.1564572,-74.750435,-75.224556,38.483616,-74.528465,25.692242,-14.94104,-128.47987
3005000000,-5.7557726,-91.317223,-76.60833,-89.582191,-76.056641,-89.350456,-17.567501,-145.64717
3010000000,-5.703156,-69.497871,-81.064644,68.753738,-85.42543,67.679207,-14.844491,-151.56136
3015000000,-3.5632999,-89.166382,-82.50396,66.492256,-80.249397,53.190811,-15.455274,-138.14749
3020000000,-7.4355297,-72.730675,-74.625992,-65.726234,-75.500992,-67.261147,-17.314156,-155.58122
3025000000,-3.5948277,-80.115425,-88.909653,-103.94015,-91.03093,-128.79189,-13.454557,-153.14604
3030000000,-5.7533813,-92.390396,-79.832336,166.69986,-80.016968,153.28687,-16.578619,-143.67046
3035000000,-5.077179,-68.216286,-85.192726,-51.25843,-83.277893,-60.463684,-14.385674,-166.63828
3040000000,-4.0468349,-99.352585,-85.971764,-59.774181,-84.828491,-1.2228066,-14.872261,-157.386
3045000000,-6.6371098,-67.439194,-84.304619,177.29636,-81.542877,174.25937,-16.618383,-162.80917
3050000000,-3.125092,-84.704292,-84.395126,-150.65849,-87.483803,-140.16328,-14.346412,-179.39645
3055000000,-7.5322604,-100.16892,-85.139404,117.93877,-91.216034,79.855171,-14.636106,-153.90988
3060000000,-3.5137615,-70.925041,-81.486481,-138.6653,-84.714523,-144.88974,-15.66736,174.20964
3065000000,-5.4070969,-106.62883,-81.047951,157.46637,-82.447418,156.82611,-14.132988,-168.43829
3070000000,-5.2166915,-69.971489,-77.75811,50.894634,-78.883728,58.693756,-15.55722,-175.21751
3075000000,-3.8374677,-94.309586,-76.938919,-87.157936,-78.883789,-84.843369,-16.777597,172.3587
3080000000,-8.7667665,-87.272926,-80.884888,174.46713,-80.891113,160.97824,-13.824141,-179.24657
3085000000,-2.6107559,-84.28878,-83.033562,115.72148,-81.846298,86.86998,-18.91498,-177.47058
3090000000,-7.7889071,-104.96461,-79.361023,39.488056,-83.573891,46.681107,-14.026279,165.80621
3095000000,-4.5318327,-76.744011,-81.2117,-28.817904,-79.916451,-50.105991,-15.803703,-176.2487
3100000000,-4.4961958,-99.60186,-81.963036,148.59424,-80.041252,-177.24681,-16.521679,162.87384
3105000000,-8.0241184,-80.616951,-79.99826,61.148716,-78.226898,75.332932,-15.102049,167.79314
3110000000,-3.3160892,-93.643127,-76.928246,-58.731678,-75.535416,-57.44743,-16.617323,174.66054
3115000000,-7.5575414,-97.534615,-79.025444,-160.40115,-80.388367,-164.26727,-17.819248,158.21558
3120000000,-5.1809611,-81.509911,-73.165123,92.711182,-74.836884,83.359833,-14.656292,166.78668
3125000000,-4.5299125,-107.14825,-77.818909,13.052701,-78.702927,-14.197158,-18.222351,169.57542
3130000000,-7.8464642,-71.258812,-79.891487,-130.5416,-81.141441,-118.05199,-15.926307,152.0076
3135000000,-3.0697639,-103.47769,-74.960815,163.29042,-74.851067,159.40247,-15.907213,165.15074
3140000000,-9.5595665,-97.771263,-76.99453,24.399349,-76.943771,12.468287,-19.847893,161.28923
3145000000,-3.8040557,-82.638748,-75.759468,-47.279903,-79.471176,-45.118736,-15.283887,147.28409
3150000000,-6.1165652,-123.59399,-74.711044,-168.01515,-74.016678,-174.57854,-17.478085,178.7012
3155000000,-5.7023311,-70.838463,-73.891548,22.132177,-74.382164,16.364071,-18.038807,144.56367
3160000000,-4.2627201,-112.66611,-73.702126,-16.196457,-73.593941,-13.836493,-16.169245,154.26544
3165000000,-9.4848824,-89.256355,-75.530029,-164.93201,-74.019615,-157.57104,-18.408016,165.93541
3170000000,-3.8000829,-95.046005,-79.121254,136.46446,-79.299011,149.02017,-18.241724,134.45056
3175000000,-9.1489344,-119.0577,-75.451881,20.514633,-74.592186,23.134333,-16.057653,162.96689
3180000000,-4.715704,-83.672203,-71.863235,-96.962769,-73.031654,-100.79901,-19.62031,154.02972
3185000000,-6.6471891,-119.2452,-76.921829,137.89133,-75.721001,136.36111,-17.450867,150.2993
3190000000,-8.398941,-85.665367,-75.690125,15.789919,-74.058487,2.9611256,-16.170053,160.97919
3195000000,-4.2030234,-104.45431,-74.173744,-92.46859,-75.905373,-91.181099,-23.179134,154.46872
3200000000,-11.373499,-115.15246,-73.477715,164.7099,-73.528687,162.54648,-15.350253,137.89781
3205000000,-5.2552381,-93.736374,-74.483643,84.781738,-74.300896,84.688492,-19.30023,-177.78468
3210000000,-7.2526417,-117.96371,-75.696098,11.562866,-76.8041,-4.5319705,-17.874292,126.84139
3215000000,-8.9576797,-84.484192,-84.240974,-114.70197,-84.228973,-96.578125,-16.572832,158.68929
3220000000,-4.6420989,-116.17063,-83.137657,116.35313,-80.822571,101.78193,-18.511639,154.29578
3225000000,-13.369911,-99.102707,-83.123085,-141.53806,-85.107246,-159.14592,-18.877623,135.78064
3230000000,-4.9363427,-98.504982,-82.564331,172.42953,-88.235382,-134.19385,-15.297779,156.0616
3235000000,-8.9068861,-137.62585,-77.244972,94.62587,-76.960129,67.536201,-24.606665,155.08142
3240000000,-6.8103046,-71.512077,-82.825127,21.846384,-83.441391,13.103434,-15.264538,140.44676
3245000000,-4.6032038,-137.48891,-84.504463,-130.36746,-84.25528,-89.638275,-18.394114,166.30843
3250000000,-12.869776,-64.742477,-91.973366,-22.865883,-96.801231,129.16702,-19.309874,138.62201
3255000000,-5.000567,-111.58779,-82.308777,-126.74341,-82.000397,-91.418655,-15.926546,137.54533
3260000000,-13.074682,-132.7724,-93.027229,70.83567,-83.871452,177.26857,-17.661982,164.63318
3265000000,-5.880847,-90.204643,-86.375458,167.10898,-81.398346,106.1328,-18.357046,122.57684
3270000000,-9.1840076,-151.01663,-79.173546,-22.612328,-79.253578,-25.843971,-15.491694,156.00864
3275000000,-8.8715239,-76.407112,-78.685661,-20.756729,-81.719086,-32.907246,-20.284222,145.24315
3280000000,-6.3719974,-124.90723,-78.252258,-172.09143,-79.579826,-172.17168,-16.091782,132.63603
3285000000,-19.229179,-122.64251,-90.003029,89.874107,-83.20488,42.815975,-16.231205,147.6328
3290000000,-5.5662837,-96.959808,-83.000046,-101.68,-87.78141,-52.398628,-20.05756,136.39903
3295000000,-11.716331,-154.0612,-76.607796,165.16266,-76.037384,172.9816,-15.125323,127.74699
3300000000,-10.836136,-76.162025,-80.043045,12.369159,-81.310143,11.697567,-17.676527,152.37654
3305000000,-6.4398746,-126.53027,-74.326454,-32.003517,-73.843788,-38.510979,-17.62925,127.91692
3310000000,-31.575607,-54.432285,-76.515617,-140.67567,-74.826103,-146.22223,-15.482273,131.48474
3315000000,-5.8715377,-105.60004,-77.942291,137.44009,-76.624069,108.57554,-17.459869,148.51546
3320000000,-16.634212,-170.28226,-76.263794,41.410686,-77.894798,36.406158,-16.622087,103.72569
3325000000,-8.7955856,-80.227257,-76.314133,-71.478745,-76.818939,-83.679016,-15.34408,144.39626
3330000000,-7.9068642,-149.80318,-78.335533,166.25401,-77.080673,167.27383,-17.831062,111.63863
3335000000,-12.967885,-22.48802,-76.268402,57.672077,-76.061234,44.993088,-17.171768,128.67769
3340000000,-6.4525743,-123.93707,-76.711143,-83.565979,-76.818649,-82.101662,-14.542507,123.36741
3345000000,-32.986217,119.51853,-74.84668,-163.75461,-74.507721,-170.34375,-21.594101,132.66034
3350000000,-8.4130936,-90.6278,-74.135979,94.598892,-72.832664,95.483032,-13.385147,107.66059
3355000000,-12.086549,-178.526,-75.494553,4.4903946,-74.616196,10.222338,-19.783588,143.35378
3360000000,-10.114064,-57.963505,-70.765739,-107.98595,-72.260422,-96.910561,-16.306656,100.39831
3365000000,-10.946895,-139.24689,-73.316689,139.92415,-73.658203,134.33873,-16.9055,113.13127
3370000000,-21.245831,-48.323895,-71.885307,50.172062,-72.277115,41.402115,-17.182726,121.35611
3375000000,-10.224393,-99.296608,-69.637733,-73.382156,-70.22023,-74.407104,-17.165434,89.119888
3380000000,-17.911074,163.60806,-71.906662,-176.71931,-72.479065,-178.99907,-14.729142,119.52137
3385000000,-10.494945,-66.500237,-70.352066,79.75032,-70.066566,78.509422,-22.106087,87.12236
3390000000,-13.12576,-138.13147,-69.254021,-34.868484,-69.686836,-39.344975,-15.382484,98.034325
3395000000,-18.967592,-6.9017959,-71.701256,-131.46864,-71.525398,-133.93372,-18.670071,113.27792
3400000000,-8.7799244,-102.46956,-69.008759,136.03928,-69.617706,135.09792,-20.662128,92.943527
3405000000,-19.811142,81.5448,-68.004875,8.3992243,-67.624222,8.4385157,-15.544511,87.525131
3410000000,-9.6171961,-74.511978,-70.025948,-95.313324,-69.110817,-87.694496,-19.91256,120.61179
3415000000,-17.774126,-166.6618,-67.749214,161.86003,-68.084343,162.2207,-17.258928,66.27018
3420000000,-10.819743,-24.369087,-71.001335,58.412659,-69.931984,56.924686,-17.750748,106.05657
3425000000,-10.095965,-131.47095,-67.981018,-52.16227,-68.665733,-56.039181,-21.755909,88.5112
3430000000,-11.75926,13.015409,-69.285225,-156.15468,-68.345787,-153.38637,-19.024723,68.82946
3435000000,-9.5610313,-94.899033,-67.318199,104.59734,-67.482376,102.28204,-17.00667,110.53294
3440000000,-19.459103,90.101974,-68.502121,-4.4465218,-68.402283,-3.4823873,-24.688972,34.399609
3445000000,-7.9119353,-44.191776,-67.837296,-106.62276,-66.79258,-106.18427,-16.10895,83.216736
3450000000,-14.801723,-162.36938,-67.177856,150.43683,-66.962959,149.84471,-25.587431,92.66584
3455000000,-10.350426,-18.10667,-67.614044,47.129761,-67.334702,43.68029,-22.293818,67.501198
3460000000,-13.572886,-97.510254,-68.126289,-67.109039,-68.876953,-63.150414,-18.197556,72.900764
3465000000,-16.426996,24.706291,-67.80191,-175.12379,-67.599693,-172.7002,-23.073168,144.31615
3470000000,-8.4296961,-58.825703,-67.828804,77.132301,-67.87381,79.711823,-18.230204,38.246544
3475000000,-25.547943,144.77104,-66.381737,-13.456115,-67.138496,-18.885536,-19.342018,122.89408
3480000000,-9.8078909,-28.216221,-66.792061,-126.08846,-65.949013,-130.2572,-24.378115,14.640541
3485000000,-13.759972,-88.40493,-66.341324,136.87387,-66.139763,139.35503,-21.697144,75.357178
3490000000,-14.105605,29.941162,-63.914825,36.843987,-64.141541,36.946293,-21.502451,103.73525
3495000000,-7.3715763,-61.477631,-65.549698,-64.15274,-65.880447,-64.819763,-30.344643,-26.442429
3500000000,-23.540472,95.611565,-64.735825,-164.30719,-65.28421,-166.07574,-16.699232,80.863365
3505000000,-8.0675154,-33.364082,-64.886032,80.440422,-65.581367,79.646957,-27.378489,-173.56841
3510000000,-15.199478,-120.0025,-65.196617,-23.794716,-65.630737,-23.923111,-21.566906,57.372463
3515000000,-7.3992877,5.0518756,-64.332764,-132.38091,-64.19426,-129.3259,-25.943298,104.81873
3520000000,-7.885428,-96.768845,-63.754562,116.909,-63.483356,118.10477,-27.51108,138.52737
3525000000,-11.919901,35.79528,-63.598354,14.361514,-63.4655,15.557442,-22.907307,32.924068
3530000000,-6.7738733,-52.243473,-62.643726,-82.724792,-62.745926,-85.275749,-18.323965,122.65457
3535000000,-27.256563,-155.88094,-62.135689,174.2251,-61.951542,174.44646,-32.324913,-45.702576
3540000000,-6.8613238,-24.562344,-62.129192,74.875404,-62.394768,71.022652,-19.575987,86.692139
3545000000,-15.36697,-100.74518,-61.975067,-33.108143,-61.891064,-33.492893,-25.58761,150.94348
3550000000,-9.0079432,-8.4343834,-62.100952,-143.32219,-61.867558,-144.55182,-34.770149,94.195107
3555000000,-9.4499483,-64.334457,-61.963703,111.00998,-62.343037,112.34634,-21.584738,88.574387
3560000000,-21.794603,-0.12267171,-60.720142,1.6894062,-60.552155,1.9996293,-22.897638,161.24216
3565000000,-7.4204693,-34.848675,-60.323772,-106.30527,-60.329353,-107.10439,-24.165932,43.553177
3570000000,-15.678683,-72.874107,-59.652328,145.20663,-59.734303,145.33038,-21.217964,117.10235
3575000000,-9.7137794,-11.72064,-59.113274,40.619106,-58.917782,42.100979,-27.179087,123.42054
3580000000,-8.4571009,-69.454254,-59.399494,-65.778076,-59.406494,-67.125374,-28.867208,56.827457
3585000000,-14.281307,21.85597,-59.17244,-175.65939,-58.991283,-174.56226,-17.41243,116.97704
3590000000,-6.4807358,-51.106415,-59.713654,80.526527,-59.636932,77.483337,-27.541128,-100.49493
3595000000,-24.321669,-58.630199,-59.057404,-24.999273,-58.965981,-24.370338,-17.323114,82.793182
3600000000,-6.8462186,-16.645847,-59.344952,-129.67908,-58.973328,-133.2318,-25.159065,155.96582
3605000000,-8.7443523,-88.756676,-58.849712,117.98022,-59.035419,117.4847,-28.240471,84.096626
3610000000,-9.2453413,15.932736,-58.19873,14.163116,-57.868496,14.243702,-21.145683,69.587494
3615000000,-6.7512541,-68.332413,-57.899025,-94.281601,-58.176422,-92.739571,-19.863277,148.4584
3620000000,-17.313417,26.734938,-58.328159,156.61302,-58.149384,158.50665,-22.00511,23.332027
3625000000,-4.9858589,-35.828629,-58.020451,53.617527,-57.934086,52.242901,-17.044762,116.23473
3630000000,-15.289583,-116.40183,-58.313816,-55.604481,-58.291264,-57.863239,-43.342602,-116.11673
3635000000,-6.6355066,-15.115677,-58.746529,-164.11395,-58.551029,-166.97298,-21.422642,68.028366
3640000000,-10.516397,-72.414604,-58.975285,88.737411,-58.578239,87.855385,-20.579967,118.44534
3645000000,-11.913533,-1.6356213,-58.901012,-17.410992,-58.428303,-19.104197,-33.986893,-100.65908
3650000000,-6.3101234,-46.551655,-58.936649,-129.77533,-58.696018,-130.15082,-18.20941,69.897438
3655000000,-19.564655,-68.453529,-59.345318,129.81279,-59.533905,129.1277,-24.44606,154.36375
3660000000,-6.9377909,-23.808636,-58.875851,21.117332,-58.984608,21.432997,-24.409019,42.728935
3665000000,-11.236583,-62.175499,-60.412441,-88.39756,-60.618912,-89.139435,-23.00721,80.638885
3670000000,-11.617147,-3.5386398,-60.64278,171.12607,-60.515232,173.73184,-22.854824,137.50409
3675000000,-5.7847333,-52.605389,-60.363338,61.647015,-60.470291,60.426765,-23.643522,-5.3306389
3680000000,-23.58069,19.47752,-61.302975,-48.532524,-61.290825,-46.742958,-17.600756,112.30168
3685000000,-5.056756,-31.399076,-61.572708,-148.43582,-61.58424,-149.25322,-25.637321,-85.719498
3690000000,-13.393988,-86.810143,-61.185928,106.62313,-61.373062,104.04285,-20.350418,58.67873
3695000000,-6.9334731,1.640957,-61.857601,3.3502922,-62.055923,0.48705444,-26.528212,118.15509
3700000000,-6.5662279,-76.891197,-62.535202,-105.1357,-62.948009,-107.1889,-35.458771,-106.09918
3705000000,-10.291028,22.297218,-62.707088,156.67932,-62.554901,153.88235,-20.216246,51.388977
3710000000,-5.2411785,-51.703808,-62.937408,46.178047,-62.666847,44.887817,-21.223324,163.46925
3715000000,-20.156275,-39.549427,-62.962364,-55.893059,-63.140381,-57.286549,-23.468285,1.2129967
3720000000,-5.3361063,-20.238537,-63.206478,-157.27747,-63.183277,-156.6026,-21.352942,115.04136
3725000000,-12.2848,-85.507172,-63.260544,93.962051,-63.384167,95.651169,-32.38628,-139.08504
3730000000,-5.9707489,-5.0582929,-63.71735,-10.20285,-63.12682,-10.326443,-27.88752,2.8830738
3735000000,-7.2778869,-65.242584,-64.666695,-109.01919,-64.350746,-113.26815,-19.910053,113.40096
3740000000,-14.806352,4.8236938,-63.99337,143.49239,-64.471855,141.68272,-23.351892,-121.04087
3745000000,-4.8890414,-28.922314,-65.643433,37.32637,-64.711372,33.697369,-22.18799,60.540604
3750000000,-13.149871,-66.867348,-64.554138,-63.245983,-65.000122,-64.621933,-23.564323,159.81163
3755000000,-7.6080437,-12.569592,-64.164963,-169.88512,-64.201576,-170.78041,-33.738934,-128.68661
3760000000,-6.6746306,-52.219975,-66.072174,89.271942,-65.342697,89.287598,-24.64246,67.592819
3765000000,-13.736744,1.5307573,-65.840408,-6.7183599,-64.776726,-8.0652962,-19.671581,-179.71544
3770000000,-4.5413604,-37.097378,-64.943314,-117.47523,-64.352348,-121.58808,-26.327841,-13.846382
3775000000,-15.835378,-42.400799,-65.506317,140.8831,-65.384644,139.80736,-19.845682,120.327
3780000000,-5.2845173,-17.956961,-65.088875,38.952717,-65.14315,38.991241,-24.298784,-164.54779
3785000000,-8.1040936,-72.344566,-65.304413,-67.35183,-66.153465,-67.827179,-29.15678,23.710854
3790000000,-6.8431182,12.540468,-65.81955,-167.69281,-65.603233,-172.05992,-17.905457,128.32106
3795000000,-4.2385192,-59.977482,-66.006508,85.048744,-66.119499,82.137886,-22.184071,-129.72818
3800000000,-12.69206,9.0717058,-65.69915,-17.73094,-65.315926,-18.650505,-22.101101,84.169914
3805000000,-4.0841203,-34.505062,-66.311172,-126.33524,-65.197182,-127.50957,-19.946764,160.71648
3810000000,-14.098289,-62.652588,-66.038689,136.74138,-65.807556,138.15166,-35.422543,146.96814
3815000000,-3.5167761,-13.977938,-65.68605,24.234364,-65.471039,28.637775,-23.133783,100.74258
3820000000,-7.8155904,-72.472778,-67.115196,-72.048958,-66.833023,-65.519897,-18.750954,156.38289
3825000000,-7.5567288,-2.5528212,-66.170181,-176.89635,-65.178352,-176.14954,-33.227295,-15.693455
3830000000,-4.6807208,-39.919289,-66.610283,83.92717,-66.173538,81.387314,-15.321074,118.99617
3835000000,-12.353729,-39.028393,-66.22467,-16.591061,-65.553551,-15.299656,-20.008179,-154.75926
3840000000,-3.844291,-25.954386,-66.05365,-123.20206,-66.242615,-120.35252,-22.874355,84.627953
3845000000,-9.0572042,-61.359756,-66.946732,126.46005,-66.44809,124.45726,-19.699915,122.62766
3850000000,-6.1472697,-8.4258337,-66.633461,27.288237,-66.901718,28.891136,-22.270136,-175.20122
3855000000,-3.868891,-50.595886,-66.414795,-74.471069,-66.348251,-83.83197,-19.660578,61.646305
3860000000,-12.501987,-3.9968209,-67.60424,174.67886,-67.085167,172.52115,-16.214785,148.62807
3865000000,-2.4686322,-35.154293,-67.052216,84.159927,-66.487473,81.544411,-30.353491,49.130825
3870000000,-10.554651,-65.226028,-66.060486,-31.876057,-65.880203,-32.380169,-18.042461,109.73476
3875000000,-4.0979261,-10.736361,-67.197884,-132.19542,-66.568893,-128.95055,-19.21703,138.31221
3880000000,-4.5398917,-64.302895,-65.862946,127.82244,-66.186424,123.51184,-34.354191,44.137024
3885000000,-7.0906258,7.1661739,-66.390564,17.868896,-65.961288,18.084261,-15.792146,102.49056
3890000000,-1.9084146,-54.606129,-67.31723,-78.779495,-66.86805,-87.832344,-21.121782,-175.64656
3895000000,-15.67602,-25.518337,-66.627838,167.50725,-66.394234,171.40601,-19.074732,55.652294
3900000000,-1.57763,-25.460659,-68.163803,75.785202,-66.310356,69.608284,-16.283655,118.4092
3905000000,-7.024312,-76.010849,-66.316086,-39.482895,-66.567131,-42.318176,-29.535606,174.30838
3910000000,-3.8745792,-6.3984976,-66.517372,-147.65143,-65.600456,-144.73117,-16.480627,66.219398
3915000000,-3.4027724,-62.852604,-65.956909,115.7894,-66.182419,113.6768,-17.119471,140.93013
3920000000,-9.2256699,-14.141433,-66.716583,11.009268,-65.974861,7.2734222,-25.641735,23.756786
3925000000,-1.9718416,-35.991711,-67.918144,-89.334976,-67.638466,-96.547325,-16.763266,96.488548
3930000000,-8.5980587,-66.089607,-67.444145,163.34421,-67.223801,167.17032,-21.922007,130.33966
3935000000,-3.7609749,-22.701586,-68.04686,63.93185,-67.139603,60.403126,-24.299023,24.149204
3940000000,-4.0709004,-52.888931,-66.959496,-44.332203,-67.422974,-44.056122,-14.81162,88.389366
3945000000,-9.0428934,-27.578382,-66.931572,-150.86722,-66.234451,-154.8792,-25.737707,-165.99907
3950000000,-0.96696824,-41.456322,-65.670525,102.71831,-66.380653,99.608147,-15.791209,52.278164
3955000000,-11.664433,-79.821297,-66.577904,6.5405679,-66.608955,-0.12121388,-18.535814,133.8456
3960000000,-1.930549,-20.702061,-67.853264,-106.16218,-67.34549,-105.77961,-26.113928,42.768364
3965000000,-3.502465,-70.540482,-68.961014,146.33469,-68.827538,151.73451,-18.643549,69.163994
3970000000,-6.3693175,-11.488897,-67.08831,53.277561,-67.494164,56.1082,-20.835173,123.19752
3975000000,-1.2678263,-60.877701,-68.213623,-53.084682,-67.965073,-51.321949,-23.064774,-5.2179909
3980000000,-12.303114,-19.124508,-70.208694,-159.37822,-70.176178,-160.14951,-16.187729,80.535179
3985000000,-0.81837267,-37.873341,-67.693893,104.73864,-68.168129,93.918121,-29.707766,152.26962
3990000000,-5.9105844,-78.887726,-67.967033,-17.633766,-67.825424,-17.122452,-21.983568,34.814781
3995000000,-3.4607763,-21.288746,-69.344162,-109.36643,-67.967316,-116.01699,-17.887768,82.248032
4000000000,-3.5396602,-69.667198,-66.527328,141.71843,-66.509827,138.94247,-30.533377,-158.19325
END

