!CSV A.01.01
!Keysight Technologies,N5247A,US56070710,A.10.64.09
!Date: Sunday, November 20, 2022 21:01:47
!Source: Standard

BEGIN CH1_DATA
Freq(Hz),S33(DB),S33(DEG),S34(DB),S34(DEG),S43(DB),S43(DEG),S44(DB),S44(DEG)
3000000000,-3.5281479,-107.44312,-60.727707,84.674538,-60.42519,99.766197,-18.10223,-159.12685
3005000000,-4.932445,-93.260849,-54.557297,147.35608,-56.114315,149.68056,-18.453699,-169.55638
3010000000,-4.0305834,-101.61055,-53.519077,72.301949,-51.831997,86.957047,-17.109713,-174.25923
3015000000,-4.2897987,-105.46433,-52.935295,23.700754,-51.308411,29.414797,-16.420151,-175.48235
3020000000,-3.4049895,-92.657455,-53.313477,-49.259422,-52.279854,-41.971416,-17.590681,178.49611
3025000000,-5.19981,-110.65984,-64.935287,-81.075798,-58.89991,-118.4676,-16.221554,179.28641
3030000000,-3.641232,-96.42421,-66.583595,-17.655493,-68.015327,-0.84125262,-16.69235,176.01523
3035000000,-4.4775901,-98.700699,-56.248207,-92.926636,-56.135403,-108.83466,-16.725374,174.76089
3040000000,-4.8661404,-110.54735,-51.948433,-153.41426,-52.290699,-159.01685,-16.081509,169.09395
3045000000,-2.9232364,-99.948021,-53.144558,132.62724,-51.321892,134.87363,-16.646965,159.82907
3050000000,-5.5501184,-102.72238,-55.755322,61.361431,-57.728031,59.316654,-14.868115,159.24506
3055000000,-4.1256161,-107.90559,-64.1931,-40.918659,-69.154259,-127.62267,-16.055731,158.13501
3060000000,-3.5923083,-99.257492,-55.986221,93.589333,-56.541187,113.63295,-16.017147,161.22652
3065000000,-5.7450104,-106.78189,-54.750713,33.774151,-56.805317,44.362267,-15.390781,155.1414
3070000000,-3.1718202,-106.86594,-53.80547,-41.973446,-54.231079,-33.097481,-16.283737,158.22849
3075000000,-5.2722178,-102.7106,-58.165939,-93.575111,-55.169533,-106.15543,-15.435332,147.35587
3080000000,-5.2177973,-109.47552,-60.246517,174.21756,-71.253448,-139.30389,-15.876864,145.89027
3085000000,-2.9247091,-109.96952,-62.563843,-42.073452,-75.173302,-98.350792,-16.018524,144.18787
3090000000,-6.1065235,-100.00813,-58.491249,-146.30646,-55.511066,-131.0175,-15.669978,137.15469
3095000000,-3.3515813,-114.5468,-54.582401,141.84064,-54.231495,140.87314,-15.704458,147.20689
3100000000,-4.7776241,-108.58806,-55.259472,73.467743,-54.946327,58.030682,-15.172597,139.47215
3105000000,-4.8569007,-105.50982,-58.952011,11.61278,-59.711037,37.695927,-16.129749,139.98495
3110000000,-4.119741,-122.98711,-71.684212,-53.830402,-68.123955,-23.223293,-15.516739,137.23744
3115000000,-4.0728097,-97.487877,-62.844349,41.136459,-59.898739,44.863754,-16.737648,127.21272
3120000000,-5.1573715,-120.57094,-54.0938,-30.657574,-58.226704,-18.768236,-15.740179,131.04654
3125000000,-4.0605659,-114.06242,-57.266521,-88.786819,-55.580959,-81.828705,-16.346561,129.97028
3130000000,-4.8888664,-107.06441,-58.025002,-172.17984,-58.62608,-164.11002,-16.29789,129.95497
3135000000,-5.8013039,-123.03532,-62.302345,-12.440789,-64.699562,22.303347,-15.13238,128.3811
3140000000,-3.8917489,-112.53922,-68.719978,-106.62869,-64.918259,-148.17474,-16.542459,126.98186
3145000000,-5.1012778,-110.28883,-57.555061,173.19247,-56.881897,175.32019,-15.461472,125.23283
3150000000,-5.1321688,-128.43445,-56.349869,103.12254,-56.807617,84.419418,-16.965715,129.00627
3155000000,-4.0313282,-109.66805,-55.027157,28.139656,-56.49511,32.993034,-17.46505,123.07751
3160000000,-6.8347459,-118.44958,-67.92878,-79.760468,-64.061066,-95.764267,-16.525913,120.61683
3165000000,-4.6383986,-121.13322,-64.094406,97.490814,-65.254753,123.3605,-16.356501,123.37197
3170000000,-4.6256828,-116.01479,-58.179325,0.082559057,-56.116459,10.810802,-15.956986,119.47362
3175000000,-6.6284232,-117.21456,-59.472282,-78.668518,-55.462887,-63.144115,-16.201405,119.6525
3180000000,-3.9994035,-122.61908,-55.715935,-136.63745,-55.160606,-128.69614,-16.463634,127.46564
3185000000,-7.5079174,-112.28561,-56.80946,130.88142,-54.649342,147.42549,-17.507286,121.45732
3190000000,-5.2419744,-126.38786,-63.71669,107.12903,-75.938438,-170.00012,-17.299925,130.55992
3195000000,-5.2576218,-123.03594,-62.589146,-170.98289,-57.841831,-168.83476,-18.409103,114.6555
3200000000,-7.0993872,-114.05322,-56.741707,139.15234,-56.653385,131.3288,-16.340372,116.12181
3205000000,-4.7866397,-139.72545,-54.575798,39.888176,-54.721867,49.170849,-16.86998,113.57707
3210000000,-5.5829353,-110.55082,-61.550262,-33.303463,-58.561382,-46.629837,-17.530094,110.10531
3215000000,-7.2746859,-130.80042,-67.826012,135.43237,-66.73571,-133.47275,-15.700666,115.04078
3220000000,-6.1733499,-129.71385,-66.426964,21.943453,-60.344837,61.098816,-16.799644,120.82176
3225000000,-5.1708035,-114.61604,-56.331875,-38.366253,-57.898197,-37.803337,-16.435301,120.78138
3230000000,-8.4030132,-140.98427,-54.532898,-131.0695,-57.787033,-114.31064,-16.741716,116.88412
3235000000,-5.3759274,-128.3172,-58.113384,156.78792,-55.941101,140.08716,-17.10091,118.50902
3240000000,-8.3752069,-116.67625,-67.378151,119.19388,-62.802345,67.459251,-16.257137,110.43841
3245000000,-6.7725253,-139.79604,-63.073917,-132.74538,-61.546825,-124.47968,-17.467028,120.17019
3250000000,-5.7614498,-122.82232,-55.928814,158.39264,-57.253277,160.3112,-16.379875,109.56944
3255000000,-8.9604874,-131.75183,-55.988831,64.088448,-57.498222,54.703732,-15.912326,111.82471
3260000000,-7.4055467,-136.73392,-54.634895,0.38866407,-55.295242,23.014048,-15.39766,119.87981
3265000000,-6.355505,-122.56267,-65.46994,-110.77413,-67.199188,-108.00699,-16.146992,109.62057
3270000000,-11.900846,-135.8792,-61.637424,79.769554,-61.817383,25.094072,-16.10157,118.4179
3275000000,-5.1749811,-135.60608,-58.149315,-26.552685,-60.702141,-15.502803,-16.309496,106.99792
3280000000,-9.9942846,-127.85714,-58.991837,-117.30636,-58.887844,-116.49751,-16.587109,112.46686
3285000000,-8.7232122,-134.10428,-59.610397,167.44196,-59.825714,-143.21188,-15.126262,109.80335
3290000000,-6.5868382,-137.67021,-63.133068,83.504761,-59.418308,104.49928,-16.028133,106.222
3295000000,-10.753778,-105.15506,-65.759125,-32.777687,-71.137703,-142.35735,-14.743486,107.64641
3300000000,-8.3780508,-153.21182,-61.228729,106.36251,-63.893333,127.56895,-14.735138,105.80086
3305000000,-7.7662258,-122.94064,-55.764103,86.406494,-58.155704,70.84436,-15.864495,112.39722
3310000000,-11.452262,-133.69885,-56.847832,-3.2989049,-56.338051,-11.425291,-14.961029,105.80619
3315000000,-9.6701298,-150.6573,-55.711208,-55.319088,-59.1884,-64.995163,-16.39669,107.26115
3320000000,-8.5040007,-118.41454,-67.170685,-143.46887,-70.85939,2.0042908,-14.71072,102.61837
3325000000,-12.771514,-138.30551,-59.189991,-41.055523,-57.509567,-69.216637,-15.21401,93.336639
3330000000,-8.3245268,-136.44131,-55.947392,-96.809593,-57.027184,-95.912399,-14.505582,104.19813
3335000000,-11.778034,-111.97602,-53.423969,-172.57846,-54.937332,-162.84785,-14.826361,92.185127
3340000000,-12.760621,-160.40352,-59.725029,135.73912,-57.125568,141.88156,-14.541782,102.59242
3345000000,-9.3281326,-125.79076,-67.736389,28.406254,-60.47784,56.123493,-15.692917,98.321793
3350000000,-13.458288,-111.34673,-61.490047,127.79045,-60.333435,169.75694,-15.186365,90.816299
3355000000,-11.865507,-158.50797,-58.063709,115.72971,-54.369648,104.83195,-14.710388,98.303764
3360000000,-8.7430038,-121.01322,-53.909798,20.06616,-54.397263,13.540292,-16.154226,80.828331
3365000000,-22.46347,-103.62834,-59.602085,-55.493771,-55.91938,-43.311752,-14.561909,83.798195
3370000000,-11.106578,-140.14265,-59.878857,-107.14877,-64.810112,-75.275253,-14.001276,86.756706
3375000000,-14.058766,-116.8432,-60.294357,-51.49604,-68.534889,-45.317543,-15.665728,87.747215
3380000000,-14.553545,-116.66071,-58.37112,-82.845802,-55.545284,-79.388969,-14.488346,87.581963
3385000000,-10.670886,-153.80486,-55.02602,-162.70415,-54.171616,-156.30121,-16.169188,85.18438
3390000000,-11.921869,-78.881363,-58.763966,107.12122,-57.659172,118.36266,-14.668757,75.681366
3395000000,-13.314017,-168.9055,-62.193707,46.086773,-62.730503,27.083344,-15.167568,81.23423
3400000000,-12.127615,-102.66144,-77.031937,-174.95805,-70.524666,137.41029,-16.99379,77.578484
3405000000,-12.534758,-94.653473,-58.109619,77.771118,-57.256561,79.220352,-14.792803,68.321251
3410000000,-17.95632,-170.15625,-55.171612,16.175945,-55.482124,25.912086,-15.608294,78.713722
3415000000,-9.9686213,-95.308159,-59.453194,-59.697842,-61.918606,-58.229984,-15.827285,73.790306
3420000000,-27.944561,-89.884384,-59.719891,-103.24099,-64.21447,-86.734474,-15.362994,72.601166
3425000000,-14.893084,-119.53943,-63.653847,-155.42734,-65.372467,-82.250359,-16.43996,76.961121
3430000000,-10.699819,-90.901451,-57.69812,-119.46569,-60.014687,-99.319466,-17.389631,64.111427
3435000000,-24.448048,-132.01823,-57.790585,-153.62943,-59.218552,-174.36206,-16.818136,74.412994
3440000000,-11.949951,-99.398216,-58.577423,111.33688,-62.339844,119.19549,-17.91563,59.117393
3445000000,-14.412043,-75.838531,-58.413231,96.747841,-62.584934,75.55117,-16.230785,62.381962
3450000000,-22.652494,-49.359276,-66.70182,78.161331,-64.212372,68.32811,-16.057745,72.02552
3455000000,-9.2790165,-108.48877,-72.74424,43.930637,-65.6353,72.103409,-18.716637,63.801331
3460000000,-16.697903,-34.441986,-62.286591,-7.0892043,-63.085651,24.849525,-16.313139,62.973095
3465000000,-13.462419,-100.84049,-58.860371,-50.384525,-57.977657,-33.337574,-18.907164,75.400139
3470000000,-13.890616,-93.735405,-59.318192,-114.58168,-61.525444,-137.14586,-19.343102,67.505272
3475000000,-11.672204,-45.288006,-57.436943,-131.96075,-57.842888,-122.52929,-18.671757,63.12553
3480000000,-12.40043,-125.08638,-63.580833,-164.63461,-63.99176,-173.80571,-20.311953,65.285576
3485000000,-9.940155,-48.689747,-61.984905,-157.44002,-59.384624,-161.82809,-17.492537,55.642685
3490000000,-17.126501,-104.3664,-61.207836,145.80673,-55.771503,135.64926,-19.601482,68.36274
3495000000,-15.06127,-85.155876,-58.498684,79.134026,-57.197571,75.786064,-19.248686,60.6772
3500000000,-9.3994598,-63.998936,-62.100723,39.307747,-61.78286,86.46125,-18.676592,64.889526
3505000000,-24.798729,-100.82537,-62.04818,17.094543,-74.917908,42.416691,-18.547636,88.292976
3510000000,-8.9302711,-79.696304,-56.137188,2.4641292,-61.631947,15.20639,-21.619946,66.774155
3515000000,-13.857689,-53.464649,-60.735542,-1.7837265,-56.708328,-18.51194,-21.239346,71.260445
3520000000,-15.842746,-98.001755,-62.346359,-65.62056,-59.825813,-67.592949,-19.628603,66.344437
3525000000,-8.9502869,-75.897247,-58.792694,-130.60602,-62.35524,-130.86415,-21.595129,61.190014
3530000000,-14.020797,-48.644451,-63.120224,-157.65318,-64.597275,-154.00702,-18.089876,76.341789
3535000000,-11.709259,-85.503899,-61.366882,158.74402,-59.086437,-177.7422,-20.926029,78.649338
3540000000,-9.1673355,-77.936752,-57.786926,142.1881,-61.656204,120.18958,-18.844578,82.934006
3545000000,-15.740779,-20.612566,-59.213989,79.260185,-55.048325,81.073082,-19.606525,79.661034
3550000000,-8.2691603,-92.71199,-62.038643,62.044209,-61.865334,32.312794,-21.944195,88.235062
3555000000,-13.72591,-44.630859,-70.789314,-21.362383,-62.369217,-49.306091,-19.641901,72.499763
3560000000,-10.022954,-75.148903,-58.697674,-29.281553,-65.86232,26.705393,-21.319073,81.495773
3565000000,-10.986221,-103.81126,-60.788723,-43.132584,-59.320316,-52.072811,-20.905607,85.774185
3570000000,-7.9509468,-41.361477,-58.235779,-96.892067,-58.883194,-103.3772,-19.10396,61.207401
3575000000,-11.470857,-122.56791,-57.25359,173.17319,-58.544262,-171.36375,-17.895136,91.947655
3580000000,-8.5883236,-55.86805,-65.829773,-113.84315,-65.245636,-164.95308,-20.028494,70.50399
3585000000,-10.049225,-68.72139,-66.408005,165.12378,-60.730915,-178.04636,-19.431431,89.177559
3590000000,-14.008043,-106.72182,-58.223869,130.51405,-60.808384,120.63565,-20.54361,81.996902
3595000000,-6.3587265,-62.692757,-64.568893,60.337925,-60.892658,62.775047,-20.462816,68.937462
3600000000,-17.657463,-84.758369,-55.53857,-7.9778104,-59.162075,41.835384,-18.533331,87.600357
3605000000,-8.6388769,-70.450279,-62.593094,-47.681774,-60.800087,-44.81958,-20.424595,67.674454
3610000000,-9.0049353,-64.654793,-62.516388,1.242044,-70.526215,-129.03758,-18.738304,68.874153
3615000000,-16.483257,-75.222343,-63.533657,-37.380074,-59.455517,-19.98769,-17.830587,78.100876
3620000000,-6.9857259,-78.860443,-61.486431,-126.61285,-61.169868,-124.11743,-21.382622,79.076424
3625000000,-12.015462,-60.715199,-60.022552,167.39322,-64.712669,-153.80182,-17.648226,78.628998
3630000000,-13.885049,-64.259659,-72.388153,163.80399,-61.796886,-152.62431,-21.659945,82.555786
3635000000,-5.712976,-86.028633,-64.59407,122.20164,-66.29805,96.034035,-19.082117,70.739372
3640000000,-12.323165,-29.014723,-64.556206,112.24321,-69.807533,-166.80016,-19.366949,73.032516
3645000000,-7.098464,-85.636909,-60.912601,69.80658,-61.638172,40.503723,-21.767153,73.797768
3650000000,-11.851649,-66.858658,-57.628334,36.939339,-60.473293,38.170742,-19.840054,54.960567
3655000000,-8.4121418,-44.712975,-73.357452,-83.598969,-63.107716,-2.7146351,-19.013342,69.35778
3660000000,-7.875699,-104.59526,-61.67065,-13.123371,-56.4688,-41.069351,-19.739845,73.37606
3665000000,-7.456367,-34.576645,-60.415047,-28.278969,-61.004704,-53.116421,-19.689207,62.529373
3670000000,-9.2437229,-102.81638,-61.970818,-103.86644,-67.002876,-125.32014,-19.098999,78.68058
3675000000,-10.987742,-66.203033,-58.500435,-153.46404,-63.357594,166.87216,-21.608,58.731068
3680000000,-6.7088785,-60.605129,-67.420166,87.035828,-65.876274,107.16144,-20.313919,74.043442
3685000000,-13.391519,-100.31091,-62.988014,157.92342,-66.950417,144.15758,-23.598421,66.148949
3690000000,-6.3616624,-59.384048,-63.571636,55.201027,-63.416943,104.79718,-21.04888,54.886055
3695000000,-11.509389,-66.868256,-64.57682,69.006638,-68.112839,15.324824,-18.511972,64.690331
3700000000,-11.116549,-82.808418,-61.823357,2.4890695,-69.518707,17.619881,-22.940119,75.096519
3705000000,-6.0692625,-60.77169,-59.297211,21.018866,-64.307625,-24.429495,-19.7745,58.054462
3710000000,-16.894449,-81.897018,-58.152229,-54.341892,-61.623344,-54.212379,-21.720617,74.067802
3715000000,-6.3747683,-66.076347,-61.958218,-55.319138,-67.394417,-66.956116,-21.619265,79.438286
3720000000,-8.1291676,-69.587997,-62.46056,-115.40983,-64.044693,-123.00217,-22.83675,74.166603
3725000000,-15.951136,-43.441921,-69.007088,136.01485,-72.400322,94.010597,-23.834225,78.367325
3730000000,-4.5407691,-77.088867,-59.946159,172.04503,-61.897503,162.52565,-21.296778,55.030609
3735000000,-14.279037,-32.950691,-62.519016,86.750946,-57.962887,148.77058,-20.993078,75.826668
3740000000,-7.0917559,-66.537689,-65.828308,66.917824,-67.446014,35.314377,-22.029598,91.603851
3745000000,-7.4304724,-82.234825,-62.186489,7.1447225,-64.690331,29.584387,-25.436472,63.464069
3750000000,-8.7465858,-28.925369,-63.728184,-38.573997,-63.621574,-61.543877,-20.110384,91.349838
3755000000,-6.0392098,-103.53094,-63.254833,-37.118351,-63.752254,-6.0221868,-23.672636,81.917038
3760000000,-6.5295649,-37.104916,-62.224983,-64.462845,-59.488632,-48.378212,-23.163368,93.331398
3765000000,-7.400775,-72.976486,-60.486599,-104.43343,-62.846916,-130.9213,-21.66926,72.483742
3770000000,-9.7957106,-84.531067,-68.878502,108.82545,-66.840042,-142.56581,-25.52487,81.60775
3775000000,-4.9497414,-47.167767,-64.334534,153.70265,-66.730354,136.32666,-19.271622,80.550781
3780000000,-10.991569,-106.24304,-68.77877,62.989994,-62.404984,67.505913,-22.658371,99.765472
3785000000,-5.9854431,-55.759495,-57.294262,144.44868,-65.222443,133.79716,-20.45623,88.382057
3790000000,-6.8810606,-60.697769,-63.603371,43.983067,-61.318913,69.565697,-19.011284,87.564423
3795000000,-10.927032,-87.089394,-59.826473,-3.113853,-60.369873,5.3884754,-20.683409,116.69305
3800000000,-4.4834499,-58.753529,-62.309731,-123.47201,-68.10849,-78.752472,-21.862795,85.779198
3805000000,-10.455052,-69.86087,-66.67218,-21.904922,-63.197456,32.555347,-22.538216,90.87722
3810000000,-8.671217,-66.358879,-66.061737,105.63922,-76.117874,-41.071243,-18.835533,96.190887
3815000000,-3.9818287,-67.275658,-59.979061,-128.59624,-60.299549,-86.427101,-21.381844,84.121994
3820000000,-16.063293,-47.210434,-59.669865,160.71887,-61.36412,167.7166,-18.189981,97.833817
3825000000,-3.3504939,-70.768921,-63.707924,62.315411,-62.836697,72.112289,-19.073574,81.66053
3830000000,-10.512977,-67.765984,-69.860352,-85.966965,-67.23555,-31.095963,-17.649147,104.22128
3835000000,-6.7926583,-52.559551,-79.712738,-40.065384,-63.174713,137.88695,-18.959282,108.16847
3840000000,-4.4290471,-87.640549,-67.726418,58.768116,-76.666138,29.324305,-24.011568,96.636658
3845000000,-7.2253866,-28.742018,-60.62455,1.9092627,-65.716003,-29.727951,-17.568981,88.842262
3850000000,-4.4878311,-86.81221,-68.428482,-77.468864,-61.701054,-89.296227,-20.178812,90.555099
3855000000,-7.2305436,-64.876793,-64.411507,173.29787,-66.016724,106.34136,-18.874804,81.130043
3860000000,-5.5476017,-52.722607,-88.563774,31.554771,-70.730721,42.977936,-17.26532,76.462677
3865000000,-6.221374,-93.44043,-60.341217,-70.503624,-66.607727,-77.300697,-17.718868,91.030823
3870000000,-4.5088124,-47.659451,-59.075516,-147.68127,-67.322159,-160.86678,-16.886194,88.147926
3875000000,-5.8376279,-82.444847,-61.854473,55.307732,-58.624916,86.223511,-18.261524,92.405418
3880000000,-7.4650164,-73.525223,-67.919235,-45.43565,-63.871284,-4.5161819,-18.292423,92.18808
3885000000,-3.64763,-56.322037,-71.956345,167.37378,-68.825714,178.57362,-17.488588,74.378006
3890000000,-7.3517399,-96.216698,-64.904953,123.73991,-61.62183,171.33588,-18.680117,95.000648
3895000000,-4.3299088,-60.392757,-72.073418,31.510542,-68.734795,46.668541,-17.905571,57.180046
3900000000,-4.4082909,-71.171318,-73.234688,-21.529037,-63.969666,-120.65069,-16.095133,83.716843
3905000000,-9.4549627,-75.425781,-69.165459,-160.99081,-65.580696,134.72882,-17.765364,78.195099
3910000000,-2.3067577,-66.76136,-68.397743,33.522057,-67.024864,64.412308,-17.261911,76.44503
3915000000,-9.8138304,-80.017273,-70.113167,-19.99176,-65.005798,-70.011383,-16.620281,78.825539
3920000000,-3.9344177,-65.721031,-66.196129,-165.30196,-65.007095,-130.65063,-18.08123,74.694984
3925000000,-4.662724,-78.079155,-62.821537,129.69885,-66.431702,125.65414,-17.460583,71.51474
3930000000,-8.1787729,-51.165184,-65.164268,5.5438981,-63.806522,23.448809,-18.485615,74.171432
3935000000,-2.0840902,-87.141785,-65.268272,-71.454834,-85.170471,-121.08402,-18.580477,63.795135
3940000000,-7.5785489,-44.764839,-67.96608,-168.11055,-61.686539,170.46262,-15.704657,65.025719
3945000000,-4.0454826,-83.094589,-68.635185,-5.9752913,-67.868279,47.957214,-18.046474,71.76461
3950000000,-4.2669425,-77.559052,-66.802467,-134.3903,-73.222565,9.4285841,-16.191214,65.38829
3955000000,-5.1638947,-55.065342,-64.895157,-92.152069,-75.555878,-79.321899,-18.9415,71.34584
3960000000,-4.3584161,-96.131012,-84.204987,164.3644,-63.67868,100.11442,-17.468699,65.89003
3965000000,-4.6115336,-63.950775,-65.634476,-39.437321,-73.379303,132.39595,-19.143934,65.293007
3970000000,-5.329401,-74.423325,-72.557625,100.13331,-72.3937,-60.295094,-18.394236,65.803307
3975000000,-4.0555334,-93.38813,-66.983116,151.07646,-67.842033,-173.97688,-17.672281,56.490395
3980000000,-3.4112473,-58.509312,-63.89352,44.642666,-69.25499,-34.987148,-18.810543,56.362698
3985000000,-5.3281059,-95.169342,-62.141518,-5.7329574,-67.623009,-104.46986,-16.792526,60.890305
3990000000,-4.6402173,-74.209251,-64.83992,-104.40382,-70.673477,-123.17225,-19.856983,55.486423
3995000000,-3.3642893,-74.724937,-66.862419,174.97771,-72.756638,97.154427,-17.939827,67.808411
4000000000,-7.0280509,-102.60555,-63.829102,-0.29985842,-67.272202,39.662075,-20.06192,54.688717
END

