!CSV A.01.01
!Keysight Technologies,N5247A,US56070710,A.10.64.09
!Date: Saturday, November 19, 2022 23:45:49
!Source: Standard

BEGIN CH1_DATA
Freq(Hz),S33(DB),S33(DEG),S34(DB),S34(DEG),S43(DB),S43(DEG),S44(DB),S44(DEG)
3000000000,-11.688443,-176.08963,-65.155037,-145.14697,-65.256805,-142.50095,-18.114357,-163.92204
3005000000,-11.858468,84.747322,-65.283394,125.94994,-66.220253,127.94061,-17.540363,-156.76648
3010000000,-15.171041,124.60103,-71.847267,-15.30706,-70.390244,-22.562563,-15.376323,-171.02477
3015000000,-9.8511181,164.06248,-68.609261,-149.63365,-69.45607,-146.87674,-16.020184,-157.1452
3020000000,-14.311852,51.224804,-67.258423,76.490204,-67.914154,87.682014,-16.365175,-178.43027
3025000000,-8.0123291,141.60484,-65.919441,-15.507991,-65.568825,-16.451956,-14.720153,-164.15781
3030000000,-20.595179,90.110214,-61.449898,-102.08723,-62.309132,-103.22555,-18.566584,176.83701
3035000000,-14.59471,73.561562,-61.935356,163.85857,-62.456512,164.56085,-14.115768,-175.94403
3040000000,-6.9062443,143.86099,-61.496906,73.292427,-61.879982,70.538811,-18.377951,172.67781
3045000000,-24.216143,44.934746,-60.659473,-14.081139,-60.69017,-14.786071,-15.662756,171.8073
3050000000,-11.177588,100.10075,-61.247898,-106.70487,-61.243484,-108.75011,-14.336112,164.6302
3055000000,-8.2679205,126.95396,-62.827667,157.71394,-62.86047,157.41176,-16.163794,-177.54655
3060000000,-17.277954,-10.466914,-64.621246,79.010483,-64.961685,74.77977,-14.814771,155.979
3065000000,-5.5865045,115.586,-65.897369,-22.061657,-65.282661,-17.68873,-15.793892,-177.30171
3070000000,-22.521044,156.3656,-71.282402,-139.08293,-71.792503,-144.0843,-16.796169,151.34441
3075000000,-11.803886,90.238342,-82.468605,67.92762,-79.797913,97.072708,-16.334805,161.42047
3080000000,-5.9238901,103.87209,-77.725883,-78.583473,-78.532364,-68.573471,-16.348459,153.3302
3085000000,-14.531447,-130.58899,-66.028419,-167.81306,-65.867645,-168.47583,-17.077997,149.62358
3090000000,-5.3937588,82.954727,-65.295074,84.588799,-65.402847,83.250961,-13.86698,146.86566
3095000000,-15.212151,156.8501,-62.476635,11.258901,-62.98595,13.866623,-17.937374,166.1097
3100000000,-11.359842,107.96837,-62.609093,-85.777931,-63.913479,-84.94519,-14.643177,138.32693
3105000000,-7.9716086,72.235741,-61.724117,-176.19614,-61.879124,179.94092,-16.869328,167.36871
3110000000,-8.854763,148.17567,-63.492832,88.934662,-63.099106,92.079704,-17.184292,129.80067
3115000000,-10.962889,34.021179,-64.289185,9.9366951,-64.325569,8.9507036,-17.252287,152.63748
3120000000,-7.6915131,105.41957,-63.916992,-81.974525,-65.002251,-79.513107,-16.568729,127.62164
3125000000,-12.157076,143.7397,-67.221107,-171.59413,-66.446556,-162.6796,-17.492491,146.09009
3130000000,-6.7709665,48.269337,-68.828613,109.26259,-68.297997,102.66759,-15.387445,125.09312
3135000000,-8.6214228,123.0825,-77.989365,13.366056,-74.80619,9.4949684,-17.683914,159.41522
3140000000,-12.903229,82.247749,-83.972893,-1.9287558,-78.862389,2.0650716,-15.872711,118.28767
3145000000,-10.814487,46.015163,-71.205818,24.154482,-70.412231,17.820284,-17.35615,150.72153
3150000000,-5.4331856,122.62266,-70.143288,-60.066036,-70.755699,-59.183384,-18.171247,135.47583
3155000000,-10.518284,25.764732,-68.004059,-165.78578,-68.033386,-164.19276,-19.299385,121.26438
3160000000,-7.6177287,95.248955,-65.499985,108.37718,-65.293976,104.33548,-16.400599,135.59303
3165000000,-10.334888,78.937981,-66.317986,13.647435,-66.154663,20.450481,-19.095907,113.65939
3170000000,-19.191128,75.122375,-64.687225,-52.834507,-65.143349,-53.353115,-15.498565,133.5439
3175000000,-6.1871338,88.403969,-64.640152,-156.50566,-65.518356,-163.42451,-18.098234,136.18011
3180000000,-20.910114,39.332928,-67.867897,126.21072,-66.784149,115.27927,-17.876736,125.82075
3185000000,-6.2740712,63.715374,-68.495087,27.873056,-69.137489,22.45665,-17.023695,147.47055
3190000000,-9.867959,80.981682,-71.551605,-49.782497,-72.142632,-50.093655,-20.543516,133.5269
3195000000,-19.52424,62.589558,-78.665695,-94.726212,-77.801064,-104.62512,-21.958538,118.7187
3200000000,-5.621222,60.518856,-74.390114,167.24472,-74.315041,168.48781,-15.75845,120.90414
3205000000,-9.4351902,115.28243,-83.823166,30.991016,-89.539627,25.382835,-25.540615,130.40167
3210000000,-9.2711811,27.548227,-78.774544,122.72558,-77.235916,118.44228,-13.984023,114.49303
3215000000,-7.7799578,64.692581,-73.632881,32.330967,-72.702217,21.380951,-21.7547,135.90501
3220000000,-13.406433,96.107063,-74.491661,-62.520355,-73.04731,-50.127712,-15.593883,126.59585
3225000000,-8.1683054,36.441063,-72.172241,-117.8599,-73.120735,-145.28825,-18.930597,126.66392
3230000000,-8.7900391,76.550423,-72.773987,138.82314,-72.457207,144.66592,-18.026426,143.01282
3235000000,-11.704988,83.174637,-72.879265,73.741753,-73.256134,74.756577,-20.25876,106.75195
3240000000,-4.4359074,26.060097,-74.694084,-4.898232,-72.399002,-18.535904,-16.766535,125.97273
3245000000,-9.5321083,119.14454,-75.388039,-72.126266,-72.435486,-65.871765,-20.086067,134.2435
3250000000,-9.1083717,27.446226,-71.135506,-167.83311,-70.033424,-165.02863,-17.202492,100.6133
3255000000,-8.7261772,59.638145,-75.282455,140.05157,-75.924721,139.34413,-17.474085,135.52388
3260000000,-8.8066416,72.845543,-71.900787,36.263069,-70.638954,43.61684,-16.077185,108.25967
3265000000,-8.5770273,1.1336228,-76.595177,-27.996307,-78.405052,-23.225296,-18.402199,134.77562
3270000000,-4.9980116,73.046959,-72.416992,-105.88182,-73.890732,-105.4444,-16.672974,120.74476
3275000000,-15.910048,-12.561079,-77.742928,130.66463,-76.314583,157.74255,-20.893909,106.12737
3280000000,-8.7445822,57.822292,-89.434883,122.34959,-94.585884,19.668127,-14.568173,117.52654
3285000000,-6.3111205,54.557934,-90.591492,-175.23491,-90.345215,-127.89942,-20.715269,116.1153
3290000000,-15.433778,-29.630447,-80.947853,111.00109,-80.956551,114.05864,-15.789234,107.46861
3295000000,-5.7180943,35.182297,-71.4692,-1.2000726,-71.162483,4.1418381,-15.629051,114.42892
3300000000,-10.484076,68.288567,-68.429199,-79.322647,-69.773277,-73.206192,-17.626158,120.99727
3305000000,-11.912088,-4.3060126,-66.264893,179.04134,-67.592659,177.02298,-16.442183,109.68647
3310000000,-5.3316393,46.089886,-63.536312,98.102661,-63.848843,96.487068,-16.99218,122.3063
3315000000,-16.576881,53.397396,-63.896931,-4.0927267,-63.446712,-4.7118177,-19.89702,96.475586
3320000000,-8.1516933,17.905508,-63.765465,-91.502701,-63.920708,-90.274712,-15.154605,103.74311
3325000000,-8.1465387,21.737589,-63.592266,170.32527,-63.997784,167.3598,-19.456499,100.17407
3330000000,-21.553125,150.89194,-63.830971,67.803009,-63.64167,71.157509,-13.953774,98.114693
3335000000,-2.5512357,15.884741,-66.278473,-38.17207,-65.214249,-38.944477,-18.143042,102.8028
3340000000,-14.765548,70.48661,-65.738647,-159.50945,-66.270363,-156.75948,-14.564538,107.70232
3345000000,-9.4978886,9.4985666,-65.082069,83.6399,-66.059601,86.407913,-19.38666,89.982605
3350000000,-6.4769478,1.9245489,-63.967979,-30.635172,-65.220467,-34.151371,-14.993183,107.68931
3355000000,-9.3961973,79.117416,-60.714363,-138.0768,-61.964813,-142.44794,-21.860535,74.867699
3360000000,-7.9783936,-30.694939,-59.452095,115.15866,-59.380035,114.79613,-15.066998,92.661629
3365000000,-5.3266044,38.215534,-57.805309,18.078281,-58.020794,15.81025,-18.700527,69.868874
3370000000,-12.221303,-5.8908811,-56.651997,-87.490814,-56.972328,-85.784386,-15.001099,88.64476
3375000000,-7.1270361,-1.8486326,-56.171219,169.82961,-56.460407,170.56041,-16.768206,82.860977
3380000000,-9.9034061,45.314945,-56.380928,74.439781,-56.362988,72.973724,-17.268055,94.584908
3385000000,-15.849012,17.438929,-56.198254,-33.26939,-55.969536,-31.37207,-17.788912,71.727226
3390000000,-4.9357395,-5.6498256,-57.25935,-144.9707,-57.088955,-144.63782,-17.201193,84.695786
3395000000,-11.110085,66.571098,-57.421921,103.84049,-57.722218,106.6745,-18.432001,73.560837
3400000000,-6.9932275,-36.378075,-57.583752,-14.557949,-57.698879,-14.320354,-17.245789,70.765671
3405000000,-8.6370039,8.0944901,-56.560322,-125.4527,-56.977745,-128.67407,-19.179903,67.49884
3410000000,-11.586907,35.232693,-56.301987,120.32557,-56.101612,123.08307,-15.550906,68.77784
3415000000,-7.1807804,-25.132586,-55.288403,15.62025,-55.389149,14.161913,-19.068405,69.07103
3420000000,-6.608099,24.844511,-54.726234,-88.187431,-54.936882,-86.371246,-16.955908,83.725281
3425000000,-20.520412,-45.229965,-54.766567,169.5311,-54.781071,168.74982,-21.088526,47.176579
3430000000,-5.0857344,-13.682925,-54.853394,66.650505,-54.90229,67.765511,-17.684872,80.020805
3435000000,-19.117487,26.577221,-56.089703,-39.151718,-56.01025,-35.674431,-21.782734,43.420803
3440000000,-10.395414,-3.8131959,-56.761997,-137.18379,-56.770855,-138.59241,-20.710798,53.807899
3445000000,-5.6689005,-15.689575,-58.28112,114.67857,-58.454597,115.58873,-16.798677,52.61142
3450000000,-12.139383,25.768621,-58.893246,4.4540653,-59.179352,5.9788399,-22.28229,62.993504
3455000000,-8.3891087,-53.286495,-60.545948,-111.60596,-60.414059,-109.93277,-18.441591,56.66975
3460000000,-8.5715494,20.139774,-59.589367,134.94518,-59.533134,138.07942,-19.948738,68.238541
3465000000,-10.986929,-15.640146,-58.468445,31.413181,-58.619141,31.519384,-25.470314,62.951656
3470000000,-8.708272,-37.338493,-57.619583,-74.239761,-57.678547,-74.475342,-18.63134,58.83316
3475000000,-7.2244172,14.56063,-57.174507,-177.40393,-56.697342,-176.68855,-34.52354,95.187004
3480000000,-11.41025,-79.063843,-56.582901,83.187187,-56.596291,85.543259,-19.987125,41.241043
3485000000,-5.1023445,-10.491,-56.392685,-15.18193,-56.962322,-14.029593,-21.83992,37.466236
3490000000,-18.272327,41.142845,-57.040634,-115.21072,-56.863159,-115.78344,-22.353848,99.636772
3495000000,-8.8036032,-31.83346,-57.957001,141.80695,-58.115913,143.74319,-18.017336,14.881642
3500000000,-6.7486205,-19.49655,-58.609604,45.135033,-59.075409,44.914032,-18.219183,108.50652
3505000000,-20.477852,33.152325,-60.409702,-69.544189,-59.561054,-70.069931,-24.169107,17.119116
3510000000,-7.0192227,-52.396152,-59.706924,178.96628,-60.187233,179.83575,-22.482937,98.091957
3515000000,-7.2333035,11.087326,-60.355598,72.903221,-60.214603,71.887695,-28.416901,46.267536
3520000000,-16.23173,-96.101433,-58.875504,-39.835316,-59.791435,-39.273632,-26.903473,27.943596
3525000000,-7.306808,-22.715956,-58.634556,-144.39372,-58.809921,-147.0874,-20.564007,58.108013
3530000000,-8.8915987,-19.968357,-57.92421,104.56599,-58.27346,108.08595,-22.530836,87.063126
3535000000,-15.570415,-90.869255,-57.232376,6.654469,-57.488968,10.080223,-26.724184,45.362858
3540000000,-6.5336819,-30.949402,-57.455456,-97.629509,-57.348625,-96.570686,-18.00247,95.26696
3545000000,-11.979835,42.04174,-56.828495,163.50024,-56.768421,163.43126,-38.255863,-117.96104
3550000000,-5.5298858,-56.238396,-58.133251,60.046017,-57.820026,62.212116,-19.523708,83.907768
3555000000,-12.928598,14.764031,-58.078148,-47.304111,-58.269562,-48.874378,-49.541336,115.20468
3560000000,-10.522792,-39.794712,-58.455063,-152.84608,-58.592602,-151.38277,-22.83864,85.093636
3565000000,-12.363514,-94.101799,-59.257664,98.667625,-59.073223,94.494476,-25.205969,37.467125
3570000000,-4.9406657,0.36510777,-58.207569,-15.693632,-58.290356,-16.621437,-22.346991,89.371399
3575000000,-13.512131,-123.32877,-56.838482,-129.91621,-57.098736,-125.60606,-22.240133,61.76392
3580000000,-6.3419061,-35.447708,-56.78249,125.12233,-56.749435,125.12337,-21.986567,94.434586
3585000000,-12.078602,-19.197159,-55.893089,17.858692,-55.968601,18.413755,-22.899424,96.426125
3590000000,-13.907866,-115.23752,-55.656021,-87.109268,-55.583149,-87.296494,-31.296194,58.374149
3595000000,-5.7103248,-24.04833,-55.418304,169.53804,-55.664066,169.85364,-19.549515,83.243401
3600000000,-20.48814,-14.569644,-55.397919,60.098331,-55.57703,60.783649,-37.138119,111.03856
3605000000,-7.5990548,-61.801384,-56.79652,-46.215008,-56.355309,-45.778851,-21.056749,54.791283
3610000000,-8.9663191,-21.441536,-57.262131,-152.15414,-57.70586,-153.241,-22.097002,77.187111
3615000000,-26.293062,-154.48831,-57.816376,86.572304,-57.8144,86.704254,-23.600313,78.883789
3620000000,-8.0537405,-43.295708,-58.250938,-25.663498,-58.28817,-25.25252,-21.631742,66.511322
3625000000,-8.893383,-40.349434,-57.587696,-138.4185,-57.850323,-136.91795,-22.248081,95.610878
3630000000,-20.369799,89.28331,-57.253841,115.96169,-57.333374,117.20364,-27.905504,83.914978
3635000000,-3.9706061,-66.268723,-56.870216,7.0257201,-56.596359,6.4866238,-20.643394,53.247425
3640000000,-14.603478,34.735664,-56.598202,-92.647911,-56.483032,-91.445877,-22.994528,142.5591
3645000000,-6.7525635,-71.360756,-57.055161,167.22316,-56.887436,166.52939,-18.295263,9.9936676
3650000000,-15.972062,-25.261408,-57.265911,64.533195,-57.338028,61.668247,-19.735371,107.29596
3655000000,-6.8935561,-14.159826,-58.639748,-38.564331,-58.353569,-37.141918,-21.854103,18.495281
3660000000,-5.75389,-100.80002,-59.945705,-141.47874,-59.797104,-141.78088,-22.481274,91.541389
3665000000,-6.7362404,14.348605,-61.159939,109.02193,-60.836334,109.80899,-21.758633,59.708122
3670000000,-10.602089,-104.16001,-61.763378,-6.3142228,-61.346012,-4.2658291,-29.576227,120.92184
3675000000,-10.982304,-36.611931,-62.218746,-118.41077,-62.738663,-119.72941,-22.873386,45.487061
3680000000,-7.81423,-36.60651,-61.705784,126.4365,-61.899227,126.19476,-25.238247,121.96045
3685000000,-12.665207,-106.11594,-60.370605,23.998789,-60.456482,20.850327,-23.38842,-32.952206
3690000000,-7.2471218,-40.120655,-59.744286,-79.082191,-59.713165,-75.341217,-19.737749,67.801079
3695000000,-14.891726,-18.772982,-59.129524,174.50447,-59.095726,177.57071,-29.577351,-23.427307
3700000000,-10.303632,-99.984528,-59.709038,79.153976,-59.373085,78.885086,-21.956356,71.217407
3705000000,-4.7403378,-23.761578,-59.725487,-15.588202,-59.859913,-17.727282,-23.493353,29.564207
3710000000,-12.086705,-143.80011,-60.315784,-116.68195,-60.061771,-118.07465,-23.204155,135.17599
3715000000,-6.6506486,-44.012833,-61.383713,138.4256,-61.191429,144.16768,-19.963604,21.081539
3720000000,-8.7582006,-54.738216,-61.980999,38.973736,-62.579128,41.148285,-20.906952,156.75096
3725000000,-20.06811,140.33972,-64.070297,-70.583664,-63.376842,-75.291481,-21.782589,1.2802727
3730000000,-2.5289907,-53.020859,-64.509918,176.76358,-64.093498,-177.62494,-27.620274,90.896927
3735000000,-24.044802,122.51396,-63.914165,55.306324,-64.194839,49.233002,-24.300142,83.460236
3740000000,-8.5485125,-53.747784,-63.265728,-46.743874,-63.558784,-51.725704,-40.788284,38.238075
3745000000,-5.9036441,-80.955742,-61.845493,-152.06747,-61.627625,-154.12984,-22.863943,91.865463
3750000000,-9.5911951,30.308197,-61.606491,103.92071,-61.753468,100.639,-30.176134,157.21143
3755000000,-4.3223295,-108.83387,-60.847282,6.3790045,-61.049347,8.4342508,-29.814541,40.013138
3760000000,-6.5291109,-7.3806171,-60.747643,-87.947815,-61.069263,-90.88591,-22.159279,132.77928
3765000000,-6.5623479,-85.924522,-60.898342,172.69655,-60.668976,173.00885,-25.687296,-40.69017
3770000000,-9.9095144,-109.08128,-61.821075,73.694489,-62.668694,76.717659,-22.048519,99.955536
3775000000,-5.4162822,-17.64012,-62.890762,-28.553066,-63.163563,-25.849255,-25.985746,54.362835
3780000000,-9.6143913,-126.83479,-64.373306,-126.5931,-64.351227,-131.41127,-24.091022,148.39177
3785000000,-6.5084057,-54.046169,-67.511826,130.3541,-67.810196,128.70421,-18.898283,54.15163
3790000000,-8.8479853,-47.118298,-67.00312,5.2887883,-68.614258,15.541747,-17.510208,157.80533
3795000000,-6.9112477,-129.52112,-66.448257,-105.54378,-68.442619,-107.55079,-25.291302,37.146698
3800000000,-6.4629941,-28.85084,-65.494751,147.17644,-67.839577,155.87201,-20.310543,138.50058
3805000000,-9.3672686,-81.569511,-64.858215,43.792706,-65.673286,43.583015,-40.907528,58.572262
3810000000,-14.914549,-107.84399,-64.71904,-60.450394,-63.729904,-61.796658,-22.085451,86.908127
3815000000,-1.5762706,-60.403809,-63.359425,-150.79233,-63.38327,-143.27832,-23.787642,106.56404
3820000000,-7.7403488,149.92122,-62.755665,109.17836,-63.67112,112.24336,-23.520636,110.4967
3825000000,-1.7369671,-55.635284,-64.323814,20.377562,-64.531288,16.154278,-21.065144,67.719246
3830000000,-12.2381,-136.94508,-64.265335,-78.692215,-64.316628,-76.763397,-15.759658,127.79878
3835000000,-10.390447,-42.548874,-65.052086,-177.05707,-65.708054,-173.63576,-43.536041,-63.118919
3840000000,-2.645247,-96.98938,-66.99041,85.472656,-66.48278,86.344269,-18.505007,110.15869
3845000000,-14.763022,43.998398,-67.625145,-18.968046,-67.919807,-18.766113,-30.082216,92.057823
3850000000,-3.6059742,-89.686142,-68.765717,-134.87689,-71.172684,-137.85048,-24.024212,104.35662
3855000000,-9.6589432,-105.1898,-71.047745,110.47757,-71.600571,122.6488,-19.048086,67.19371
3860000000,-10.915632,-39.791004,-67.713585,-0.86908209,-69.019447,-3.4326892,-22.190361,133.4131
3865000000,-4.1695204,-102.31206,-69.334625,-112.81564,-68.974739,-113.90099,-16.120647,59.582123
3870000000,-11.183956,-57.864265,-67.89579,157.66113,-65.597748,157.77034,-17.77244,141.13203
3875000000,-7.8590469,-93.376114,-65.22007,59.771088,-65.551537,52.828972,-20.084801,62.286175
3880000000,-6.6323133,-125.99953,-64.001732,-43.310318,-64.642876,-39.63279,-22.460632,119.76301
3885000000,-6.0534148,-19.510296,-64.569603,-131.50119,-65.491623,-129.24872,-18.995674,81.193306
3890000000,-1.6027807,-121.73746,-65.05349,132.99889,-65.458511,136.80096,-37.443146,179.1752
3895000000,-15.951162,-63.413132,-66.265259,35.554245,-66.782936,41.157349,-15.126223,55.333771
3900000000,-4.3866782,-78.759933,-68.776245,-53.03426,-68.256523,-49.46019,-20.169405,124.88048
3905000000,-7.5896645,-148.87088,-68.957588,-146.83772,-68.776398,-156.48051,-18.223713,38.195839
3910000000,-3.7663927,-42.775715,-70.854507,81.706734,-71.815025,102.6942,-16.349764,105.07674
3915000000,-3.9302135,-144.11049,-75.284142,-23.082687,-73.231728,-16.334457,-23.519943,44.242672
3920000000,-7.7147841,-54.934673,-73.027252,-139.42709,-73.67453,-129.56271,-20.013687,95.944405
3925000000,-4.5768738,-106.73771,-71.413902,97.834923,-73.430138,110.93766,-19.351097,55.711166
3930000000,-17.02462,142.15814,-67.964645,7.1345968,-69.945824,8.8053722,-25.402283,149.47424
3935000000,-1.1523036,-91.69529,-66.610687,-94.852982,-68.431274,-92.318497,-14.243906,30.534962
3940000000,-31.171717,-176.65498,-67.221191,176.24867,-67.44503,174.56653,-19.141991,124.46587
3945000000,-4.880353,-118.79631,-66.586319,74.300827,-65.50914,79.495926,-17.14023,26.840765
3950000000,-6.1148491,-87.320572,-66.936523,-19.610743,-66.509163,-13.934695,-17.385616,85.016495
3955000000,-13.674773,-142.75218,-66.829681,-112.72272,-65.743408,-111.01631,-27.722544,91.889542
3960000000,-6.1178064,-106.86942,-65.810944,169.26955,-68.313614,174.84203,-18.551954,36.095421
3965000000,-8.5012245,-111.27976,-66.232224,60.864014,-67.293259,71.041977,-20.569572,100.4109
3970000000,-14.376178,-109.51922,-71.17701,-28.317883,-69.603806,-36.212948,-24.323061,7.1333704
3975000000,-1.5650574,-125.07883,-72.994942,-131.2016,-72.980019,-141.28766,-18.35708,35.882023
3980000000,-17.487045,-19.98999,-73.58271,114.29022,-71.683815,107.96487,-20.073557,93.915131
3985000000,-4.1573524,-122.02872,-72.507576,-24.09746,-69.905777,-23.789633,-19.319071,6.6738567
3990000000,-11.019304,-145.91075,-72.178101,-135.55835,-71.450516,-126.74081,-19.50536,87.804451
3995000000,-5.7308645,-71.444824,-70.149117,134.00652,-72.016953,137.31221,-23.084314,39.871593
4000000000,-1.2150443,-165.33408,-66.750984,33.282845,-66.229469,37.115631,-32.922825,12.073471
END

