!CSV A.01.01
!Keysight Technologies,N5247A,US56070710,A.10.64.09
!Date: Thursday, November 10, 2022 00:33:55
!Source: Standard

BEGIN CH1_DATA
Freq(Hz),S33(DB),S33(DEG),S34(DB),S34(DEG),S43(DB),S43(DEG),S44(DB),S44(DEG)
3000000000,2.6914613,20.346924,-59.964432,-129.8152,-59.234898,-134.28938,-16.025015,-134.90553
3005000000,3.2846611,-84.473434,-58.341137,-158.36282,-57.967037,-156.34341,-15.613236,-134.47363
3010000000,4.7323527,174.26082,-58.476051,114.25143,-58.685913,115.78833,-15.783849,-137.27122
3015000000,4.4231825,96.627441,-55.843185,67.08078,-55.2556,73.158318,-15.91208,-141.77213
3020000000,2.2497301,-15.798549,-56.773235,22.955553,-56.486107,15.911982,-15.551857,-142.16698
3025000000,3.7497468,-116.87212,-56.122173,-4.7711568,-56.150375,-1.6914439,-15.300547,-143.13605
3030000000,4.1484675,153.6218,-57.122604,-98.29306,-57.813278,-97.302658,-15.301171,-147.84131
3035000000,4.4846129,62.983837,-56.705898,-133.65987,-54.977825,-132.87134,-15.385331,-152.24579
3040000000,0.74847287,-42.757687,-61.697277,-166.94131,-62.417496,-170.15619,-15.369596,-156.42134
3045000000,4.4786468,-146.66911,-64.079865,143.90845,-63.871895,138.43448,-15.101973,-160.13255
3050000000,4.9404702,130.8584,-59.40871,13.250801,-59.293495,20.25351,-15.11147,-159.51283
3055000000,3.2276661,37.721848,-64.607712,46.719276,-63.645134,43.794571,-15.487867,-159.83238
3060000000,2.4268539,-70.768387,-60.307884,-87.857994,-60.238338,-87.760674,-15.312026,-165.60738
3065000000,4.8023343,-175.22749,-54.84174,-141.8293,-54.995441,-142.59882,-14.854111,-169.08649
3070000000,4.8955536,109.79642,-57.129364,170.02118,-56.642876,177.82507,-15.26259,-168.09108
3075000000,2.7693031,3.3082068,-58.905579,133.03314,-58.172688,128.09576,-15.925468,-171.09416
3080000000,2.55037,-103.51949,-55.766167,43.245888,-55.616798,46.459911,-15.928122,-174.89778
3085000000,4.0156441,162.36702,-61.081154,10.727401,-61.994469,9.5673723,-15.736665,-174.47069
3090000000,5.0695839,81.5905,-62.293121,1.6611272,-60.531029,6.2332644,-15.952461,-174.50322
3095000000,0.96116728,-24.225557,-61.233467,-120.05193,-61.114677,-127.62837,-15.960881,-179.29889
3100000000,3.6799402,-133.70436,-62.243385,160.61337,-62.749939,165.82324,-16.0137,176.99144
3105000000,4.9454007,138.64767,-59.297012,139.11337,-59.458065,147.10735,-16.22851,175.877
3110000000,3.9917498,53.891094,-56.883957,74.397598,-55.772423,71.253563,-16.468002,174.82327
3115000000,1.228837,-52.554073,-56.136986,-25.08032,-56.226906,-27.570845,-16.507011,174.88701
3120000000,4.3483982,-166.79124,-60.137341,-25.721962,-60.325436,-22.251036,-16.588551,175.4391
3125000000,4.6069016,119.00759,-60.291584,-113.26428,-60.366169,-108.32613,-16.568129,173.75031
3130000000,3.6335795,22.804285,-61.069408,-179.52859,-60.265762,177.69255,-16.869827,170.12712
3135000000,1.2683598,-85.210419,-65.865242,137.30118,-65.382828,134.94809,-17.404564,166.75645
3140000000,3.905766,170.24359,-58.983604,87.712563,-59.870434,83.896172,-17.653061,165.22281
3145000000,5.8720288,93.048775,-56.34116,7.3942389,-54.800179,12.424314,-17.5147,165.80487
3150000000,2.0995479,-5.0343709,-61.961338,-36.554256,-61.67197,-41.468632,-17.42325,166.65855
3155000000,2.7747869,-117.01229,-54.318069,-114.49818,-54.032524,-115.15922,-17.275036,166.25479
3160000000,4.6173148,146.70203,-57.95842,174.44865,-58.115582,178.34818,-17.217701,163.79898
3165000000,5.3050413,68.261841,-58.695633,89.17437,-57.576111,90.352837,-17.663528,161.9344
3170000000,1.4507399,-31.027996,-62.634983,78.632385,-63.007004,71.551292,-18.043703,162.17699
3175000000,3.5589349,-148.92613,-57.231712,4.4202247,-56.961449,1.2862253,-17.987846,164.71808
3180000000,5.0710697,127.97578,-56.296116,-42.826962,-56.712826,-36.100475,-18.069689,166.15306
3185000000,5.3496089,34.537762,-56.779804,-87.799965,-55.110821,-90.487,-18.297537,166.63881
3190000000,1.0522022,-64.942245,-54.586201,-157.40936,-54.773289,-156.51245,-18.300447,162.97812
3195000000,3.940691,177.88472,-56.361309,130.79436,-56.839527,127.90874,-18.41967,158.17508
3200000000,5.9959736,100.36847,-60.108551,100.89922,-58.887455,109.1667,-18.405087,156.47025
3205000000,3.129611,7.9923811,-61.499329,30.789984,-61.01799,21.135338,-18.704395,162.0717
3210000000,3.6071534,-94.298073,-66.358353,-76.474907,-65.846336,-74.683762,-18.868425,161.8902
3215000000,5.6506548,153.29254,-63.947437,-105.53848,-63.993942,-99.8396,-18.480127,156.93816
3220000000,7.770463,77.002647,-59.744854,-153.54666,-57.767021,-152.56708,-17.511295,157.73973
3225000000,3.8930507,-19.980255,-58.721451,152.60164,-59.046825,145.20596,-17.701622,161.32083
3230000000,4.6905384,-132.76529,-58.404099,101.72269,-58.099213,104.21526,-18.62513,157.97928
3235000000,5.6483936,133.49606,-58.485725,51.211826,-59.353939,55.013535,-18.594471,155.35036
3240000000,8.0799732,41.48597,-63.411274,-5.8963895,-60.804813,-12.010553,-17.901567,159.82346
3245000000,3.3908105,-47.689507,-71.662415,-89.191154,-71.974747,-80.481812,-17.987022,161.60956
3250000000,4.8494649,-171.16512,-63.941113,-113.40202,-64.448563,-121.87016,-18.196274,157.76881
3255000000,7.1214247,111.09206,-66.79425,121.25064,-66.259651,133.22775,-17.958595,155.06146
3260000000,6.3367367,11.294488,-64.797714,83.99575,-64.436462,68.991249,-17.883936,152.83728
3265000000,4.2994962,-79.321213,-63.550785,64.642044,-64.131889,66.605232,-17.858742,151.09416
3270000000,5.3378286,160.29659,-63.056213,-32.309727,-64.024773,-27.751616,-17.685957,154.24403
3275000000,8.3566446,84.118744,-63.174534,-54.517628,-60.962337,-45.846043,-17.679165,155.45096
3280000000,5.2089367,-14.12783,-63.890686,-123.49724,-64.064957,-133.25475,-17.575621,150.98326
3285000000,4.445672,-115.30351,-61.392323,168.74539,-61.999878,171.65144,-17.108824,148.38257
3290000000,5.3969259,138.47383,-67.776726,101.02612,-69.034187,100.29527,-17.165337,149.3019
3295000000,9.3152447,43.066227,-66.732117,87.319069,-64.39003,77.61705,-17.616095,146.409
3300000000,4.3916812,-40.22113,-64.159668,33.463509,-64.70015,31.931978,-17.600428,144.98206
3305000000,5.153831,-158.30341,-63.879124,-46.390224,-64.338394,-48.919476,-17.410393,146.57768
3310000000,7.1789336,115.88966,-59.904606,-110.48215,-59.431503,-99.055466,-17.449266,143.002
3315000000,7.7770848,18.102158,-60.485756,178.42102,-59.422844,164.92885,-16.925316,138.25803
3320000000,4.8636227,-61.807236,-59.521564,94.329605,-60.137791,98.000084,-16.926413,139.54144
3325000000,5.1516972,167.39334,-60.541149,11.875546,-60.992573,6.3403573,-17.660444,137.00343
3330000000,8.35501,89.108284,-64.986855,8.5773649,-63.311531,19.690126,-17.414476,130.4875
3335000000,6.4932394,-8.5019674,-60.383995,-31.88064,-60.933117,-43.218525,-16.585001,133.53377
3340000000,5.3932829,-100.50973,-57.52771,-93.888817,-56.89711,-93.482269,-16.971451,137.10596
3345000000,4.636138,147.7301,-57.442154,-133.18176,-58.956432,-129.65254,-17.569681,130.50098
3350000000,9.6998816,54.638599,-58.93187,146.99272,-55.938358,142.83737,-16.975698,123.81629
3355000000,5.0393496,-27.799103,-64.238388,46.642422,-64.580093,43.934212,-16.821663,125.28854
3360000000,5.1139903,-136.05234,-73.76963,-146.2153,-75.027794,-161.18268,-17.629787,125.16744
3365000000,6.7859421,125.29063,-70.346375,-139.82381,-69.870293,-130.82748,-17.829714,121.47287
3370000000,8.7806559,22.897812,-67.447014,-100.25179,-67.333336,-117.67207,-17.563892,118.87038
3375000000,5.6618052,-53.719677,-59.399281,-137.60992,-60.111088,-141.43307,-17.504562,116.89606
3380000000,3.8893332,-175.21327,-56.187088,136.40364,-56.387383,134.73486,-17.442549,114.49242
3385000000,6.7956176,100.02013,-57.985752,58.927574,-56.891094,69.11451,-17.671646,112.58144
3390000000,6.8819447,-0.29639989,-58.400032,23.06502,-58.510086,7.7044783,-18.243761,108.70737
3395000000,5.0962696,-80.543671,-65.093918,-7.3697929,-65.076363,-5.5559835,-18.38096,109.08719
3400000000,4.2312551,157.70792,-63.929192,-75.649002,-65.345802,-74.187149,-18.242788,110.64365
3405000000,9.4045057,65.042534,-59.482666,-89.878403,-56.807556,-92.189674,-18.895805,107.76364
3410000000,6.0766249,-23.233524,-57.877705,173.7093,-59.082912,166.86388,-19.247583,102.63601
3415000000,5.9321561,-124.80975,-63.523338,119.19804,-62.742477,117.33798,-19.066956,101.26421
3420000000,5.3659544,126.58463,-65.132423,-1.3666496,-64.737015,4.2740321,-19.683859,98.406708
3425000000,8.7956266,29.617353,-72.828568,-39.285526,-72.938469,-38.325214,-20.83741,94.554268
3430000000,6.0536795,-48.695,-71.200951,-83.793823,-70.546394,-85.446335,-20.264791,94.316971
3435000000,5.4552107,-163.74097,-64.240456,-95.930977,-65.35157,-99.180176,-19.851351,94.037086
3440000000,6.9611163,106.50828,-61.229443,-179.86786,-60.795258,-167.84123,-20.783987,91.84362
3445000000,8.218215,0.80404007,-60.454399,120.94756,-60.357937,105.15984,-21.21385,89.672386
3450000000,6.3341246,-74.050354,-61.658909,26.869947,-62.216385,31.340599,-20.64571,87.526512
3455000000,4.8092117,163.09221,-64.036995,26.723579,-64.745979,27.166252,-21.652843,89.094017
3460000000,9.0547562,69.317039,-67.908562,-21.249331,-65.075531,-21.0448,-23.297676,95.910629
3465000000,6.891305,-22.514019,-61.907707,-55.824951,-62.713291,-61.669643,-23.35112,92.282562
3470000000,6.6043992,-111.53235,-63.324032,-125.9048,-63.16621,-128.56323,-23.058985,85.102066
3475000000,4.9143882,136.0735,-60.053505,121.53281,-60.408405,126.24231,-24.313711,88.722298
3480000000,8.9455099,38.423782,-61.730766,23.52603,-59.959221,14.679457,-25.178843,87.456657
3485000000,6.8152013,-44.282501,-59.795185,-42.129971,-60.598225,-45.850327,-24.425823,77.578636
3490000000,5.6448493,-148.6395,-68.12571,-123.84279,-66.973892,-131.09183,-24.854687,88.194695
3495000000,5.6908212,113.86763,-73.623817,-124.98142,-73.67598,-124.50875,-25.655619,105.94456
3500000000,8.413475,6.7582006,-63.666031,-112.75517,-62.455303,-123.77145,-26.146387,96.614082
3505000000,5.7787843,-64.078308,-57.987411,177.55334,-59.242573,178.21034,-26.107275,85.78022
3510000000,4.5377192,179.89499,-59.799553,94.476257,-60.336872,90.669327,-26.546532,100.86674
3515000000,7.2235289,81.101875,-60.609921,3.0627832,-59.32394,4.1716342,-26.427607,106.3839
3520000000,6.6614957,-14.956776,-63.641193,-119.2009,-64.066727,-129.37068,-27.534088,105.90431
3525000000,6.5514159,-95.64817,-63.017597,158.99223,-63.14386,157.09329,-28.623312,121.64639
3530000000,4.19976,147.94197,-66.731445,55.180592,-67.939072,57.00309,-28.523705,119.08309
3535000000,8.3255672,48.82338,-67.905037,-140.62711,-65.954872,-140.00247,-27.181259,97.513237
3540000000,6.1244807,-36.660179,-61.668823,105.27502,-62.673119,99.529343,-27.41004,107.10937
3545000000,5.754097,-131.66682,-55.953426,7.6056352,-55.295128,10.317375,-27.839699,121.58211
3550000000,4.2670407,120.4593,-57.700058,-52.373558,-58.044201,-47.763767,-27.770967,107.82021
3555000000,7.7172251,15.458922,-57.23954,-124.87305,-56.032001,-136.77299,-26.70937,110.93788
3560000000,5.3140669,-57.990627,-62.326527,130.73219,-63.490856,132.69153,-25.912758,125.42056
3565000000,4.4846845,-168.39273,-81.887947,-32.136185,-82.956413,-36.335823,-25.796705,113.97156
3570000000,5.7633734,91.390907,-63.452679,166.31725,-62.700966,170.26959,-24.9641,105.25058
3575000000,6.4046116,-10.296933,-61.384106,82.433052,-61.507446,68.358467,-24.492662,125.09586
3580000000,5.801568,-84.148293,-57.788403,-1.8548211,-58.103966,1.7315577,-25.547874,135.2309
3585000000,3.9279587,158.78984,-64.271812,-99.483147,-64.309547,-101.71811,-27.131224,119.29969
3590000000,7.0559487,64.008385,-60.768066,166.69368,-59.380764,170.76369,-25.642296,117.33045
3595000000,6.0999098,-30.766724,-67.324478,91.932617,-68.275398,78.96524,-25.271307,124.19678
3600000000,5.6357665,-116.64713,-66.946632,88.594299,-67.160873,91.344109,-26.913483,107.67667
3605000000,3.5710652,130.22475,-76.734512,78.122574,-77.363655,69.657791,-25.664501,98.463905
3610000000,7.7072029,29.193157,-65.003975,-23.778606,-64.724457,-29.756489,-24.567833,109.85484
3615000000,5.6196504,-51.902962,-62.246998,-62.79073,-63.199234,-65.903877,-24.915247,116.68408
3620000000,5.2300596,-152.94812,-66.681427,-108.14869,-66.158882,-112.44197,-25.048285,109.23133
3625000000,4.7266455,103.22993,-64.05098,170.32619,-63.609974,175.02643,-24.710987,110.659
3630000000,7.2050338,1.0098902,-66.638916,119.1254,-66.546387,112.4436,-25.273369,110.65617
3635000000,6.0237632,-70.985748,-62.294598,18.70652,-62.627193,19.471224,-26.170353,102.2815
3640000000,4.3297839,174.9395,-61.346771,-39.825375,-61.445469,-45.595856,-26.21118,101.38557
3645000000,5.9613433,79.949356,-80.291222,-48.19326,-82.610207,-82.385948,-26.106941,109.68974
3650000000,6.3937631,-21.494167,-67.909836,-89.330582,-68.1679,-101.61089,-26.319542,107.9929
3655000000,5.9218497,-97.133987,-65.712502,-153.43523,-65.17466,-151.90723,-26.906593,101.70362
3660000000,3.7947218,146.64989,-66.014442,127.09322,-67.440506,125.37724,-27.201406,96.194511
3665000000,7.2854881,44.71888,-61.474773,83.497887,-59.888283,82.281395,-26.922508,90.666313
3670000000,5.4930654,-41.361893,-62.568329,-22.543327,-63.944405,-26.732985,-27.126614,92.932419
3675000000,5.8673701,-132.06737,-64.307831,-65.648064,-63.554535,-64.300102,-28.10877,102.74461
3680000000,3.8003521,119.5787,-66.344513,171.42337,-66.282303,173.91704,-28.683662,105.90088
3685000000,7.5593772,16.898081,-67.104996,160.23296,-66.770241,152.41451,-28.584278,99.262512
3690000000,6.159533,-64.29454,-78.084221,-117.91833,-77.395882,-100.71765,-28.736362,99.446617
3695000000,4.3578749,-166.40289,-63.657803,130.83707,-63.666725,126.76177,-30.748808,102.98711
3700000000,4.5737457,94.612717,-65.185837,19.023565,-64.852478,28.29146,-33.63707,95.413986
3705000000,7.0302181,-12.447355,-62.002125,-40.584042,-61.442928,-49.813087,-33.596905,85.135284
3710000000,5.2335844,-82.703766,-59.918102,-123.23849,-60.899487,-119.5955,-31.887157,101.32226
3715000000,3.3786695,161.79312,-69.695541,173.44751,-70.33609,164.85704,-31.897211,111.93211
3720000000,6.0123696,58.754715,-68.366707,68.23114,-67.056541,74.885811,-33.391064,110.94066
3725000000,5.6271882,-32.396259,-78.068375,-79.503807,-77.072502,-86.866982,-33.452087,103.69456
3730000000,5.8150964,-113.74435,-68.842361,58.925209,-70.129654,54.443779,-33.314503,117.53953
3735000000,2.5323491,132.37134,-61.609558,-15.569053,-62.419636,-14.030376,-34.592495,133.25954
3740000000,6.565239,31.512953,-59.853664,-86.180733,-58.345085,-87.97094,-33.048077,137.66939
3745000000,6.0983939,-53.605385,-57.133839,-160.82538,-57.704681,-162.99135,-30.054512,140.26456
3750000000,5.067831,-146.48938,-59.449776,112.3651,-59.239655,112.71696,-29.988869,155.77486
3755000000,3.1035357,108.97928,-64.985931,69.819633,-65.525749,71.262032,-32.676968,162.58704
3760000000,7.0907283,0.067797907,-65.860931,117.2677,-65.386589,107.52114,-33.067383,150.24419
3765000000,5.5834918,-70.981285,-68.369225,89.70491,-68.265488,91.17746,-31.082611,153.8873
3770000000,4.5875731,-177.40852,-59.62204,3.6607335,-59.919518,-2.164,-30.297262,163.45073
3775000000,5.3823252,78.259338,-61.188412,-101.20586,-60.787373,-96.085175,-29.331337,153.73994
3780000000,6.6580296,-25.476225,-60.184246,172.63924,-60.824421,161.54463,-27.488455,149.98532
3785000000,6.6053352,-94.219765,-63.352699,75.950684,-63.441849,81.499603,-27.027761,156.14546
3790000000,3.7971256,151.25127,-67.160233,-28.693537,-66.572807,-24.867935,-27.108498,157.9218
3795000000,6.4194689,53.086094,-68.745605,-66.259636,-66.612541,-69.466942,-26.414925,157.22401
3800000000,6.6333718,-44.377594,-62.378563,71.25795,-63.140411,64.300034,-26.053055,162.55301
3805000000,6.20751,-125.33306,-63.608086,-67.65377,-62.756458,-64.412842,-25.609619,159.90962
3810000000,3.2618742,121.88965,-61.521008,-133.36819,-62.156002,-126.91632,-24.549986,154.50992
3815000000,7.8191018,13.448474,-61.153,128.85001,-59.51498,118.96004,-24.952406,157.80914
3820000000,6.1798792,-62.988838,-60.452499,49.814133,-62.516308,51.447323,-26.890371,154.8055
3825000000,5.9426818,-160.26028,-61.234497,-56.842258,-61.031139,-61.096405,-25.348717,139.939
3830000000,3.6749771,92.990974,-63.699348,-168.7188,-64.826172,-161.64809,-23.458532,143.54436
3835000000,7.1744194,-16.554407,-64.794685,67.943352,-64.504875,58.255833,-23.797472,152.45222
3840000000,6.4540529,-85.567551,-73.581123,-17.695963,-73.555511,-15.193469,-24.358095,143.29509
3845000000,4.4168797,167.87979,-70.394928,-165.12708,-70.653076,-163.68834,-23.075293,134.95569
3850000000,5.7455201,65.755051,-61.47699,92.683601,-60.445702,99.555153,-23.064793,138.43591
3855000000,6.8388586,-37.846153,-57.576126,9.2958927,-58.347843,2.0726426,-23.784313,139.16217
3860000000,6.8981943,-109.72011,-60.088234,-83.121986,-60.010475,-76.822548,-23.098358,131.49863
3865000000,2.8295822,136.79979,-64.650444,-146.53587,-65.493736,-149.25545,-22.361244,132.50374
3870000000,6.4651384,29.08477,-75.099319,101.66274,-73.843521,95.258232,-22.504265,135.39369
3875000000,6.2198768,-57.603943,-64.229942,-100.58036,-65.243126,-103.25404,-22.486864,130.58406
3880000000,6.8664145,-140.11327,-62.653156,-170.30313,-61.866291,-169.61263,-22.607502,123.54289
3885000000,2.6106758,112.43898,-61.622116,58.947475,-62.187737,66.709396,-23.045025,120.94988
3890000000,6.7140317,0.075071424,-59.047569,-15.980289,-58.140545,-22.545889,-22.294445,119.02342
3895000000,6.1649356,-75.72982,-61.240189,-113.63676,-62.264717,-112.84173,-21.36648,119.59619
3900000000,5.7829165,-174.63567,-61.521709,-178.42186,-61.075378,-177.59334,-21.750216,121.18095
3905000000,4.8114181,79.593987,-63.758572,91.082016,-63.428463,97.576714,-22.19854,120.03003
3910000000,7.0976105,-28.900085,-72.450371,-115.36645,-71.36071,-123.18959,-21.991259,114.84165
3915000000,7.1867476,-97.02253,-64.15509,135.60754,-64.837807,137.0291,-22.516703,111.58866
3920000000,4.2609482,155.16566,-59.425491,31.772429,-60.430676,27.356546,-23.135054,111.53888
3925000000,6.4520416,47.714413,-64.405251,-48.198902,-62.209602,-41.565392,-22.982939,109.88097
3930000000,6.5676126,-51.536598,-61.014393,-128.28514,-62.138042,-133.99974,-22.935305,103.40504
3935000000,7.6811628,-128.66136,-61.413673,142.99956,-60.66172,144.06418,-23.027321,95.532967
3940000000,3.1817596,124.76945,-68.244278,28.36001,-69.380005,36.072189,-22.115923,95.318092
3945000000,6.7228031,10.344973,-69.746315,-103.28022,-69.719666,-110.42126,-21.643557,97.276276
3950000000,7.0813088,-70.740585,-67.514145,98.423904,-68.976128,97.374756,-23.07103,98.987122
3955000000,6.7473669,-159.51137,-67.521027,-30.728363,-66.093956,-30.236866,-24.388483,95.863503
3960000000,3.3426952,99.362251,-62.178333,-72.160736,-62.135052,-67.866821,-23.149773,90.739052
3965000000,6.7655087,-21.142382,-61.140186,-169.6022,-61.236664,-179.74835,-22.547556,89.447739
3970000000,6.4690075,-88.585701,-58.917446,106.27454,-59.727657,112.89978,-24.152882,90.140068
3975000000,4.9173055,168.67406,-68.429703,40.172539,-68.122894,28.010494,-24.806969,82.440491
3980000000,4.8197851,61.384941,-74.947922,-162.7319,-74.627357,-159.7253,-23.797743,76.764236
3985000000,6.1245537,-44.646503,-69.937782,32.801849,-71.158325,21.889914,-24.375502,78.994438
3990000000,7.5670342,-114.46423,-66.175896,44.080452,-64.52935,52.004055,-25.097036,81.547867
3995000000,3.44379,142.74405,-67.780846,-116.57491,-68.29409,-118.66329,-23.765936,77.700371
4000000000,3.5324914,29.095152,-58.881672,127.63264,-58.230103,125.68835,-23.701733,77.27327
END

