!CSV A.01.01
!Keysight Technologies,N5247A,US56070710,A.10.64.09
!Date: Saturday, November 19, 2022 23:58:40
!Source: Standard

BEGIN CH1_DATA
Freq(Hz),S33(DB),S33(DEG),S34(DB),S34(DEG),S43(DB),S43(DEG),S44(DB),S44(DEG)
3000000000,-10.397186,177.17049,-57.241634,10.729953,-57.653908,9.1618681,-18.293392,-154.55157
3005000000,-15.306909,65.756294,-56.521404,-97.915733,-56.715759,-97.825951,-17.055553,-149.28423
3010000000,-10.283356,116.50584,-57.789463,133.39258,-57.912094,131.19093,-15.774348,-162.20871
3015000000,-9.8633003,173.2039,-53.506687,41.075184,-53.771999,40.147594,-15.709927,-151.37486
3020000000,-13.722361,37.322933,-55.573376,-43.005238,-55.483486,-43.524967,-16.620312,-169.6015
3025000000,-6.60743,135.02074,-55.21616,-146.30615,-55.03299,-147.70897,-14.550696,-157.73309
3030000000,-27.208834,168.40327,-59.563366,86.122993,-59.721062,89.881569,-18.629789,-174.02296
3035000000,-10.913868,67.85688,-56.159592,-9.240181,-56.272713,-10.246375,-13.9177,-168.79903
3040000000,-6.7379045,144.16806,-57.049503,-105.86528,-56.98119,-104.68584,-18.421831,-178.27588
3045000000,-23.769596,-69.014503,-56.790165,143.0593,-56.907909,142.74117,-15.460105,-177.94
3050000000,-7.9560556,92.115562,-56.755165,34.756779,-56.741467,34.08823,-14.710629,171.68367
3055000000,-8.0995655,137.28523,-57.746021,-71.174469,-57.728477,-70.347275,-15.882153,-169.45856
3060000000,-13.623598,-7.4632726,-54.889072,-160.35841,-54.732788,-160.58278,-15.188158,162.79283
3065000000,-5.4206791,111.99659,-57.286972,91.406227,-57.637501,90.46563,-15.459597,-170.37064
3070000000,-14.858145,179.40431,-60.851513,-3.5926304,-61.094662,-3.4162321,-16.956577,158.86786
3075000000,-10.214306,64.991089,-56.970196,-120.00886,-57.123764,-118.51732,-16.140226,170.50423
3080000000,-5.0104012,110.69695,-57.264118,130.49814,-57.612713,128.01759,-16.484715,161.35645
3085000000,-14.72363,-118.02533,-59.297047,36.106178,-59.012081,37.613533,-16.990294,160.32454
3090000000,-5.643609,77.502693,-55.546623,-69.030685,-55.506607,-69.916588,-14.196517,153.25168
3095000000,-10.650296,148.40025,-59.709248,-164.56319,-59.31208,-165.45222,-17.5933,175.55267
3100000000,-16.469419,97.339325,-57.557701,87.246323,-57.798988,87.778877,-14.946163,144.99254
3105000000,-6.1313071,74.07737,-59.22794,-46.121651,-59.107471,-48.021004,-16.531288,173.74554
3110000000,-8.2598352,152.55795,-56.089294,-144.36482,-56.093502,-147.86609,-17.566221,139.52821
3115000000,-10.031497,18.484356,-55.022125,125.70966,-54.823822,125.42928,-16.990643,159.85973
3120000000,-5.713304,105.39282,-58.184948,53.562088,-58.330788,52.84832,-17.013475,138.61847
3125000000,-13.219955,163.27927,-61.243351,-45.084911,-61.370022,-50.728004,-17.467871,152.66306
3130000000,-6.2987642,46.728733,-63.327972,163.21834,-63.415596,163.48628,-16.007515,134.41858
3135000000,-6.819325,115.22887,-58.954624,61.712597,-58.81987,59.715271,-17.403622,165.15901
3140000000,-21.99749,73.561661,-57.399052,-29.519852,-57.428406,-28.022398,-16.475655,125.72059
3145000000,-7.8586226,49.271713,-60.845661,-141.93999,-61.19368,-137.5663,-17.222759,157.88512
3150000000,-5.1989307,130.07448,-59.501953,105.56841,-58.948708,105.11328,-18.318607,142.67938
3155000000,-10.634131,24.955507,-57.479488,31.1968,-57.763844,32.283882,-19.278873,133.19003
3160000000,-6.3814378,80.469849,-64.014244,-65.530785,-63.442146,-69.538307,-16.575043,142.49191
3165000000,-12.009622,108.81141,-66.265755,169.41792,-66.655891,169.44482,-19.829214,126.48689
3170000000,-14.482194,30.521961,-61.13485,35.265072,-61.404106,31.641531,-15.693604,139.28017
3175000000,-5.269042,94.288933,-57.489155,-48.317505,-57.235565,-48.929779,-18.230631,145.96184
3180000000,-24.984297,60.754894,-58.156345,-128.89275,-58.19643,-127.63441,-18.523478,131.68433
3185000000,-5.5803094,49.96109,-57.806133,150.05042,-57.295101,147.16376,-16.693556,153.67094
3190000000,-8.7360582,97.308182,-70.841064,66.422852,-71.530701,56.305183,-20.859554,140.64487
3195000000,-21.471989,14.009259,-63.02298,-132.289,-63.113796,-127.77239,-21.196836,131.78993
3200000000,-4.6875439,58.751328,-62.014099,147.76282,-62.389454,147.12645,-16.428017,128.63034
3205000000,-8.4727001,122.76662,-60.176765,59.781975,-61.037842,58.66856,-24.062082,145.21771
3210000000,-8.7062693,10.174714,-64.740234,-43.517639,-64.942802,-51.849136,-14.502175,120.22171
3215000000,-5.5554447,69.550728,-62.346416,-128.53297,-62.845776,-130.56569,-21.537472,150.87233
3220000000,-16.757143,107.74644,-62.478317,111.15749,-63.011726,110.25797,-15.866526,131.78632
3225000000,-8.3832006,21.561802,-63.689537,4.716301,-64.138428,8.2607183,-19.078024,136.91026
3230000000,-5.5977077,84.933929,-63.674664,-74.065506,-64.094734,-72.682442,-18.06201,148.01416
3235000000,-17.466154,66.293541,-67.364861,158.27077,-67.8946,152.45245,-20.721865,121.08307
3240000000,-3.5355408,26.634243,-68.99472,31.075865,-67.957886,20.376532,-16.906351,132.84436
3245000000,-8.8855505,124.56474,-64.632088,-27.190889,-65.57869,-23.740465,-20.046074,142.90973
3250000000,-10.427057,14.014254,-63.833889,-141.54973,-64.236855,-147.94257,-17.813089,110.77445
3255000000,-5.9363022,52.142353,-65.681511,148.63194,-65.179153,140.80164,-17.570311,144.03072
3260000000,-9.9653339,95.224686,-68.359314,24.465881,-68.833763,18.32729,-16.42256,114.64183
3265000000,-6.1853023,-1.9328715,-73.501938,-118.11362,-73.79377,-129.55196,-18.630768,143.51875
3270000000,-4.8416381,71.817757,-65.40435,138.7225,-64.11998,140.89433,-16.546482,127.72195
3275000000,-22.99324,-50.523922,-61.911293,75.032295,-61.985035,74.635338,-21.110174,120.534
3280000000,-7.2500944,40.569416,-65.366394,-11.558502,-65.632607,-12.082078,-14.915489,122.71523
3285000000,-5.5286393,64.759636,-66.867996,-164.91592,-67.966705,-170.33275,-20.542315,131.76527
3290000000,-12.42864,-51.564297,-66.003189,102.77675,-65.976784,106.54408,-16.196768,114.88709
3295000000,-4.7003946,32.257935,-65.365204,37.313534,-65.794159,32.779697,-15.79817,120.99347
3300000000,-9.1056004,86.548828,-70.653946,-68.806404,-70.108246,-58.856483,-18.07583,131.42255
3305000000,-9.3734837,-25.778677,-72.694427,-150.17194,-76.602661,-149.49037,-16.594437,116.37019
3310000000,-4.3682456,49.832958,-69.761673,-10.721636,-69.360489,-15.11247,-16.815405,128.42049
3315000000,-17.567318,73.499176,-62.148972,-64.951263,-62.442661,-63.042305,-20.387199,107.25578
3320000000,-7.1911569,-2.3610802,-60.483723,-113.21751,-60.592327,-112.60047,-15.422005,111.48962
3325000000,-6.5659585,42.769768,-62.452755,-179.1028,-63.062752,-174.18932,-18.988453,112.86098
3330000000,-16.989162,-127.60374,-68.909462,88.417671,-69.930878,95.300858,-14.784142,103.2056
3335000000,-2.5994735,16.22237,-70.353546,-142.56554,-69.018303,-147.25362,-17.884443,112.41586
3340000000,-10.643848,73.486046,-63.139469,161.26395,-63.247074,158.59201,-15.023186,115.30704
3345000000,-10.746374,-18.199793,-63.340221,89.301117,-64.440903,88.80822,-18.837912,96.122673
3350000000,-4.5515456,6.4169064,-61.809055,10.98503,-61.595589,8.8782673,-15.41925,115.3037
3355000000,-10.749601,104.57539,-68.40921,-86.562004,-67.226906,-86.338295,-21.837063,91.070824
3360000000,-7.021749,-30.599445,-67.180511,147.7598,-67.254074,155.8662,-14.978415,98.460709
3365000000,-4.0361943,37.408916,-62.279434,12.22852,-63.615513,16.545628,-19.651735,82.328705
3370000000,-15.792577,-16.027218,-63.241821,-70.648094,-62.880039,-70.596588,-15.574045,95.165031
3375000000,-5.3016567,-14.160398,-64.636765,-151.55499,-63.802197,-145.63379,-16.793619,91.433907
3380000000,-8.8239145,62.283401,-61.48304,72.209038,-60.991776,66.204048,-17.425171,99.222221
3385000000,-21.021374,-8.8292351,-61.936535,-6.3722281,-61.940544,-10.990108,-18.407078,78.911819
3390000000,-2.8140976,-3.7123675,-59.552448,-107.26258,-59.71632,-108.03069,-16.912428,95.227158
3395000000,-12.03676,84.720749,-62.578682,137.30086,-61.992359,137.94969,-18.701677,78.201988
3400000000,-5.9475045,-44.812679,-62.6422,17.341318,-63.015263,15.784325,-17.392412,77.996872
3405000000,-7.4603348,12.279757,-61.419796,-93.365257,-62.017735,-93.931389,-19.806608,81.440887
3410000000,-11.658728,58.071354,-58.98325,160.8443,-58.714012,160.44589,-15.764438,74.326653
3415000000,-4.5875545,-35.390629,-58.895584,68.987541,-58.6959,67.760849,-19.281866,74.229187
3420000000,-5.5488281,35.577686,-60.694054,-33.561356,-61.094212,-35.449619,-17.455322,92.429337
3425000000,-16.184059,-83.02195,-62.105736,-155.67412,-61.862377,-156.27606,-21.213667,55.45116
3430000000,-4.9162989,-14.03968,-60.707848,96.412903,-60.767254,97.356346,-17.35021,85.036964
3435000000,-12.106204,52.133781,-58.865685,-2.4835117,-58.529236,-0.24825646,-22.984135,45.491558
3440000000,-10.772095,-45.291908,-60.363651,-100.02168,-60.234741,-99.451729,-20.548519,70.42807
3445000000,-4.5483594,-9.2936916,-59.008797,157.06683,-58.837448,158.26227,-17.067261,56.549568
3450000000,-13.221536,52.399578,-61.805573,32.606297,-61.742455,33.742496,-23.31703,70.769012
3455000000,-6.5317268,-59.973766,-59.772118,-72.955711,-59.658463,-74.653679,-18.76833,62.19532
3460000000,-6.4947057,21.158447,-58.735058,-169.11934,-58.831032,-167.80031,-20.264513,78.671097
3465000000,-17.173752,-41.131916,-60.861385,83.663078,-60.388157,83.579941,-24.445807,56.646366
3470000000,-6.7311378,-37.10844,-63.797813,-30.296495,-63.828049,-25.828457,-19.716825,67.224144
3475000000,-6.3206425,22.335255,-59.416012,-144.09923,-59.023457,-144.21124,-29.864605,100.40579
3480000000,-10.005033,-98.780487,-58.248077,120.99546,-58.536263,123.72014,-20.36305,46.427479
3485000000,-3.608305,-14.928144,-59.276741,39.458778,-59.880836,37.676666,-22.969313,42.201485
3490000000,-16.23571,90.97525,-62.889046,-69.72084,-63.160603,-69.216949,-22.368944,109.27477
3495000000,-9.0708504,-43.456978,-62.243294,157.70813,-61.822166,149.81847,-18.521486,21.328863
3500000000,-4.4291873,-16.30616,-59.981865,50.161503,-59.989048,48.492687,-19.287479,112.1548
3505000000,-21.270529,111.67372,-58.480103,-55.407402,-58.286682,-53.562607,-25.600952,19.91242
3510000000,-4.8790383,-62.707436,-58.460079,-145.05862,-58.567989,-145.88812,-21.914207,100.76145
3515000000,-6.2988648,26.036234,-59.679794,98.811272,-60.314259,96.895432,-27.604568,48.294273
3520000000,-17.023232,-103.16559,-62.868572,-4.7837553,-61.900303,-4.6467876,-30.073904,36.389629
3525000000,-5.1313996,-39.152653,-61.055363,-121.44194,-61.364338,-121.09415,-21.014713,67.097694
3530000000,-9.6130857,3.9893193,-61.679886,126.08128,-61.784023,119.61228,-22.877964,91.795746
3535000000,-10.634146,-112.04765,-59.879723,26.166523,-60.158596,26.137306,-28.782269,39.74099
3540000000,-5.1940126,-22.5648,-57.337814,-76.915222,-57.510529,-74.813797,-18.447102,102.56434
3545000000,-11.795529,52.474922,-59.055943,174.98544,-59.608562,172.70354,-43.410774,-127.90952
3550000000,-5.0630407,-68.380775,-59.41396,77.641953,-59.250767,78.840378,-20.231985,84.947296
3555000000,-8.9604187,9.693737,-62.765194,-59.425091,-63.09811,-56.2164,-39.137367,170.43483
3560000000,-15.256071,-64.56739,-63.191143,-167.24403,-63.204216,-161.92235,-22.640104,94.359962
3565000000,-9.4379501,-88.220428,-59.72887,76.890495,-59.79628,77.401886,-25.00416,38.374287
3570000000,-3.7970386,8.4121418,-57.360744,-7.0214586,-57.460884,-3.7115138,-22.900221,103.65302
3575000000,-9.536027,-138.04987,-57.26545,-97.999107,-57.266235,-96.274467,-23.785357,67.468246
3580000000,-4.4978995,-36.363346,-64.387321,155.31816,-64.284302,157.5901,-21.329859,96.972008
3585000000,-14.378941,-0.49805212,-64.588211,24.02713,-64.201767,22.721241,-25.358015,99.693039
3590000000,-11.351765,-130.50659,-60.061264,-99.539383,-59.308308,-95.352097,-29.514412,87.951622
3595000000,-3.4459908,-24.293421,-59.100651,167.77113,-58.714649,166.74191,-19.989325,88.135223
3600000000,-22.387201,121.08101,-57.688675,70.131577,-57.04974,67.918114,-34.832752,121.43825
3605000000,-5.6587811,-67.5513,-60.981869,-50.759315,-60.607635,-50.071846,-22.31391,58.20834
3610000000,-7.8934212,-13.019897,-61.029613,-152.05316,-60.56118,-155.06604,-21.740669,94.196381
3615000000,-18.323336,167.58522,-60.182018,102.30793,-59.943272,100.03697,-24.682388,73.341629
3620000000,-5.855505,-60.512936,-62.293491,-8.4513588,-62.507019,-7.3517504,-22.612333,75.621887
3625000000,-9.4610052,-5.6903234,-58.276939,-132.50137,-59.075817,-131.0031,-22.874172,102.81884
3630000000,-20.626539,-166.99045,-57.621651,128.55794,-57.388973,126.74129,-26.659658,85.859306
3635000000,-2.6867919,-65.093353,-59.224422,35.838493,-59.27203,35.931103,-21.555014,55.593723
3640000000,-11.545125,63.968204,-59.661572,-83.847679,-59.350063,-81.218529,-22.75337,145.19019
3645000000,-6.0754972,-85.30069,-62.602203,-173.62379,-62.409435,-175.46898,-19.159843,17.100418
3650000000,-9.6073818,-18.003992,-61.956863,54.145195,-62.481339,50.012543,-19.75235,108.65854
3655000000,-10.16053,-10.660072,-61.907352,-56.284538,-61.562176,-55.462421,-24.065626,17.935369
3660000000,-4.1795712,-102.60899,-59.286648,-150.55904,-59.838711,-148.83566,-22.103344,95.40255
3665000000,-4.6481457,16.830418,-58.518055,104.78507,-58.765648,103.52924,-22.372976,65.782425
3670000000,-8.9623365,-130.78548,-59.205086,11.078859,-59.014709,14.768604,-31.977425,125.89763
3675000000,-7.7593923,-42.481533,-61.546234,-92.454163,-61.440006,-90.974129,-23.320375,56.21748
3680000000,-8.4674711,-26.230242,-61.956654,122.30178,-61.586113,120.1876,-25.656626,123.62591
3685000000,-10.435632,-133.25377,-61.377594,38.771423,-61.440701,34.57584,-24.327507,-24.317781
3690000000,-4.1709781,-40.954128,-58.148617,-75.915283,-57.897057,-72.373215,-20.78204,74.861176
3695000000,-20.463751,56.630402,-59.660286,-169.5282,-59.968494,-170.49754,-32.953827,-22.431873
3700000000,-8.0817957,-98.199844,-59.710484,86.832565,-59.949276,87.28112,-22.186943,69.404556
3705000000,-4.0827656,-25.159367,-59.082867,-27.053677,-59.435287,-26.053911,-25.538736,32.806419
3710000000,-12.124752,-176.77982,-60.617138,-120.64174,-60.777439,-122.20348,-23.476284,135.74387
3715000000,-4.4334641,-60.869152,-61.123356,109.03167,-61.102551,107.60645,-20.955402,23.92404
3720000000,-10.225895,-32.14954,-60.223122,8.208065,-60.226135,6.7312584,-21.939188,156.99268
3725000000,-15.519557,169.17163,-58.747292,-94.978622,-58.465649,-96.695717,-23.56698,2.7919142
3730000000,-2.0435755,-57.366676,-60.575653,164.96257,-60.13858,166.72057,-27.598564,98.674744
3735000000,-14.759106,62.099602,-59.573132,70.295609,-59.803249,69.30584,-25.553957,86.99131
3740000000,-7.5018678,-87.123589,-60.626663,-48.646801,-60.568371,-52.944267,-47.034229,-17.716923
3745000000,-5.578136,-68.573051,-59.910496,-160.30356,-59.346718,-158.87384,-23.018093,98.106361
3750000000,-9.7246704,48.365078,-60.402763,100.63097,-60.987152,99.888763,-30.739855,169.54732
3755000000,-2.9385264,-113.83412,-59.548534,-14.64418,-59.649899,-12.298487,-30.574173,37.034683
3760000000,-3.6923614,-4.3129072,-58.320366,-104.19115,-58.717632,-105.15047,-22.310225,139.0061
3765000000,-6.3446627,-105.72771,-61.139233,156.63936,-61.398232,156.1833,-27.181303,-39.710754
3770000000,-7.9100761,-111.01258,-62.495144,38.779068,-62.55162,37.835178,-22.769091,106.48601
3775000000,-4.522223,-6.9676747,-60.169136,-84.36882,-60.730366,-84.377914,-28.864681,60.579067
3780000000,-7.6404066,-146.69769,-59.699844,169.90228,-59.509544,171.40746,-23.919813,154.34593
3785000000,-2.9772098,-51.086006,-58.817375,92.387184,-58.198158,93.791382,-19.966358,57.342319
3790000000,-13.521542,-62.538147,-59.944439,0.5898484,-60.451443,-2.8945718,-17.99855,165.446
3795000000,-6.354599,-140.06032,-62.778431,-112.90777,-62.37825,-113.51093,-26.288153,40.504204
3800000000,-4.3056035,-30.17679,-61.27195,125.98502,-61.470894,128.07678,-20.42305,143.57518
3805000000,-15.888486,-84.086761,-60.438065,14.246315,-60.010868,12.008159,-43.822208,89.419365
3810000000,-6.7117543,-106.17545,-59.454533,-90.000969,-59.245892,-86.221123,-23.572645,99.470848
3815000000,-3.1890554,-55.786697,-59.20977,171.92232,-59.496227,171.77542,-23.785746,112.57203
3820000000,-6.7296371,144.57808,-60.593323,78.600433,-60.005222,73.043602,-24.124966,123.67246
3825000000,-0.85040605,-62.025406,-60.028938,-20.859055,-60.107891,-18.064634,-22.546638,72.977638
3830000000,-20.820648,-112.39639,-62.493118,-128.21211,-62.6147,-126.09026,-16.399971,133.89236
3835000000,-11.516805,-95.840584,-60.578865,119.314,-60.980053,118.31869,-50.126228,-14.968283
3840000000,-2.9382253,-92.075195,-60.860348,4.3368969,-61.154327,1.3638043,-18.815166,115.80672
3845000000,-10.209067,47.666161,-60.600277,-94.35704,-60.687065,-98.319389,-29.737242,118.21873
3850000000,-1.9862455,-103.79311,-59.279884,164.58147,-59.125427,161.57613,-23.866674,111.3679
3855000000,-9.4183378,-75.164482,-59.949482,72.578972,-60.606159,70.722099,-19.853355,77.364304
3860000000,-18.791626,-68.79847,-59.823395,-31.285696,-60.34866,-29.007719,-22.066959,143.87445
3865000000,-4.0631657,-107.28519,-61.390102,-139.8382,-61.40868,-137.46445,-17.314938,65.365189
3870000000,-6.6715355,-36.397232,-61.062828,113.20261,-60.95092,112.82598,-17.909105,144.02196
3875000000,-6.4231133,-131.27727,-60.761036,-5.5191855,-60.96315,-3.514106,-21.537403,65.07206
3880000000,-5.9286504,-110.61353,-59.348984,-95.011032,-58.967861,-96.095955,-21.477304,123.50254
3885000000,-7.8238182,-9.0907936,-59.37384,156.5936,-59.10239,159.31157,-19.947647,89.060219
3890000000,-2.6035738,-127.29328,-60.129818,62.930828,-59.940128,61.581165,-35.240391,144.46681
3895000000,-6.2885671,-69.235016,-59.499195,-31.694298,-60.362129,-31.804579,-16.122707,64.276825
3900000000,-9.4680653,-100.43711,-61.380177,-146.73911,-61.493076,-149.8073,-20.422132,131.29449
3905000000,-6.3029919,-143.64842,-62.64753,104.51498,-62.43005,104.05622,-18.94873,46.917114
3910000000,-3.2998214,-37.318886,-60.037308,1.1126664,-59.762268,5.0541468,-17.038561,111.26196
3915000000,-4.8833904,-150.89354,-61.138096,-111.02528,-60.874859,-115.17823,-24.309238,54.511097
3920000000,-4.8466802,-83.162079,-59.518013,154.92047,-59.409851,158.73705,-19.911283,101.43903
3925000000,-8.7626371,-104.30936,-58.4291,54.525196,-58.87188,56.098537,-20.091595,61.210941
3930000000,-11.826682,153.73697,-59.578442,-41.462116,-59.523804,-44.337631,-24.382376,147.4655
3935000000,-0.2597253,-88.838905,-61.55188,-147.74971,-61.845333,-143.38057,-15.1308,36.826588
3940000000,-19.512508,52.511806,-61.213356,98.795258,-61.173031,98.671158,-19.209642,129.84541
3945000000,-1.9514723,-132.91695,-60.684849,-15.809785,-60.162918,-14.523363,-17.709967,32.214222
3950000000,-7.1508312,-73.061295,-60.082634,-107.14283,-59.765541,-105.57068,-18.234243,93.990746
3955000000,-17.333035,-156.24022,-59.885113,155.31952,-60.191723,155.6176,-25.576811,83.613541
3960000000,-3.9754951,-120.27772,-62.864361,37.527248,-61.986488,46.982677,-20.379141,44.069443
3965000000,-8.1654148,-77.398201,-60.251015,-53.798725,-60.657375,-51.949955,-20.628902,95.887024
3970000000,-8.2833815,-171.89284,-59.338486,-161.07471,-59.157536,-160.84756,-26.994484,26.216116
3975000000,-2.2645812,-116.69933,-60.913208,99.870903,-61.213467,101.85853,-18.672819,38.887943
3980000000,-13.209291,-36.831085,-62.00359,-10.714731,-61.991501,-10.310055,-19.961292,101.09415
3985000000,-4.0517645,-148.26439,-59.941429,-125.46544,-60.082348,-121.34017,-20.238007,9.6913185
3990000000,-7.4503245,-102.98432,-60.024738,140.02052,-59.879902,141.15552,-19.382406,91.672844
3995000000,-12.877865,-80.26783,-58.642483,41.34557,-58.489342,46.393276,-23.775656,40.73634
4000000000,-1.3960317,-162.40424,-60.710709,-43.298523,-60.002537,-46.825897,-33.551834,42.912052
END

