!CSV A.01.01
!Keysight Technologies,N5247A,US56070710,A.10.64.09
!Date: Friday, November 18, 2022 23:51:58
!Source: Standard

BEGIN CH1_DATA
Freq(Hz),S33(DB),S33(DEG),S34(DB),S34(DEG),S43(DB),S43(DEG),S44(DB),S44(DEG)
3000000000,-8.5386162,-125.28821,-73.410957,-47.199242,-75.988693,-49.284744,-10.132827,-140.71098
3005000000,-8.3431683,133.66086,-76.832932,152.1765,-73.789299,148.3826,-19.345108,-103.366
3010000000,-23.735752,-85.658684,-81.890411,-94.0271,-88.251953,-118.5587,-14.397928,162.18954
3015000000,-7.4727688,174.217,-76.011421,-35.71154,-75.521294,-43.447948,-9.606225,-138.19913
3020000000,-15.468985,55.330467,-83.650696,-151.74202,-85.027794,-131.62157,-36.342991,-0.82924008
3025000000,-8.9991913,-156.95691,-81.322586,-33.994453,-82.536758,-71.294411,-10.05578,-175.50612
3030000000,-10.178354,120.30922,-76.475029,-3.8297677,-75.53791,-10.877954,-13.339924,-130.74901
3035000000,-15.008205,-94.260201,-75.932869,-170.99861,-74.859482,-176.47528,-22.102938,159.56754
3040000000,-5.1503158,154.52916,-74.20295,-120.49175,-74.786644,-123.45512,-9.4928284,-179.27716
3045000000,-15.24283,20.301138,-74.956581,-10.975491,-78.49337,-17.987295,-17.546345,-107.13345
3050000000,-7.7739072,-175.51607,-79.670593,-121.22025,-81.092903,-114.35947,-12.195115,148.62531
3055000000,-11.120031,96.718132,-75.704567,158.17072,-75.79319,160.49211,-11.520501,-162.89934
3060000000,-10.251109,-126.72337,-78.554504,-13.568748,-77.400093,-18.715775,-20.102205,-143.075
3065000000,-4.7532654,128.7258,-84.274963,-26.376938,-78.09227,-14.766724,-11.137314,148.07237
3070000000,-16.665333,-47.13533,-70.991043,-153.85732,-69.613342,-161.62267,-11.836649,-143.7935
3075000000,-6.3804941,159.96417,-78.2174,134.27927,-81.300804,108.18633,-18.436577,120.71787
3080000000,-11.413181,69.188774,-82.329201,-19.009855,-77.719925,-28.381495,-11.559371,164.67107
3085000000,-6.5518489,-148.31673,-74.885445,150.92769,-74.647156,152.00647,-14.441068,-146.90463
3090000000,-5.2863111,104.48866,-80.489151,-166.68466,-81.06488,-157.0098,-14.607313,109.83099
3095000000,-15.573672,-120.8634,-71.794807,18.660181,-74.453049,8.3314533,-9.6694908,-177.42929
3100000000,-6.6331244,140.1264,-73.874763,-102.0399,-73.972298,-114.35172,-25.809713,178.02473
3105000000,-14.872849,45.931881,-84.28994,134.96587,-81.852554,140.22427,-14.029951,137.10982
3110000000,-6.0644584,-175.71371,-76.925217,86.669174,-79.060036,91.627571,-11.555805,178.40987
3115000000,-7.9201808,91.56292,-84.546867,-77.736214,-85.580963,-63.806919,-30.9526,12.985491
3120000000,-15.647964,-173.27338,-80.893517,109.77051,-78.984589,91.919945,-10.005569,142.84773
3125000000,-6.8166714,136.82458,-75.549011,112.99486,-77.587677,109.19373,-16.11031,-159.62689
3130000000,-14.460972,25.438284,-70.526131,-21.881365,-71.664619,-32.95475,-18.84339,111.45917
3135000000,-5.2809296,160.81384,-74.90657,-143.33719,-73.468254,-157.11092,-10.850781,148.85823
3140000000,-10.466645,70.944862,-82.115593,125.06293,-82.83149,99.450394,-19.247225,-127.16859
3145000000,-10.408193,-171.17513,-75.234909,44.626652,-73.96759,44.271942,-12.726994,113.977
3150000000,-4.2956715,106.01354,-84.964943,-127.96471,-77.220947,-156.58067,-13.37117,177.72919
3155000000,-14.804245,-63.907349,-75.04631,-177.40134,-76.284973,174.28748,-26.395226,-169.81197
3160000000,-4.4368558,133.49533,-68.651054,37.996391,-68.677742,32.824799,-12.1343,113.25569
3165000000,-12.737484,42.104561,-71.769348,-110.75488,-72.452827,-116.65824,-12.918988,-167.3018
3170000000,-6.294692,173.61504,-75.019188,-82.967911,-75.450035,-89.999161,-18.809429,82.512436
3175000000,-4.2714424,82.731888,-71.182838,121.89703,-71.701012,119.11641,-13.158672,144.49307
3180000000,-14.698963,-119.16045,-77.669411,-1.0041416,-77.315483,-6.5931697,-15.014114,-173.76012
3185000000,-5.5759735,109.7083,-77.390915,-129.77521,-75.388222,-130.43536,-19.179565,70.261787
3190000000,-21.158306,56.235504,-77.797737,97.903275,-74.636635,68.293396,-10.386785,158.79338
3195000000,-6.1160793,150.67863,-80.662598,65.321457,-83.879097,43.291676,-29.328947,-75.233521
3200000000,-5.3711791,64.077553,-71.370903,-65.423538,-72.624504,-70.698135,-14.121554,115.8503
3205000000,-12.199727,-176.87904,-70.198929,-172.81949,-70.01458,-177.68872,-13.944689,165.88567
3210000000,-6.2511611,96.179436,-78.477188,94.454742,-76.838348,105.00878,-33.631268,-21.348101
3215000000,-23.601585,-4.0192056,-89.031914,-23.732761,-80.634453,-51.294506,-11.083165,124.60404
3220000000,-4.2183695,133.7688,-78.575409,-58.877495,-84.356453,-76.646294,-16.232492,-166.74516
3225000000,-6.203197,44.552612,-77.530174,114.15025,-78.143517,103.11743,-21.247602,104.50272
3230000000,-11.005363,174.77214,-76.649483,26.355822,-76.997734,41.904514,-12.537543,132.07487
3235000000,-4.6951356,85.802437,-80.008804,-119.13921,-78.915291,-131.12845,-16.687346,-142.92245
3240000000,-18.950132,-64.008347,-73.642944,178.67656,-74.816422,175.26111,-13.783166,91.669472
3245000000,-2.9269631,114.29086,-76.649872,64.635658,-77.348656,69.777222,-13.089102,169.70981
3250000000,-8.8501215,4.1141329,-90.196999,-5.6432848,-90.832458,66.856674,-25.146198,149.31331
3255000000,-5.1026793,142.09225,-76.904221,-104.64735,-75.435493,-123.56997,-14.314769,102.11355
3260000000,-3.7244353,51.925339,-78.85257,59.684422,-79.253662,50.710106,-11.730052,169.7999
3265000000,-12.294024,-133.69087,-83.600243,54.357071,-85.920555,8.8434114,-22.596214,46.472416
3270000000,-3.1795914,92.217545,-75.36898,-106.21401,-73.767624,-106.66941,-12.182503,135.63199
3275000000,-17.506037,1.2014316,-81.937706,175.07797,-82.476273,136.0853,-17.339363,170.08839
3280000000,-5.5438037,110.28043,-77.03286,83.803223,-76.815811,75.465775,-20.252028,82.274345
3285000000,-6.6342134,34.943302,-79.569283,-25.30883,-78.848907,-20.195513,-10.658062,134.72742
3290000000,-11.706597,174.80481,-85.218353,-13.583797,-95.07618,-66.793518,-24.689795,-150.2782
3295000000,-4.0132079,70.588806,-85.165634,52.404739,-94.64328,109.49995,-13.749074,104.02273
3300000000,-24.237341,-35.149578,-82.155403,-24.262907,-81.509407,-19.29763,-13.291089,141.97517
3305000000,-4.5447092,101.88794,-83.375473,-168.24524,-83.091293,172.38243,-23.400761,-165.13655
3310000000,-5.7094679,19.403694,-84.068062,-178.59982,-80.42144,-153.36253,-11.196952,101.75548
3315000000,-8.2723827,157.69865,-78.517006,46.012447,-74.887772,39.069794,-14.868607,-179.97508
3320000000,-3.6935515,51.946945,-86.254906,118.19402,-92.944588,132.64447,-16.365591,82.048843
3325000000,-18.038088,-135.46355,-76.536255,-99.143486,-76.963394,-96.731323,-13.699727,116.6313
3330000000,-3.2035933,87.196426,-90.076012,-50.59903,-91.144508,134.76611,-15.090014,159.80037
3335000000,-6.4785542,-11.240175,-80.64949,69.727379,-83.644142,11.127313,-15.314938,62.805248
3340000000,-5.1071506,124.27142,-83.217178,-0.67286807,-84.213768,-39.440647,-10.757144,137.94812
3345000000,-4.0302792,22.387119,-88.773338,177.21724,-87.383995,-166.42459,-27.184452,128.48497
3350000000,-12.634977,-177.06319,-87.13063,118.12147,-91.756721,165.15703,-13.78331,85.267731
3355000000,-2.2353356,69.713638,-86.298058,-1.3941957,-89.292664,-8.7061071,-12.516424,140.66716
3360000000,-9.5639601,-43.956726,-77.410065,-104.18065,-76.64415,-121.2551,-21.459553,17.891737
3365000000,-3.5295126,91.258102,-97.260323,39.363655,-95.73735,-83.967667,-11.309573,104.72854
3370000000,-5.8581362,-5.7448897,-81.921738,51.896461,-83.416092,26.97402,-17.972433,131.52473
3375000000,-9.3938608,145.83623,-92.135193,116.76189,-94.559807,113.45029,-20.659317,69.566681
3380000000,-2.7540622,52.859615,-78.891724,-153.5401,-81.456161,-167.52861,-10.707242,103.98882
3385000000,-15.276953,-62.757126,-82.355652,98.155167,-82.046242,64.434998,-24.315952,-146.77658
3390000000,-4.8813353,71.398506,-92.68515,-122.04521,-85.077499,-173.06577,-12.641435,72.330688
3395000000,-7.0119696,-4.7437878,-105.81264,-174.35205,-90.891869,-122.89684,-15.56995,120.58955
3400000000,-9.0866804,147.48663,-80.810783,143.54356,-80.386497,146.37886,-28.77541,144.01877
3405000000,-2.4073851,33.954254,-87.999626,-67.485771,-89.862679,-28.347309,-11.408434,62.873428
3410000000,-18.452963,-131.77271,-90.087189,-40.70406,-89.635666,-19.061447,-15.207134,152.35106
3415000000,-3.071569,54.453793,-83.821045,-104.54951,-80.130936,-96.901367,-16.078957,42.299973
3420000000,-6.6991324,-37.406284,-78.873451,118.04956,-82.137642,126.98656,-15.256242,87.816071
3425000000,-5.0127249,116.44823,-85.588692,133.79642,-86.565376,147.74487,-17.705671,141.7991
3430000000,-3.1357994,8.5112734,-83.538582,-95.931534,-83.90461,-86.74482,-15.04529,18.547651
3435000000,-13.898483,146.3096,-84.217842,-148.19972,-80.954483,-166.53636,-12.552737,119.40441
3440000000,-3.4056761,35.500042,-96.424423,-80.684753,-92.03022,89.925003,-22.741386,-9.7529125
3445000000,-10.303119,-59.735462,-78.468834,-21.183977,-76.36615,0.7718733,-16.308018,61.62743
3450000000,-4.7271051,79.338387,-84.82859,-91.694908,-84.03788,-113.11023,-15.100029,106.39278
3455000000,-6.7691746,-20.653986,-81.306664,-170.69977,-84.024147,140.86038,-21.295479,-52.257305
3460000000,-9.1880541,102.17779,-84.763672,47.470467,-80.586128,62.040768,-12.605425,76.789574
3465000000,-3.1781857,16.433588,-85.928047,-21.615793,-87.761864,-36.84877,-22.313362,168.62451
3470000000,-13.016389,-106.03733,-88.42392,-0.11987425,-88.119453,-80.596649,-21.219973,18.417849
3475000000,-4.0487685,56.710361,-85.132118,73.770805,-81.971848,56.716473,-14.716166,83.512581
3480000000,-7.6536465,-38.581749,-78.259811,-13.185658,-76.90451,-29.644066,-21.102325,-130.31902
3485000000,-7.9242249,94.478409,-77.774063,171.29543,-77.911659,-164.27786,-14.452899,42.615116
3490000000,-3.2742639,8.3224382,-76.625107,-164.83466,-73.939644,-163.80882,-20.031378,128.10243
3495000000,-13.870588,-134.54692,-78.315575,27.933573,-78.109901,1.6409606,-37.805199,-179.46498
3500000000,-3.4243855,40.645561,-81.594604,-49.701542,-89.443062,-22.66572,-15.131538,41.603172
3505000000,-9.6149712,-67.954369,-89.815582,171.24864,-90.498703,-171.59904,-14.97331,153.95012
3510000000,-5.9502826,75.357491,-80.481514,77.135506,-85.405952,89.090431,-18.873478,-12.729951
3515000000,-3.9244297,-15.32155,-78.191826,-59.036507,-79.655746,-80.400772,-19.677444,97.889122
3520000000,-10.409664,145.28143,-76.029579,-94.992043,-79.997314,-82.486671,-23.083775,138.73892
3525000000,-2.3606265,11.662993,-74.975632,144.98799,-75.094063,142.55562,-19.856127,-23.680931
3530000000,-10.292316,-118.54927,-97.203133,-1.060357,-90.464539,-63.229801,-13.074771,103.49887
3535000000,-3.7749844,54.734264,-77.931198,-38.967003,-76.906532,-43.594563,-22.235527,-104.15443
3540000000,-5.1366606,-44.907684,-85.833855,-120.72253,-95.643822,-72.6987,-18.99082,68.764778
3545000000,-7.5112915,101.16565,-78.223885,86.390686,-78.167763,92.606995,-19.230246,117.86072
3550000000,-2.9459369,-6.632905,-80.635887,-32.213531,-81.529312,-30.00478,-21.938049,-124.58206
3555000000,-14.494993,-139.17188,-72.758965,-129.26166,-72.421265,-136.5417,-15.674253,63.092159
3560000000,-5.0429602,43.575512,-78.518806,139.27922,-76.426491,123.97011,-18.822592,173.81326
3565000000,-7.4396758,-59.120556,-76.099342,44.811104,-76.432884,42.668327,-27.62228,33.689709
3570000000,-6.0788736,76.483017,-79.416779,-54.153328,-81.264732,-71.446121,-17.532915,62.789841
3575000000,-3.5481782,-20.379211,-82.516174,154.08951,-80.514755,-178.39276,-15.582898,166.20081
3580000000,-13.46412,-158.71411,-83.568085,23.283527,-82.160637,34.349266,-17.058664,7.6828761
3585000000,-4.1085367,29.983408,-90.181412,-108.75782,-85.238487,-70.904213,-14.447954,129.95203
3590000000,-10.604318,-97.354767,-75.66922,-163.18771,-74.220085,-165.97195,-31.952831,-136.19955
3595000000,-4.307282,47.352409,-81.016594,57.093521,-81.170822,50.920784,-21.035866,39.184063
3600000000,-4.5577474,-42.686596,-81.815559,14.64222,-80.508385,13.913946,-15.037312,124.72791
3605000000,-12.203449,144.09372,-83.134621,111.23788,-92.863594,173.44592,-20.71669,-59.3857
3610000000,-3.3314502,5.4196668,-78.885643,-68.288277,-81.450737,-69.21463,-16.097023,82.746559
3615000000,-12.753658,-156.23456,-79.685654,143.7843,-77.574806,125.68024,-20.12549,131.4446
3620000000,-3.0523608,29.969666,-80.429039,26.985266,-84.001396,39.786545,-26.331589,-60.85461
3625000000,-4.8509603,-68.312431,-76.820808,-29.187424,-76.602402,-21.354761,-12.799884,85.683723
3630000000,-6.5299168,98.463745,-75.840858,170.73814,-75.989189,176.2493,-18.116459,-135.93062
3635000000,-3.4942768,-26.479597,-81.611313,31.384232,-87.401855,57.564671,-16.414907,55.909924
3640000000,-15.454951,141.07307,-76.332695,-39.548683,-77.718452,-38.720303,-21.976097,116.63481
3645000000,-4.1251183,9.8688431,-79.24353,-165.73392,-78.680893,-174.17949,-22.095469,-163.70958
3650000000,-8.8298292,-88.601974,-75.909836,99.397957,-76.077812,109.82418,-14.394338,33.383541
3655000000,-5.1531467,54.73542,-79.942009,10.887102,-78.601303,-12.66082,-16.387487,153.79646
3660000000,-4.5231633,-48.598167,-80.585243,-130.6698,-79.186073,-143.87906,-22.241631,16.330101
3665000000,-11.429624,115.46333,-78.34536,139.2094,-77.438164,142.69998,-22.244482,58.06636
3670000000,-3.7854838,7.3276396,-85.543449,-3.1987829,-83.610794,11.813923,-16.006607,137.99162
3675000000,-9.6252193,-97.093773,-86.240456,-58.487846,-78.330956,-66.955147,-16.176292,-34.97789
3680000000,-5.2506814,40.159622,-79.743866,154.66814,-77.434204,159.17039,-13.797422,112.7255
3685000000,-5.4508572,-62.335396,-87.787148,50.473473,-93.27758,53.907681,-24.076105,-74.976921
3690000000,-8.6542959,96.674706,-81.735283,-27.861538,-78.778404,-2.2399216,-24.710289,28.372061
3695000000,-2.4236219,-10.801652,-83.179131,-174.63655,-80.070412,160.44185,-16.522942,91.146736
3700000000,-10.960455,-149.93013,-94.33033,-5.4271078,-87.868713,-49.983196,-18.479137,-107.96356
3705000000,-3.3803263,15.584607,-78.000435,36.902702,-76.538437,31.397335,-15.369998,61.456192
3710000000,-8.7159281,-91.926018,-80.266441,147.12253,-79.362801,175.45398,-22.981003,175.10883
3715000000,-6.6665764,50.544468,-98.539932,57.989796,-88.115677,132.07851,-38.251125,-88.732079
3720000000,-4.1084514,-39.8927,-77.743019,95.31144,-77.208206,100.30715,-17.773085,58.742775
3725000000,-12.448261,125.7078,-85.513832,-151.1469,-92.198586,175.45264,-17.735535,-160.53413
3730000000,-2.9209182,-8.9607601,-81.358315,-74.797646,-82.509659,-60.334976,-18.661058,17.219561
3735000000,-14.253536,-118.04014,-79.857544,-163.6413,-89.04084,-138.75668,-21.688597,127.40845
3740000000,-5.6269293,23.412645,-86.567581,8.2715721,-81.118965,-69.477539,-21.24091,175.10574
3745000000,-5.6867733,-62.088928,-90.00631,40.008995,-79.747223,8.70543,-18.641922,-4.774343
3750000000,-8.5364914,84.138786,-88.699615,175.41605,-85.687111,-145.45969,-14.616056,141.7048
3755000000,-3.0195043,-22.522001,-82.051636,19.720747,-82.249969,49.606937,-21.965263,-57.111923
3760000000,-14.317537,-114.24591,-77.255096,14.258321,-79.468506,19.505753,-25.250862,111.06557
3765000000,-5.0213828,18.554729,-81.698853,136.87387,-81.660507,149.38153,-20.436384,136.65393
3770000000,-5.8278675,-76.96801,-73.697548,-107.97451,-74.467926,-110.59987,-19.512308,-82.282867
3775000000,-6.9628658,66.033638,-85.566757,5.7132978,-96.898071,-138.81613,-14.069053,93.905014
3780000000,-2.8363042,-30.93124,-80.681,113.23665,-78.500954,102.54107,-18.470608,-137.17735
3785000000,-17.746645,-139.98514,-89.711494,26.876308,-85.030373,69.941071,-26.069809,67.478836
3790000000,-3.9308002,0.0082179373,-81.317886,-12.740066,-80.914642,4.6694236,-18.67557,103.81406
3795000000,-7.6442676,-109.2455,-84.696388,66.646278,-84.754959,86.498947,-15.954214,-151.66745
3800000000,-3.9978197,36.0191,-82.19075,-82.17408,-83.101448,-63.185459,-18.001945,48.085556
3805000000,-3.3908124,-53.936817,-82.077774,170.41264,-80.725769,-175.87987,-17.128376,170.26994
3810000000,-16.893963,93.942375,-83.117943,-164.50432,-84.726959,-178.06454,-29.370443,120.27908
3815000000,-2.571918,-28.643513,-83.455696,30.237665,-81.511162,31.150246,-24.063976,51.094044
3820000000,-12.193857,-170.74796,-82.421234,-61.486778,-79.965042,-59.844158,-14.035484,152.32883
3825000000,-3.1982315,5.8988647,-80.241188,-149.77496,-79.179131,-134.04697,-20.978254,-17.709671
3830000000,-5.2404876,-66.749008,-87.40126,-107.80129,-85.412415,-130.90331,-13.877897,128.96698
3835000000,-15.190248,43.172966,-85.400543,147.62814,-83.481262,110.81789,-22.058674,-179.34285
3840000000,-4.1520672,-38.287464,-82.770866,-163.34088,-83.885368,-129.47514,-32.823021,-13.721143
3845000000,-24.114138,-147.18996,-85.586548,121.56521,-98.911438,149.11603,-13.78335,111.25426
3850000000,-4.3038545,-8.2738619,-81.355553,-19.742081,-80.644791,11.736857,-19.564407,-118.18481
3855000000,-6.3892045,-78.692772,-82.886414,4.0450711,-80.806885,24.934338,-17.113186,80.539551
3860000000,-9.6556149,19.775402,-77.969742,-164.57587,-75.483177,-159.3661,-18.419855,122.58668
3865000000,-4.2079945,-55.5406,-90.841331,58.107944,-84.902611,67.627159,-23.758247,-164.59119
3870000000,-23.088528,66.796921,-90.923073,138.68219,-99.445755,-11.819126,-13.904653,78.098343
3875000000,-2.9900165,-22.273756,-96.588692,-102.68228,-87.683998,-155.42113,-16.156729,179.42192
3880000000,-7.6018376,-114.09795,-90.277443,163.57315,-89.497559,155.99921,-21.630264,63.409073
3885000000,-4.0907602,9.0992413,-87.104759,64.058311,-86.731087,27.014027,-19.435574,87.291214
3890000000,-3.4454265,-85.963364,-81.068428,-108.53932,-82.503761,-123.9537,-15.118277,164.71684
3895000000,-10.784435,46.331993,-83.365044,109.5918,-82.750099,102.58599,-14.463418,15.958862
3900000000,-1.8558385,-45.907612,-86.277191,-102.36452,-85.074905,-122.22827,-12.356792,134.30383
3905000000,-14.066305,-143.42619,-80.324005,6.2791181,-80.345154,24.514025,-27.374121,22.68285
3910000000,-3.5269601,-15.42589,-78.850395,-175.57892,-76.560654,-165.98891,-20.35346,72.788437
3915000000,-6.2604771,-95.762482,-86.394104,-142.2906,-86.012299,-125.08507,-14.008907,117.87917
3920000000,-8.4784517,-0.53072453,-86.409019,76.289757,-87.81266,82.643578,-21.014252,-53.125156
3925000000,-4.6170039,-60.355152,-82.491676,70.823326,-81.518265,82.221008,-13.089581,97.363045
3930000000,-23.077213,-68.349144,-75.951447,-98.6381,-81.026749,-134.59291,-30.839256,131.72379
3935000000,-3.905247,-37.366062,-76.074593,44.547623,-75.861862,23.64868,-29.426611,40.664864
3940000000,-8.1682301,-105.6771,-84.690437,-114.94285,-84.557495,-126.59054,-12.483212,77.654381
3945000000,-7.3055696,-0.61445034,-83.060562,-122.96896,-81.943153,-40.893734,-18.663244,-144.65894
3950000000,-2.5415919,-76.400047,-86.326141,126.11711,-78.639717,109.95174,-13.124787,57.353836
3955000000,-18.341463,70.188156,-77.466331,56.529022,-79.087463,67.328362,-21.291397,149.53017
3960000000,-1.9959278,-48.653488,-84.156403,-100.52679,-92.001663,-55.864056,-25.585272,92.97216
3965000000,-9.1526699,-145.1382,-90.708313,-69.150482,-90.610138,-105.9972,-16.048756,46.507713
3970000000,-3.740963,-13.401009,-85.934837,58.643444,-83.956032,78.032814,-17.804693,156.40164
3975000000,-2.1923106,-101.38632,-89.488899,176.53505,-95.046509,146.76938,-17.465261,15.579465
3980000000,-10.546417,35.161541,-85.931969,-53.307556,-85.040482,4.0002499,-20.07675,83.845497
3985000000,-2.1194217,-67.503235,-74.278038,93.914192,-75.464081,80.388474,-20.156277,121.13161
3990000000,-15.896381,-141.9921,-86.460854,175.21294,-86.08976,-157.40341,-17.26075,-9.7038164
3995000000,-3.8234262,-36.776646,-74.898521,-68.829338,-75.680145,-55.916515,-13.771278,110.6848
4000000000,-5.1990395,-117.20457,-85.100716,60.832951,-81.582344,25.595818,-21.998562,-36.065029
END

