!CSV A.01.01
!Keysight Technologies,N5247A,US56070710,A.10.64.09
!Date: Sunday, November 20, 2022 21:46:23
!Source: Standard

BEGIN CH1_DATA
Freq(Hz),S33(DB),S33(DEG),S34(DB),S34(DEG),S43(DB),S43(DEG),S44(DB),S44(DEG)
3000000000,-4.0993943,-64.812584,-58.589291,154.29495,-60.87384,168.61174,-17.900406,-159.87721
3005000000,-6.4303217,-88.637215,-56.144444,101.75181,-59.09346,90.433365,-18.686335,-168.29048
3010000000,-2.5167944,-67.158569,-61.599903,7.1686831,-58.538189,7.6419554,-16.862329,-173.03354
3015000000,-5.8020425,-74.842667,-61.101707,-85.878601,-60.45961,-107.40634,-16.623096,-176.03665
3020000000,-4.9209151,-82.323265,-60.743389,-154.15135,-60.479561,-170.2565,-17.506533,-178.94038
3025000000,-3.0795641,-68.058044,-64.537704,118.23519,-64.011147,126.00838,-16.187721,178.25192
3030000000,-7.3861809,-75.891068,-62.972019,11.948046,-61.800667,4.3244109,-16.830263,178.09225
3035000000,-2.7504172,-78.975624,-61.86528,-20.54833,-62.599998,-45.483688,-16.425034,174.54407
3040000000,-4.7229753,-76.429413,-59.869602,-116.75439,-58.999264,-120.56793,-16.274868,169.72188
3045000000,-6.5028276,-75.421387,-62.038403,143.76384,-59.603691,126.63483,-16.471893,161.93773
3050000000,-2.361156,-82.491974,-58.985004,77.114166,-58.583729,70.828392,-14.977167,158.56447
3055000000,-6.9626937,-62.853271,-58.512417,18.688002,-61.956196,11.504249,-16.126705,160.79626
3060000000,-3.2233655,-85.071121,-55.137066,-97.527893,-58.507591,-90.588959,-15.867981,160.46167
3065000000,-4.5795903,-83.429832,-57.493217,169.59077,-59.309795,-172.44785,-15.61913,156.28467
3070000000,-5.5169039,-66.080452,-58.12154,64.465454,-60.019482,79.143257,-15.982065,158.8056
3075000000,-3.7302613,-94.116844,-56.654255,-2.9678397,-55.632973,-8.4646416,-15.641754,146.95222
3080000000,-4.5563898,-66.283768,-59.788471,-74.141899,-56.963627,-85.54776,-15.719311,148.2532
3085000000,-4.6966143,-86.400627,-55.084106,-162.92474,-58.446156,172.54198,-16.020947,143.10654
3090000000,-4.7468934,-92.375786,-57.710655,74.75312,-55.768356,71.396217,-15.830838,139.55099
3095000000,-3.6282229,-65.341728,-60.036243,-24.016562,-59.035072,-11.263353,-15.543777,146.71129
3100000000,-5.7907777,-102.40935,-56.856907,-82.731827,-57.549999,-89.942291,-15.415328,140.15704
3105000000,-3.6490459,-78.044472,-58.352249,172.72795,-58.436695,-174.01929,-15.863632,141.16635
3110000000,-5.1275835,-79.24501,-61.286003,100.29033,-61.702782,100.09541,-15.678909,136.52791
3115000000,-5.8344741,-93.826744,-66.111862,-23.803354,-60.024525,-1.2604665,-16.661169,130.34656
3120000000,-2.7780936,-77.762398,-60.286106,-48.436932,-73.017258,-5.6577134,-15.700966,130.12863
3125000000,-7.8665948,-93.955208,-62.070553,-150.43358,-61.824375,-133.49373,-16.527056,132.55846
3130000000,-4.5689015,-85.635506,-61.85247,-171.51233,-60.76638,118.0385,-16.096952,130.05045
3135000000,-3.4958127,-84.439163,-58.925751,88.007652,-61.085251,73.364296,-15.369286,129.01672
3140000000,-9.2348471,-89.527428,-65.916794,5.7639179,-64.174416,-4.2473073,-16.345959,128.27979
3145000000,-2.3544672,-90.735466,-55.831093,-116.50363,-60.146217,-101.36703,-15.630488,124.54639
3150000000,-7.5681429,-85.675674,-58.13102,-168.5419,-58.325832,-171.74377,-16.842798,131.52393
3155000000,-5.9107294,-88.470657,-59.130226,94.655952,-57.437439,88.451332,-17.348537,121.77461
3160000000,-3.3472941,-94.567307,-57.168003,-10.64814,-56.478622,10.168927,-16.699514,123.42422
3165000000,-8.1858959,-71.161255,-56.533276,-77.325256,-56.302906,-79.356865,-16.186941,123.13377
3170000000,-3.8155239,-106.13116,-54.392242,-177.61549,-56.274506,-171.92062,-16.221746,120.45301
3175000000,-5.5345159,-80.021278,-53.023731,82.297745,-53.910656,85.192635,-16.047668,120.64394
3180000000,-6.8592572,-89.494125,-53.953407,3.8787799,-56.453667,-6.1960993,-16.70722,126.93391
3185000000,-4.9436374,-107.51601,-54.050159,-87.358658,-53.220585,-94.458153,-17.345995,123.50043
3190000000,-5.5207062,-73.020897,-53.461674,174.27023,-53.124878,-176.53017,-17.292162,129.20729
3195000000,-6.2875557,-110.7699,-54.690716,86.855247,-54.453739,81.250107,-18.507376,117.58527
3200000000,-5.8500228,-96.136795,-54.926468,-19.407125,-57.114632,-8.5548868,-16.128027,116.43247
3205000000,-6.1197066,-81.613487,-56.793724,-91.739151,-54.335247,-88.233406,-17.187656,114.43912
3210000000,-7.171062,-119.21658,-55.81982,171.96205,-54.321842,165.24091,-17.211695,111.80959
3215000000,-4.4167438,-85.37114,-56.599388,76.841316,-58.025608,77.521523,-16.026007,114.74384
3220000000,-9.0321026,-102.31997,-58.916546,11.418151,-58.680901,28.863033,-16.627163,123.33065
3225000000,-6.3230214,-105.06486,-57.003693,-91.589592,-56.391987,-74.27433,-16.493143,118.93668
3230000000,-4.7599363,-89.590797,-58.040955,-135.11203,-61.939354,-164.25113,-16.852453,119.54629
3235000000,-12.727437,-120.77951,-64.22773,137.87616,-57.097809,146.47598,-16.826544,117.79031
3240000000,-4.2381029,-95.043739,-59.48904,59.595314,-59.687347,44.764465,-16.630697,111.68536
3245000000,-7.9725108,-103.69225,-61.0574,-43.236176,-56.024006,-18.36866,-17.061771,120.80343
3250000000,-10.751311,-97.81971,-56.990128,-103.02897,-58.858616,-119.98315,-16.726229,109.45844
3255000000,-3.8823407,-106.77505,-53.96003,155.86868,-54.359241,154.57057,-15.769436,114.53947
3260000000,-13.375449,-74.32238,-53.693401,76.070679,-54.716686,68.532028,-15.51857,118.0174
3265000000,-5.537858,-109.70358,-53.71817,-32.039749,-53.087948,-19.633451,-16.29784,112.45215
3270000000,-8.1696281,-105.52055,-54.06596,-102.89458,-53.350491,-102.75465,-15.83367,117.17587
3275000000,-10.315399,-76.996574,-52.72541,154.47607,-51.706699,162.14546,-16.674992,108.24912
3280000000,-5.3649273,-127.05443,-52.493248,57.680538,-50.572727,67.985931,-16.249712,113.57087
3285000000,-8.915926,-73.949036,-54.026485,-37.906391,-53.797749,-11.140381,-15.414436,109.35204
3290000000,-9.6860409,-113.51953,-51.288311,-124.96677,-52.765408,-104.97278,-15.861467,109.59306
3295000000,-8.2575016,-115.04028,-51.403885,151.08217,-50.634338,156.27049,-14.796703,105.63406
3300000000,-8.4236031,-73.269066,-52.910179,68.923874,-54.819199,86.738533,-14.967806,108.79905
3305000000,-9.0035267,-141.9951,-54.113853,-24.074928,-53.929123,-15.680571,-15.58162,110.96464
3310000000,-8.1877432,-86.937767,-53.21146,-100.52102,-55.832142,-110.4459,-15.263906,106.69003
3315000000,-11.220639,-102.44273,-53.698452,169.54034,-56.157513,170.13963,-16.026905,108.57835
3320000000,-12.715716,-136.10306,-56.885834,92.684319,-55.642826,94.323967,-14.944155,101.93858
3325000000,-5.583539,-83.52388,-57.276211,1.4206755,-59.008415,-8.5817881,-15.14659,96.824181
3330000000,-16.09037,-164.32994,-55.966293,-98.517944,-58.056839,-70.149826,-14.539477,102.1841
3335000000,-9.7055836,-97.740196,-55.933601,-162.24843,-56.354984,-157.84708,-15.159653,95.080582
3340000000,-9.573349,-100.13364,-53.728142,119.70049,-55.93177,119.76267,-14.23467,101.92199
3345000000,-32.062576,-122.49144,-53.381451,28.452662,-53.563805,31.454067,-16.082378,98.543922
3350000000,-5.9423723,-105.944,-54.00407,-52.136463,-54.214504,-49.967918,-14.876658,92.688858
3355000000,-23.773149,-57.090931,-54.845543,-147.40018,-55.432343,-136.48923,-14.953099,97.414116
3360000000,-11.270103,-110.47269,-52.545502,132.6032,-51.63406,124.4102,-16.00322,84.469902
3365000000,-10.052578,-110.69798,-51.444191,37.694798,-52.095654,50.094116,-14.539352,82.570854
3370000000,-15.101919,-18.060123,-50.955776,-52.58226,-50.387917,-51.135956,-14.307838,89.24382
3375000000,-8.7092943,-125.85486,-50.129223,-139.26591,-51.35342,-133.12021,-15.297406,87.832695
3380000000,-12.701687,-77.629059,-51.003098,134.21671,-51.288589,134.17386,-14.857448,87.284225
3385000000,-19.374701,-68.458054,-51.700256,44.130486,-51.12973,41.001682,-15.813051,87.110748
3390000000,-10.912436,-128.98077,-50.213905,-47.276241,-51.115486,-51.445827,-14.827575,74.957268
3395000000,-10.579322,-40.952248,-51.933487,-134.17267,-51.724419,-132.8103,-15.059438,83.659813
3400000000,-15.77899,-128.51691,-52.031708,133.23593,-50.897888,139.14709,-16.872974,75.843185
3405000000,-12.727062,-100.83054,-51.950455,43.510872,-52.318462,48.194393,-15.121799,71.192657
3410000000,-12.426452,-39.880558,-52.322922,-31.452305,-53.450428,-43.510418,-15.258442,78.670258
3415000000,-16.628834,-152.12883,-52.005104,-124.60724,-51.317432,-120.24706,-16.197466,73.141739
3420000000,-8.6282225,-62.732372,-53.761814,144.10562,-53.365395,149.85028,-15.241916,74.66893
3425000000,-28.531487,-105.97338,-53.847851,54.854851,-53.03067,68.575691,-16.543097,75.665581
3430000000,-17.270683,-62.011925,-54.555553,-23.269167,-53.884163,-12.805717,-17.36237,67.100838
3435000000,-8.7574511,-75.018257,-52.877277,-94.572792,-51.305222,-97.942062,-16.719278,72.160294
3440000000,-16.591782,51.269062,-51.528442,166.00272,-51.939735,172.25516,-18.344648,62.795662
3445000000,-9.350873,-88.47657,-53.34581,84.352936,-52.569519,84.68792,-15.785208,63.065529
3450000000,-14.047978,-16.796,-51.507668,-2.314249,-51.557091,-7.3163085,-16.581541,71.643433
3455000000,-18.557093,-47.231213,-53.403793,-83.195908,-52.208141,-106.50984,-18.428635,66.954506
3460000000,-10.451599,-95.803024,-52.158745,171.25392,-50.862724,179.72437,-16.461716,61.560852
3465000000,-10.014848,2.8172579,-51.567165,96.901642,-52.77388,94.638863,-18.757011,77.903885
3470000000,-13.496846,-107.1983,-50.626457,3.7811999,-53.616039,6.2437363,-19.260048,64.040413
3475000000,-13.055707,-46.880974,-50.351868,-84.951057,-51.975605,-74.870987,-18.939491,67.759163
3480000000,-9.9407969,-11.773203,-52.228649,-160.37364,-51.916267,-166.57655,-19.57255,64.022324
3485000000,-11.644628,-117.44743,-49.999439,111.69883,-52.524433,112.59621,-18.163574,55.304714
3490000000,-10.576756,-15.873046,-52.094608,17.099361,-52.387897,20.828123,-19.171814,71.7043
3495000000,-15.321637,-35.539406,-54.231136,-65.709641,-52.937675,-62.568699,-19.45649,58.463387
3500000000,-15.32501,-77.943336,-52.415699,-154.11525,-51.794861,-161.85442,-18.717815,67.832527
3505000000,-7.3756661,-29.991201,-50.707188,105.92532,-52.091999,112.21086,-18.794527,85.632347
3510000000,-22.139637,-159.33707,-54.034775,21.194061,-50.972469,31.956263,-21.743795,71.919304
3515000000,-8.7846222,-41.710854,-50.865467,-67.251518,-51.698006,-54.809273,-20.467649,68.441795
3520000000,-12.630253,-35.776531,-52.606369,-156.39334,-52.271793,-144.84924,-20.474119,67.476425
3525000000,-18.92708,-19.219391,-54.083294,128.88057,-53.162277,122.36156,-20.849573,67.144821
3530000000,-6.3827715,-60.834534,-55.0466,25.40003,-54.470394,40.559746,-18.550018,73.521042
3535000000,-14.494116,28.03595,-51.720875,-53.828091,-53.258846,-45.880196,-20.762283,83.678734
3540000000,-10.359956,-63.390762,-55.129246,-127.42032,-53.695129,-131.93825,-18.994913,80.39373
3545000000,-9.599535,-42.135498,-54.468525,148.53647,-55.146,145.91173,-19.774321,83.428543
3550000000,-12.972177,-2.2651277,-54.72752,56.564621,-54.192543,45.576565,-21.355131,82.768806
3555000000,-9.7131472,-84.635986,-51.806801,-34.29805,-54.017212,-27.903292,-20.519411,75.250221
3560000000,-7.9239435,-15.022161,-54.101448,-108.34576,-52.35788,-114.49507,-20.317781,82.570137
3565000000,-16.275129,-54.181004,-54.157444,157.7307,-52.834209,169.17717,-21.585863,82.833412
3570000000,-9.1647797,-65.981941,-52.826588,78.774994,-53.131744,76.888222,-19.195137,66.865433
3575000000,-8.5391846,-3.0521617,-53.214195,0.7407406,-53.674824,-8.6089973,-18.027754,88.983589
3580000000,-12.134699,-86.564987,-52.353222,-100.88126,-52.930397,-89.149887,-20.453909,74.543129
3585000000,-7.8048482,-30.563185,-51.660713,169.67845,-53.218063,174.49556,-19.056231,85.312172
3590000000,-11.583829,-29.888115,-52.577534,97.390991,-52.833145,85.158051,-21.292103,85.563087
3595000000,-15.621026,-84.648331,-52.506916,0.88494384,-52.820557,-13.782097,-19.540083,71.357292
3600000000,-5.3460746,-26.934685,-50.919937,-97.143402,-52.215187,-99.518837,-19.242098,86.307159
3605000000,-19.127409,-53.511219,-50.877525,172.11754,-51.771812,174.39986,-20.100082,73.769478
3610000000,-9.3616972,-48.298985,-53.40464,93.398941,-51.779591,91.741386,-18.699972,66.016876
3615000000,-7.9787989,-35.508553,-53.878227,1.5173594,-52.02153,0.45244178,-18.093204,82.034264
3620000000,-19.920315,8.370554,-54.559944,-85.725746,-52.891209,-83.286629,-20.875608,75.859848
3625000000,-5.161345,-57.187355,-54.385784,-174.33795,-52.893433,-179.80328,-18.229208,80.144821
3630000000,-12.063271,5.735672,-53.932484,92.79332,-54.027084,104.23219,-20.758615,83.140938
3635000000,-10.587474,-57.375126,-54.944893,32.963409,-53.896149,23.865547,-19.551836,67.788353
3640000000,-7.2455959,-47.81218,-54.196369,-65.416451,-54.012081,-70.502686,-19.127321,77.730247
3645000000,-11.102963,-1.7715144,-53.845013,-158.40923,-56.345592,-133.44655,-21.479832,68.95562
3650000000,-9.4020672,-71.473969,-52.470135,131.79427,-53.82613,135.54652,-20.371792,60.11208
3655000000,-7.4018321,-23.637501,-55.55822,44.155407,-53.707542,38.712864,-18.636866,67.602142
3660000000,-12.230221,-25.276012,-53.284809,-52.536381,-54.842976,-45.543991,-20.475,75.709366
3665000000,-8.4971533,-71.237839,-53.119488,-138.27823,-53.629116,-133.82887,-19.124617,64.829765
3670000000,-7.9359097,-8.4237843,-53.683933,138.32176,-53.434013,143.89752,-19.740532,75.749237
3675000000,-12.769818,-56.666256,-54.063007,51.41721,-52.992481,50.923019,-21.402298,65.192841
3680000000,-8.1543274,-52.951992,-54.162697,-29.017878,-53.946423,-32.857788,-20.25836,69.721649
3685000000,-7.2211814,-11.229661,-53.318874,-131.45963,-53.861782,-99.691269,-23.92724,72.585838
3690000000,-14.068228,-92.833778,-51.725155,156.96487,-51.995937,161.72025,-20.488188,54.914562
3695000000,-4.8875217,-25.933693,-52.718548,68.440376,-52.808182,70.034454,-19.180099,66.060509
3700000000,-14.92098,-40.03532,-54.187256,-18.888891,-53.12257,-27.483959,-21.997843,75.901123
3705000000,-10.867116,-43.900875,-52.730461,-101.29171,-52.797199,-118.13631,-20.39992,54.980507
3710000000,-6.0585518,-32.881264,-55.103912,162.21382,-53.5956,164.84856,-21.314087,79.290283
3715000000,-14.267722,-1.1914057,-54.418339,82.975266,-52.023106,74.157059,-21.805519,73.999496
3720000000,-5.6102552,-59.144035,-55.686707,-17.409012,-52.875843,-0.040761083,-23.095549,80.369164
3725000000,-9.7135048,-1.983297,-55.852608,-90.40345,-56.76255,-118.34952,-23.066753,73.972809
3730000000,-10.96104,-33.456982,-52.973976,166.45192,-53.418724,-172.14468,-22.256546,57.095623
3735000000,-6.2411814,-54.007385,-52.388783,85.191948,-52.619808,79.327988,-20.412018,75.692612
3740000000,-7.8609104,0.38038585,-55.377605,6.1043963,-53.650406,-9.4307795,-23.028358,91.791489
3745000000,-9.2268105,-72.604393,-52.882523,-91.685181,-53.364544,-87.859459,-24.664204,70.790512
3750000000,-6.6320653,-25.781315,-54.800518,-165.55508,-52.956196,-171.89742,-20.573027,87.991554
3755000000,-9.9298201,-8.4144945,-52.789547,107.30543,-54.133457,91.654373,-23.638803,88.578796
3760000000,-7.066515,-68.6605,-54.005085,4.9597011,-54.462101,6.7828703,-22.752136,88.015984
3765000000,-6.2692266,-12.494761,-54.242523,-63.878799,-54.739967,-73.729401,-22.329977,76.053764
3770000000,-11.103004,-38.94463,-55.329407,-171.76024,-55.185871,-177.35371,-24.283728,82.271431
3775000000,-8.402874,-49.861187,-52.864418,115.60057,-55.057644,108.58013,-20.06584,80.511086
3780000000,-5.0909944,-11.005344,-53.042839,14.035755,-57.146507,32.256264,-21.729801,102.45343
3785000000,-13.063455,-75.287865,-54.772896,-51.904819,-54.906658,-72.17643,-21.029919,84.585129
3790000000,-4.9473767,-29.858742,-57.903286,-167.38412,-56.743092,-154.48386,-19.041624,92.545738
3795000000,-8.880703,-24.053516,-55.190914,144.87733,-54.618168,110.48643,-20.915518,110.59283
3800000000,-11.303113,-40.515564,-57.044151,50.863659,-53.88176,55.104752,-22.39801,91.615456
3805000000,-3.3147964,-35.539154,-55.953781,-69.017899,-56.411762,-50.724976,-21.732962,89.133301
3810000000,-14.387117,14.40952,-55.483932,-145.74559,-54.926746,-139.58197,-19.46974,97.688362
3815000000,-4.6512427,-48.077938,-54.666656,141.41719,-53.907864,145.8495,-20.642658,88.022804
3820000000,-7.2522411,-21.611969,-56.205093,49.879311,-55.948807,44.256279,-18.77372,95.573647
3825000000,-9.0467815,-19.17454,-57.885731,-36.256733,-55.405403,-30.796774,-19.048267,87.657608
3830000000,-4.8357248,-54.148769,-56.026783,-138.07558,-55.96722,-108.18687,-17.811382,100.22871
3835000000,-6.6683698,-7.5951242,-55.779648,122.19833,-54.825191,156.0873,-19.312256,112.03096
3840000000,-8.7033424,-45.430565,-55.105606,69.478058,-59.32729,48.845169,-22.61817,94.047729
3845000000,-4.9584322,-41.117638,-58.236736,-22.610155,-57.448948,-8.5740137,-18.251076,89.448868
3850000000,-6.2308736,-8.3802662,-56.201199,-115.19144,-61.144646,-136.21008,-19.376846,93.354156
3855000000,-7.2476983,-72.326973,-55.049103,157.17645,-56.660435,171.69336,-19.270409,78.19986
3860000000,-4.2374263,-19.760248,-57.745365,51.398026,-57.278866,73.70858,-17.327612,82.343369
3865000000,-7.764771,-26.586996,-56.738102,-10.898465,-57.502403,-1.1223531,-17.641802,86.968674
3870000000,-6.9190674,-60.512238,-56.80537,-114.45095,-58.093922,-131.85278,-17.401876,92.335358
3875000000,-3.0329804,-17.967789,-57.383171,150.77701,-57.920914,142.84842,-17.636602,90.171806
3880000000,-11.303663,-69.048119,-59.13755,83.088577,-59.990623,59.222637,-18.950258,93.048508
3885000000,-4.1065063,-31.987074,-61.39798,-7.5678077,-60.380646,3.2009013,-17.041861,76.94072
3890000000,-5.0705609,-30.829363,-62.057335,-102.53001,-62.08485,-100.755,-19.069464,92.24157
3895000000,-10.991714,-38.657898,-62.835716,179.07347,-62.111645,176.58832,-18.183113,63.277641
3900000000,-1.7198017,-43.95187,-58.202141,103.41417,-62.852673,140.39755,-16.000025,81.296974
3905000000,-10.809388,-6.4477553,-62.030666,-2.4766345,-67.580925,12.972695,-18.321747,81.545471
3910000000,-4.8616529,-43.427784,-61.773403,-88.919571,-64.630013,-56.689594,-16.745966,76.993095
3915000000,-3.4344378,-39.280067,-60.218063,-155.41061,-61.856014,-134.18945,-17.239439,77.722931
3920000000,-8.2200165,-12.83133,-59.110184,107.47694,-64.197762,123.22327,-17.560427,78.243637
3925000000,-3.5174453,-60.156734,-63.629047,81.357681,-59.886646,21.631367,-17.691725,68.30986
3930000000,-5.0716662,-15.100218,-56.913055,-34.809807,-56.229576,-42.068104,-18.403706,79.568756
3935000000,-6.6667829,-38.921238,-60.946632,-135.95137,-59.513508,-101.53227,-18.101658,61.706326
3940000000,-2.7479641,-55.079132,-58.242905,129.62575,-62.187954,142.04495,-16.272703,67.628456
3945000000,-6.191545,-11.187716,-61.139877,91.832993,-62.186695,63.960064,-17.464666,72.025345
3950000000,-5.2448826,-58.883976,-61.688065,-18.989756,-63.497677,-50.509773,-16.721033,64.355545
3955000000,-3.7570596,-38.532139,-58.039585,-122.35741,-58.277634,-94.24218,-18.49457,74.391754
3960000000,-5.0894475,-20.455748,-62.745975,100.48139,-62.978493,129.44548,-17.619047,62.673279
3965000000,-4.7033758,-78.13269,-62.673412,60.944809,-63.232395,53.58189,-19.127338,70.497162
3970000000,-2.2525163,-18.387718,-58.860954,-45.072353,-60.829845,-17.81274,-17.967146,62.592785
3975000000,-7.2118578,-62.763714,-61.62746,-154.61942,-63.764778,-153.72412,-18.244802,59.778732
3980000000,-4.6310983,-45.11927,-71.851227,114.61187,-66.219749,152.24698,-18.284897,57.560291
3985000000,-2.4330761,-32.862507,-72.049828,115.04501,-67.618591,89.075417,-17.333122,59.832348
3990000000,-11.398193,-71.105141,-72.730721,148.2683,-81.486298,-87.780472,-19.520676,59.492287
3995000000,-1.1891011,-44.395706,-66.595581,-95.952606,-64.563591,-56.115795,-18.187952,64.670731
4000000000,-7.4265056,-35.972801,-67.936241,-153.87607,-64.562386,-120.07201,-20.126564,59.58955
END

