!CSV A.01.01
!Keysight Technologies,N5247A,US56070710,A.10.64.09
!Date: Sunday, November 20, 2022 00:32:42
!Source: Standard

BEGIN CH1_DATA
Freq(Hz),S33(DB),S33(DEG),S34(DB),S34(DEG),S43(DB),S43(DEG),S44(DB),S44(DEG)
3000000000,-10.05509,-176.74565,-69.853394,8.4287691,-69.22776,9.5705919,-18.668051,-145.82907
3005000000,-16.806561,74.018906,-62.542912,-59.032375,-62.758102,-58.060024,-16.723694,-147.70915
3010000000,-11.579279,134.86932,-61.453533,-141.94373,-61.385372,-140.35626,-15.726243,-154.41486
3015000000,-10.454443,175.11105,-66.826889,162.27676,-66.386627,166.93533,-15.995715,-147.2811
3020000000,-18.586815,56.530884,-67.0867,84.967339,-67.371033,78.57608,-16.285959,-165.25304
3025000000,-6.9086514,141.36526,-72.507545,-80.419807,-73.409599,-82.974594,-14.43048,-152.27365
3030000000,-22.671581,-178.97906,-69.129807,-33.161911,-69.933083,-36.599075,-18.809725,-170.68193
3035000000,-13.219066,81.637665,-82.549881,0.90100837,-81.663559,-28.67001,-13.42864,-164.28612
3040000000,-7.3616786,152.58954,-72.061691,-111.11829,-72.965881,-110.28533,-18.633293,-169.29634
3045000000,-24.65522,-120.51721,-72.752464,172.3109,-71.180931,161.72934,-15.16146,-174.99733
3050000000,-8.4629841,107.37317,-62.269817,100.24328,-62.284657,102.83231,-14.756558,-179.95349
3055000000,-8.9038897,141.28772,-65.197258,36.886818,-64.724251,33.281059,-16.047285,-163.9328
3060000000,-17.958862,-18.517351,-68.587387,-33.056442,-70.309837,-23.422644,-15.099969,165.41125
3065000000,-5.9044752,122.54665,-70.847725,-102.96001,-71.570419,-96.928864,-15.022624,-164.24693
3070000000,-14.467284,-172.21619,-64.025017,-121.13122,-63.501427,-120.40663,-17.325489,161.67696
3075000000,-10.810088,88.397156,-68.605278,-139.11884,-69.930527,-137.64482,-15.382135,175.7269
3080000000,-6.3330173,116.26986,-60.347878,-177.91322,-60.347816,-179.62862,-16.766285,168.18451
3085000000,-13.909623,-133.2773,-64.14827,78.553986,-64.197777,80.984085,-16.905035,164.95482
3090000000,-6.68328,86.172859,-64.985542,8.7332773,-65.032707,10.284799,-13.980553,159.65042
3095000000,-9.7545214,160.0222,-76.321831,-60.767635,-73.732414,-58.265717,-17.777664,-177.07593
3100000000,-14.819877,114.04688,-70.834885,-94.090065,-70.90377,-83.724037,-14.869723,147.41161
3105000000,-7.3448524,85.631027,-78.22139,-45.587879,-79.603256,-33.973404,-15.909835,179.77179
3110000000,-8.4948034,157.41214,-72.959396,-131.64642,-73.507271,-117.55863,-18.03462,144.83031
3115000000,-13.256632,34.378914,-66.596176,84.587318,-65.737038,84.654831,-16.258406,161.57961
3120000000,-6.5065451,116.28577,-63.764423,73.952446,-62.618023,79.208565,-17.368414,150.92409
3125000000,-11.518454,166.02853,-64.386833,-40.583508,-65.401909,-44.830952,-17.583914,155.30716
3130000000,-7.2886758,58.41721,-65.217979,-75.009674,-64.891975,-74.876656,-15.827261,141.4108
3135000000,-7.3336473,124.97917,-70.622681,-168.45956,-73.448586,-172.12169,-17.608019,172.83369
3140000000,-19.635038,101.02437,-63.043896,-150.40472,-63.306824,-154.26788,-16.469492,128.09229
3145000000,-10.681897,66.246078,-69.291855,146.64845,-70.032196,151.4566,-16.58341,164.52248
3150000000,-5.0341706,133.44862,-67.568207,109.6431,-67.959251,113.67429,-18.799572,145.87813
3155000000,-12.43537,38.402729,-71.381447,38.386562,-71.159813,31.550669,-18.794153,139.49928
3160000000,-6.6337337,92.904465,-61.954311,-66.362396,-62.482697,-60.142372,-16.306807,150.73622
3165000000,-12.882582,115.43618,-61.382874,-87.416618,-62.135151,-88.237961,-20.537014,131.29259
3170000000,-17.238476,77.803467,-71.708733,-130.49684,-72.080826,-128.78748,-15.416332,142.96388
3175000000,-5.6016784,102.02524,-69.83287,-176.83755,-69.963539,-173.46939,-18.184717,157.77769
3180000000,-21.636305,110.43625,-72.43129,77.347321,-72.189896,78.378418,-18.985594,130.03593
3185000000,-6.3598218,61.994732,-63.434906,85.717461,-62.294083,83.729149,-15.829914,157.29585
3190000000,-9.3845091,106.64277,-65.534439,19.610651,-64.631393,16.895052,-22.09207,149.80165
3195000000,-20.297569,87.863098,-65.233131,-81.429619,-66.101585,-82.094002,-19.564682,135.71307
3200000000,-5.7777314,68.398766,-66.953537,161.81351,-67.21183,164.06561,-16.616926,136.80017
3205000000,-7.8536744,128.63033,-66.083649,-135.60466,-64.875801,-144.90996,-24.171614,154.51453
3210000000,-9.9616528,29.995609,-74.045532,158.86888,-74.932198,158.70709,-14.411494,124.45309
3215000000,-6.4829187,78.936913,-67.731377,119.8363,-69.824532,122.49815,-20.615175,163.57709
3220000000,-14.898869,121.22033,-69.635399,17.629339,-69.820251,13.16442,-16.55891,132.49237
3225000000,-9.8219109,40.878708,-66.475166,-32.304802,-67.152855,-31.052595,-18.303999,143.6651
3230000000,-5.8126411,94.972382,-68.138115,-179.1254,-68.933922,179.26367,-17.920057,155.4205
3235000000,-13.903307,82.237297,-72.145302,132.95483,-75.704453,123.65898,-20.756613,122.65502
3240000000,-4.9299698,33.359203,-77.669212,-13.937242,-75.452499,-16.287455,-16.502178,140.02319
3245000000,-7.5838804,128.88852,-73.603439,-117.49883,-72.537125,-120.3688,-20.152939,153.41684
3250000000,-11.41009,30.314825,-72.419304,100.46712,-71.757225,86.33799,-17.484261,114.51022
3255000000,-6.7832174,69.072739,-63.913216,-9.2550526,-63.629498,-7.0920949,-17.416002,153.28323
3260000000,-8.9617643,93.487282,-63.013298,-83.356613,-63.746288,-81.7388,-17.1313,117.9363
3265000000,-8.4062977,8.6851282,-66.327858,-166.33159,-67.448212,-164.37544,-17.640663,145.49368
3270000000,-4.9094725,78.833084,-65.73558,120.53912,-65.544716,122.24645,-16.774475,134.46645
3275000000,-46.010937,-82.766075,-74.898537,-23.187422,-74.237091,-26.339554,-21.425776,126.98611
3280000000,-7.2334533,57.926029,-70.797783,177.01184,-71.721321,-172.10124,-14.425795,128.75264
3285000000,-5.8930035,72.00087,-64.76503,85.84761,-64.80513,87.016594,-20.739824,143.78107
3290000000,-16.690525,-25.207483,-68.225861,-12.587175,-67.592354,-10.19888,-16.482391,116.33891
3295000000,-5.6704454,41.654652,-65.673294,-108.72101,-65.411354,-113.15192,-15.429559,130.39249
3300000000,-8.8093348,94.797638,-66.067322,139.98691,-66.948067,140.29613,-18.504972,138.10146
3305000000,-12.143517,-2.4214373,-66.38308,79.572289,-66.148537,80.095146,-16.45545,116.06911
3310000000,-4.6843138,59.134834,-84.36541,-56.319725,-80.23864,-70.269554,-16.436478,139.41638
3315000000,-15.439151,82.439774,-67.079933,166.9016,-69.597107,174.80959,-20.332525,109.75394
3320000000,-7.9927711,14.692384,-69.825562,64.516968,-70.78849,56.652584,-14.986776,116.2523
3325000000,-7.5551672,51.487438,-63.141689,-47.322803,-62.864826,-46.951214,-19.140718,126.23348
3330000000,-21.91482,166.76851,-61.251541,-140.86792,-61.37891,-140.76282,-15.545876,106.58118
3335000000,-3.5488057,25.191704,-68.013733,119.08394,-66.50946,117.13162,-16.297901,117.22311
3340000000,-9.3057308,82.962936,-63.911072,32.267899,-63.728199,28.829193,-16.554949,123.26411
3345000000,-10.033137,0.89331454,-78.70916,-93.300507,-80.997978,-31.141178,-17.689487,98.276093
3350000000,-6.7121892,17.570314,-69.020424,59.593197,-69.400085,54.94067,-14.861732,123.8994
3355000000,-9.4722185,98.509705,-65.276505,0.33969688,-64.416611,-2.7543435,-22.461927,92.043594
3360000000,-8.8524332,-15.947892,-64.513039,-83.914032,-65.272339,-87.000061,-14.666358,103.43053
3365000000,-3.8152964,47.463917,-65.923065,-173.85686,-65.367149,-171.72807,-19.929434,102.93103
3370000000,-15.298706,0.68307388,-68.323296,69.010208,-70.441666,71.59433,-16.042267,94.403763
3375000000,-7.2343965,-1.0066625,-68.588585,-64.076225,-68.984161,-62.18858,-16.456665,96.55352
3380000000,-8.4313822,69.40567,-68.086739,146.8793,-68.560799,143.64311,-17.860092,112.83243
3385000000,-17.187231,37.711498,-67.380211,14.944133,-67.696365,15.069192,-17.487249,77.580139
3390000000,-3.4885638,6.4253359,-64.217621,-75.578835,-64.102737,-79.480812,-16.439152,103.30593
3395000000,-11.3884,82.982323,-65.049004,-177.98969,-65.600739,-173.53061,-20.239698,86.588951
3400000000,-7.9698782,-31.054804,-65.357208,95.92955,-66.177383,96.250923,-16.33663,82.348312
3405000000,-7.7634335,28.815199,-71.178268,-26.5347,-70.562614,-27.799683,-19.700724,94.089012
3410000000,-11.178185,59.00528,-65.34391,-177.88235,-64.988449,-175.0629,-16.907612,74.668808
3415000000,-5.8914461,-19.439306,-62.459972,60.777851,-62.973137,69.143356,-18.241678,85.284225
3420000000,-5.950376,42.362797,-61.224934,-28.269571,-61.019939,-28.600441,-17.545963,98.092957
3425000000,-22.051378,-30.201363,-61.940975,-110.84037,-61.736549,-116.78175,-21.55142,48.31488
3430000000,-5.7532043,-6.1083016,-63.43412,128.0199,-64.067932,124.76925,-16.350529,95.255501
3435000000,-10.857965,62.987717,-63.789726,37.5867,-63.773701,41.549129,-23.806362,50.537323
3440000000,-11.461812,-19.852144,-64.487251,-89.387634,-64.495956,-93.865128,-19.86087,70.634834
3445000000,-5.345644,2.5080481,-63.292545,133.90163,-63.181328,134.4136,-17.735754,67.238327
3450000000,-11.568253,48.820053,-61.524174,45.519554,-62.322971,38.476326,-24.342478,83.075119
3455000000,-8.279027,-47.524563,-60.209507,-71.619835,-60.181892,-70.853096,-17.58305,60.441418
3460000000,-6.8148265,34.074532,-58.554977,-154.40242,-58.435856,-157.2748,-21.531445,95.98632
3465000000,-16.654873,-7.5450721,-60.793781,102.79675,-60.457027,103.44184,-23.806776,54.90247
3470000000,-7.3849778,-20.209475,-62.07914,-30.778864,-61.938496,-30.701256,-18.586498,73.668221
3475000000,-6.4676542,26.556681,-63.345158,-135.37569,-63.245731,-134.52953,-31.165886,117.96523
3480000000,-13.120346,-86.437195,-61.82592,112.06857,-62.096451,107.04655,-20.816273,51.431107
3485000000,-4.4797006,-4.4419761,-60.221825,14.407092,-60.038502,15.040084,-22.195786,60.632832
3490000000,-13.906434,77.884598,-58.690998,-86.79232,-58.589291,-87.806747,-24.363205,116.33093
3495000000,-9.4952745,-24.991482,-58.588097,164.72429,-58.62072,165.9975,-18.786613,25.18918
3500000000,-5.1705403,-5.9817376,-59.714363,74.601639,-59.423969,73.980522,-18.490465,120.26335
3505000000,-22.201824,73.737633,-62.934856,-38.614178,-63.383736,-42.848946,-24.356014,11.64829
3510000000,-6.8232274,-48.754707,-63.772682,-158.88951,-64.162994,-159.39713,-21.596581,99.491653
3515000000,-6.2875438,32.593475,-62.014988,91.793892,-62.272278,90.208092,-27.91205,82.077118
3520000000,-23.182964,-70.724327,-60.622807,-10.945871,-61.084404,-11.087222,-29.319681,32.047909
3525000000,-4.9871211,-25.333763,-57.678703,-119.33752,-57.904541,-119.91836,-20.486948,72.315262
3530000000,-11.676525,7.7261767,-58.108952,153.59821,-58.648075,153.0659,-24.131355,116.21049
3535000000,-15.953801,-80.690453,-59.515778,45.918221,-59.846912,45.920834,-26.925749,40.351688
3540000000,-6.2593584,-16.596994,-62.945004,-46.083202,-63.045788,-49.533108,-18.612053,104.50848
3545000000,-9.2346601,51.412457,-63.368187,-178.3631,-63.557571,-176.58154,-34.061588,-131.66718
3550000000,-5.5454197,-58.064846,-59.850857,52.104652,-59.258678,54.916199,-19.699705,83.848396
3555000000,-8.8861666,23.222034,-60.233379,-30.448055,-61.01421,-33.041576,-31.27146,147.53564
3560000000,-14.696037,-45.648258,-58.533241,-140.74792,-58.6269,-140.04317,-25.742651,96.55455
3565000000,-12.870115,-71.994347,-61.752972,132.00121,-61.211506,136.04659,-23.847263,55.29068
3570000000,-3.9304135,13.618464,-62.083405,29.746048,-62.579594,30.202181,-21.764568,118.28713
3575000000,-12.878305,-123.84201,-61.985039,-86.903122,-61.541679,-86.351547,-26.101377,48.737194
3580000000,-5.082366,-26.801558,-66.478897,142.12651,-67.863831,139.2195,-19.880798,101.98241
3585000000,-14.255487,12.172297,-62.860535,54.722149,-62.316753,50.939793,-26.577625,116.2846
3590000000,-15.65492,-111.87006,-66.246307,-77.698067,-65.652939,-78.798767,-27.182747,73.29863
3595000000,-4.0862904,-14.082951,-64.357315,-149.50961,-64.095024,-150.80022,-20.059757,97.457481
3600000000,-22.051775,47.372776,-60.949825,121.39152,-61.068462,121.39007,-31.514181,151.41783
3605000000,-7.5089798,-56.436028,-66.911842,41.91592,-67.01796,33.987633,-20.945917,57.489239
3610000000,-7.2776623,-5.7517843,-66.524879,-53.390358,-67.099922,-56.246712,-21.426191,112.94572
3615000000,-19.984177,154.70528,-71.153984,-166.93793,-72.42308,-167.05054,-27.789162,67.261185
3620000000,-6.6159806,-41.970268,-67.716721,47.704784,-67.560394,40.483749,-20.615046,79.186638
3625000000,-9.9067965,0.33404151,-67.220093,-36.578667,-66.78904,-33.194046,-23.80682,117.18417
3630000000,-28.159555,1.6992922,-65.549675,-130.74765,-67.561325,-130.67123,-27.3645,77.868813
3635000000,-3.6991413,-58.313602,-63.416328,124.99394,-63.046757,126.69426,-20.716,67.630127
3640000000,-10.504388,64.698486,-68.40052,14.752767,-69.229446,11.316662,-22.538404,150.04689
3645000000,-7.4263706,-68.723991,-65.297371,-54.236526,-64.983826,-56.068436,-19.142216,17.33466
3650000000,-9.3760815,-5.1666555,-66.837837,171.50546,-67.501015,-175.87122,-18.259264,115.71215
3655000000,-9.4214697,-8.8641729,-70.750481,105.0299,-72.576653,94.103111,-25.462921,9.8699722
3660000000,-6.4724307,-93.215607,-64.515015,-21.433867,-65.315712,-18.42675,-21.821953,89.554756
3665000000,-4.8633471,19.105631,-69.798431,-137.19002,-69.951675,-125.78254,-22.528137,86.24659
3670000000,-12.661879,-120.03366,-66.775658,140.68027,-66.477066,138.97963,-42.040833,152.58783
3675000000,-7.8526177,-30.985109,-65.2379,34.896015,-65.213158,31.832199,-20.981602,62.610828
3680000000,-8.5612726,-11.262532,-69.85331,-48.28117,-70.733795,-44.888176,-25.28013,144.56094
3685000000,-12.227581,-107.14017,-66.816841,-147.10507,-65.750824,-144.61803,-24.521376,-14.992928
3690000000,-5.4218907,-29.711555,-68.712456,93.694908,-69.044426,98.426331,-19.918482,79.8843
3695000000,-17.417538,33.613155,-66.142616,-15.489853,-67.288994,-10.244805,-34.106232,-85.062866
3700000000,-10.629614,-81.471802,-64.802734,-108.82626,-64.638329,-106.36871,-21.663897,61.819298
3705000000,-3.8474712,-15.689705,-67.908264,158.31412,-68.804665,149.65254,-26.738232,58.527161
3710000000,-14.120085,-160.07819,-65.584885,47.788193,-64.956696,53.000626,-25.434307,143.19005
3715000000,-5.49793,-46.430199,-67.404083,-38.739483,-66.312317,-38.575489,-20.760649,26.933617
3720000000,-9.942627,-22.484497,-64.998627,-153.26019,-64.946198,-151.09921,-20.620405,153.35892
3725000000,-21.260611,129.96123,-63.157188,85.344986,-64.121895,82.152229,-24.004614,-6.9673691
3730000000,-2.2936172,-48.567154,-65.756981,10.886469,-66.148697,14.651804,-25.8528,95.081474
3735000000,-13.591475,60.978352,-64.375862,-99.272629,-63.958164,-99.892349,-26.188816,110.61125
3740000000,-7.3402328,-66.61393,-66.363464,163.81709,-65.915573,159.43112,-35.539158,-30.918661
3745000000,-7.7147403,-57.990383,-62.553391,46.14394,-63.312851,50.502144,-21.97707,100.47987
3750000000,-8.959527,39.087894,-62.735817,-46.789818,-63.395145,-46.165684,-28.242754,-168.66347
3755000000,-4.6115746,-102.11726,-65.037552,-140.39067,-65.834351,-136.30573,-28.431772,32.224136
3760000000,-3.597023,1.0448116,-65.269173,105.95935,-65.970711,110.68646,-21.336868,137.32484
3765000000,-7.0833077,-91.539879,-64.305084,3.109874,-64.78817,5.8847313,-27.106647,-59.847164
3770000000,-10.604832,-95.863098,-64.074448,-123.76396,-63.911919,-112.9152,-22.351698,101.50474
3775000000,-4.6010947,-1.7477245,-65.299675,162.2318,-66.033493,162.26514,-30.409798,97.666214
3780000000,-11.766176,-127.49804,-65.326714,35.657341,-64.52417,38.272388,-25.438135,165.66675
3785000000,-3.2344851,-42.771587,-64.644478,-49.319019,-64.362831,-47.900494,-20.210724,61.954346
3790000000,-12.28341,-46.956657,-64.628929,-142.29195,-64.919998,-145.00592,-17.591879,170.27847
3795000000,-8.5617762,-131.1134,-62.212234,89.2435,-62.264133,89.535759,-25.726669,26.766161
3800000000,-4.0693321,-16.99436,-65.873589,-3.8103492,-67.081322,-9.6344538,-19.344189,142.46712
3805000000,-12.853359,-60.794907,-64.838402,-117.20335,-64.949005,-114.48918,-38.549686,-162.78763
3810000000,-8.0983381,-85.94239,-62.584343,153.93924,-63.146355,158.45195,-24.120356,97.596581
3815000000,-3.6225693,-49.57222,-63.054562,56.961006,-63.254982,50.234264,-22.26148,120.59296
3820000000,-8.963788,137.64108,-62.681229,-57.794567,-61.782166,-58.673691,-25.444811,147.12885
3825000000,-1.0026186,-51.434738,-59.894623,-149.48346,-59.957619,-150.55296,-21.973455,74.310837
3830000000,-20.922806,-74.788635,-65.907822,91.054131,-64.862488,93.04274,-16.641953,140.58994
3835000000,-10.649916,-62.50639,-64.634514,3.4963615,-64.199364,4.508894,-43.199539,-40.124062
3840000000,-3.7696741,-84.659676,-64.310745,-112.7172,-63.546776,-111.17081,-18.208181,114.63184
3845000000,-8.9104023,36.492321,-64.874588,149.23811,-64.981911,141.22176,-26.843029,150.24919
3850000000,-2.4837263,-90.812683,-60.93539,36.621689,-61.695591,36.336418,-24.810419,102.57079
3855000000,-10.260646,-55.589035,-63.353645,-68.915588,-63.044781,-63.458515,-19.228128,93.174385
3860000000,-13.67261,-37.008648,-63.833054,-162.37422,-63.790848,-164.04062,-21.978359,160.05092
3865000000,-4.7265153,-93.041306,-64.034447,113.73653,-64.007378,106.11539,-17.49943,64.572174
3870000000,-6.316381,-28.103622,-64.083107,-22.214558,-64.386803,-21.645006,-16.975121,147.43619
3875000000,-7.2015829,-109.21698,-64.861687,-132.31973,-66.349091,-134.56198,-23.860224,63.072433
3880000000,-7.8110089,-101.56287,-62.081768,128.72513,-62.503956,131.49704,-20.774244,115.21994
3885000000,-5.2638769,-6.0927749,-63.197289,28.226048,-64.06237,22.742838,-19.632109,104.49129
3890000000,-2.856581,-115.28371,-64.181747,-72.564934,-64.062798,-73.811272,-42.721863,163.42508
3895000000,-6.1620336,-52.925934,-62.019451,-170.82494,-62.462307,-171.84789,-15.681095,74.40963
3900000000,-8.7222853,-88.47876,-62.737511,91.662239,-63.032429,94.476357,-20.587324,143.72681
3905000000,-9.8969412,-132.73032,-65.344475,-20.106323,-65.215141,-19.320118,-19.361217,49.775997
3910000000,-1.9726073,-31.317774,-66.079094,-133.05275,-65.272629,-129.09198,-16.61034,114.10277
3915000000,-5.1950612,-137.52512,-61.899536,121.92381,-62.274979,122.75517,-27.187765,66.067772
3920000000,-5.0668793,-68.105789,-64.944656,13.356734,-65.544899,22.530239,-19.762697,96.896576
3925000000,-9.0299587,-88.997223,-65.531487,-86.403381,-64.440125,-82.03566,-20.137934,74.645782
3930000000,-21.919203,157.86484,-63.521198,160.68199,-64.794098,161.82692,-24.232595,156.38365
3935000000,-0.63973624,-77.13739,-66.023781,56.072098,-65.525482,55.659733,-14.859159,41.836159
3940000000,-24.261057,-8.2245197,-64.569908,-35.652134,-64.698402,-37.331203,-18.052986,140.81898
3945000000,-3.502625,-117.59594,-64.9132,-133.74289,-65.166847,-145.02469,-17.766912,31.112974
3950000000,-6.2469811,-63.158871,-66.465172,116.29749,-67.10247,118.87997,-17.923225,100.09333
3955000000,-19.138325,-103.96462,-64.381851,5.1032581,-63.783649,1.972669,-25.037275,89.44619
3960000000,-4.3386121,-101.41938,-66.061234,-103.55815,-66.733917,-99.485886,-21.498604,44.093597
3965000000,-7.7824168,-68.497574,-64.335663,147.14497,-64.858574,156.89348,-18.993874,93.661659
3970000000,-10.760859,-137.41582,-69.286888,70.272842,-67.835892,78.432419,-32.505779,44.484577
3975000000,-2.8031309,-106.32079,-67.771645,-34.522991,-67.498215,-38.306503,-18.137991,39.051594
3980000000,-11.105412,-32.00172,-66.426071,-131.29099,-65.592331,-132.45914,-18.638882,110.25215
3985000000,-4.9838161,-127.22516,-67.587517,114.91991,-68.917397,118.88049,-21.042439,3.7870035
3990000000,-7.6210876,-84.104843,-67.773643,-32.497414,-70.09391,-20.267408,-18.486977,89.590729
3995000000,-8.6649494,-72.844139,-68.339272,-107.77956,-68.136703,-97.906425,-25.673143,54.939606
4000000000,-2.6175761,-151.86667,-63.663094,113.90266,-64.209816,108.96851,-32.985588,34.305923
END

