!CSV A.01.01
!Keysight Technologies,N5247A,US56070710,A.10.64.09
!Date: Saturday, November 19, 2022 00:57:58
!Source: Standard

BEGIN CH1_DATA
Freq(Hz),S33(DB),S33(DEG),S34(DB),S34(DEG),S43(DB),S43(DEG),S44(DB),S44(DEG)
3000000000,-13.323731,-149.48996,-66.222198,-79.938591,-66.236702,-83.164169,-14.06885,-145.57739
3005000000,-11.313605,124.98148,-66.349464,-153.18547,-65.839943,-156.54352,-16.743942,-154.42317
3010000000,-15.728078,156.39708,-67.883995,61.170879,-69.022461,61.516666,-17.006483,171.91547
3015000000,-10.57821,159.40565,-70.475838,27.568867,-69.786621,13.187378,-12.302488,-153.29839
3020000000,-16.01388,86.363472,-73.149368,-145.72069,-72.265701,-139.29813,-22.11529,-166.0038
3025000000,-11.244302,163.56584,-69.557701,140.09528,-70.094803,138.77147,-12.394699,-176.88277
3030000000,-16.893154,125.68726,-71.171249,32.261456,-70.287605,34.535088,-16.328033,-167.2424
3035000000,-17.738192,136.01956,-68.7761,-106.47631,-68.368866,-112.4594,-19.492031,-167.30577
3040000000,-7.4266338,151.1777,-67.808792,-161.05438,-67.083633,-157.39966,-11.875874,170.30714
3045000000,-16.693512,68.542183,-85.898392,-12.769499,-79.993294,-14.808593,-19.641676,-166.27406
3050000000,-12.509192,143.42479,-72.113197,-35.292122,-73.59594,-36.232708,-13.738131,159.37959
3055000000,-11.996484,131.07483,-74.688492,-147.75125,-76.641556,-153.52754,-14.401878,177.78862
3060000000,-21.951717,160.96661,-75.154221,99.384117,-76.820518,76.287842,-15.462832,-177.19121
3065000000,-6.7288299,127.00798,-69.219414,-20.770796,-69.396072,-30.000462,-14.529777,143.77289
3070000000,-26.765972,115.8442,-74.90744,-41.438957,-76.037048,-37.964348,-14.898031,-162.81436
3075000000,-9.9998064,125.83229,-80.106087,14.244651,-80.714249,4.1987681,-15.826804,143.78604
3080000000,-10.188965,111.35722,-69.55423,17.232819,-70.25856,21.71286,-14.702631,152.40401
3085000000,-14.684041,-157.68649,-72.244247,-87.406837,-72.155502,-90.051254,-15.543568,178.25421
3090000000,-6.5281858,104.97846,-71.499962,152.61441,-71.727234,155.2753,-16.593994,128.00522
3095000000,-17.002159,166.57411,-77.310921,86.280655,-77.48333,76.384979,-12.638425,167.1593
3100000000,-9.2345514,119.02344,-82.687561,28.711954,-78.00396,11.491561,-18.322805,137.75175
3105000000,-11.10343,85.168953,-74.505241,157.21426,-74.72847,160.20459,-17.619974,154.60088
3110000000,-10.393546,161.35551,-70.980957,112.49164,-69.85952,106.03672,-12.799103,153.09183
3115000000,-12.211924,81.637856,-76.720245,-0.69828326,-76.007744,0.60134846,-26.019951,127.06123
3120000000,-9.2812681,128.80013,-71.273338,-110.3476,-71.435326,-117.17874,-13.342553,136.06474
3125000000,-10.557797,123.41032,-72.017883,165.12816,-72.433807,156.99585,-17.550222,158.03325
3130000000,-9.4519043,61.751808,-76.892822,-108.45761,-77.881615,-101.6302,-17.351902,134.54823
3135000000,-9.8585052,144.68726,-69.032616,-122.39564,-68.821312,-121.8057,-13.964319,130.57922
3140000000,-12.510537,99.353691,-69.022385,-150.51575,-69.481224,-154.73895,-19.879826,-178.24471
3145000000,-11.996438,108.59371,-68.661354,107.58799,-68.235222,105.53998,-14.162177,126.1292
3150000000,-6.7647977,114.70766,-64.861877,-28.966307,-64.728432,-32.846085,-17.896032,141.30974
3155000000,-12.383153,43.92041,-80.065453,-156.42865,-78.03109,-130.27393,-19.580288,156.95116
3160000000,-9.3758898,119.23221,-67.415947,103.99151,-67.030144,101.51953,-15.446728,111.15876
3165000000,-12.115788,92.607323,-64.705681,22.367443,-64.777,22.625267,-15.55694,158.49382
3170000000,-11.45506,126.57126,-65.388008,-74.307434,-65.993393,-67.481735,-17.605831,108.28549
3175000000,-6.3880568,87.864319,-69.837669,162.85771,-68.658043,169.26254,-17.499826,142.48399
3180000000,-21.643673,88.892204,-68.276024,78.793159,-69.711525,75.665482,-14.018971,149.62083
3185000000,-7.0554934,82.382706,-71.448837,-22.733294,-70.146782,-31.64179,-22.60161,83.055992
3190000000,-15.523473,93.798569,-67.42688,178.07434,-66.905136,-175.11659,-13.952789,151.34351
3195000000,-11.152705,122.3877,-63.964714,92.986374,-64.007523,94.827187,-25.178963,120.12993
3200000000,-5.7644405,76.549919,-64.978493,5.4735327,-65.269783,-1.7720747,-16.141766,123.56482
3205000000,-12.195068,108.12057,-67.316467,-80.457481,-66.854897,-85.114906,-17.021267,130.86072
3210000000,-9.9093056,54.079052,-67.010696,146.80257,-67.274391,150.50467,-24.518944,148.69403
3215000000,-14.798341,95.861572,-67.249336,34.916916,-67.801849,31.628971,-13.403293,121.34531
3220000000,-8.6895714,110.13317,-65.832069,-72.786652,-66.418533,-71.043976,-20.304531,142.53767
3225000000,-7.6521459,61.890427,-65.369888,-166.99594,-64.810638,-173.34898,-19.481022,141.03748
3230000000,-10.92125,79.758705,-65.85231,90.130325,-65.790802,84.185623,-15.393822,119.93028
3235000000,-10.355501,76.983444,-69.582016,-10.821961,-69.429352,-7.3547187,-19.774694,161.89587
3240000000,-10.430757,42.539867,-64.385826,-117.94935,-64.66626,-123.91904,-16.027559,101.55145
3245000000,-8.5601997,116.0548,-64.46048,122.34531,-64.870796,117.70151,-17.774935,154.24408
3250000000,-9.2083502,52.809097,-63.548027,28.514912,-64.183044,17.729967,-16.58567,124.93343
3255000000,-8.0600243,83.852615,-64.103569,-79.214264,-63.978737,-84.94014,-18.135588,94.142914
3260000000,-7.8636622,49.617764,-66.249847,-174.16942,-67.047417,-178.81709,-14.00691,150.12601
3265000000,-19.081779,11.436387,-66.838753,78.155304,-66.617668,75.513565,-19.777147,103.97727
3270000000,-5.9466815,89.997482,-65.697144,-46.137932,-66.180382,-52.318626,-16.004444,129.00789
3275000000,-12.382595,43.695351,-66.25602,-142.34987,-66.284019,-142.90445,-17.87606,121.60129
3280000000,-7.4536982,77.947449,-65.048752,115.34467,-64.937462,114.4873,-20.665482,121.18981
3285000000,-7.3576722,43.128414,-64.460777,8.9366159,-64.635384,5.0198736,-13.074774,116.18282
3290000000,-25.749325,-5.7729406,-66.592232,-75.032494,-66.659019,-79.86132,-21.410963,120.02761
3295000000,-6.9305172,64.631622,-66.720612,167.38278,-68.432472,159.61226,-16.155365,123.03736
3300000000,-11.645691,70.047829,-64.408501,50.976456,-65.082893,47.914867,-14.282661,110.18156
3305000000,-8.8807726,53.291267,-66.087196,-55.566456,-65.197586,-58.564617,-19.08367,146.69096
3310000000,-7.3292708,43.2728,-65.303505,-156.41217,-65.790123,-156.75945,-14.453286,96.699966
3315000000,-18.405367,61.932251,-66.813034,112.64364,-66.324547,108.75428,-17.881441,148.61214
3320000000,-8.4142981,45.697594,-67.716408,15.071019,-67.52021,14.972707,-15.052296,97.703575
3325000000,-13.593781,54.54409,-66.138672,-93.636215,-65.75898,-107.94824,-18.390667,87.744774
3330000000,-9.2101221,64.798233,-66.317894,152.39182,-66.330475,150.1387,-13.458968,126.40101
3335000000,-5.5526586,20.750055,-66.395782,62.784294,-66.554214,59.804855,-17.378654,77.568558
3340000000,-14.738332,73.800827,-64.955772,-40.113625,-65.466385,-40.067787,-13.745968,116.40871
3345000000,-8.8965025,27.152649,-66.382401,-147.21198,-65.858917,-144.74747,-19.17461,112.00597
3350000000,-12.085229,41.661736,-67.497856,115.3272,-67.324081,112.097,-17.504543,90.152237
3355000000,-7.3698649,67.038078,-68.021172,-6.3175449,-66.775978,-4.7609997,-14.310536,109.27365
3360000000,-8.5218716,-6.0718646,-66.587883,-83.610016,-66.160294,-87.443436,-21.807699,54.80043
3365000000,-7.5259538,55.767735,-66.947433,175.41154,-66.395042,169.47423,-14.037072,97.530174
3370000000,-9.6359234,-5.4747,-65.391052,68.863617,-65.079163,64.274704,-15.39016,89.505173
3375000000,-11.732827,52.906773,-66.010002,-11.872311,-65.833794,-21.468126,-21.468447,96.114105
3380000000,-7.5224581,44.894764,-63.616203,-128.07008,-63.776421,-134.19649,-12.958462,87.872375
3385000000,-13.64932,21.941393,-64.74408,130.457,-64.99424,130.93114,-23.907694,116.40511
3390000000,-6.1746793,18.265337,-61.113125,17.004065,-61.640675,17.508463,-14.980465,76.971184
3395000000,-14.370115,23.36256,-62.567936,-74.172264,-62.709053,-78.463745,-17.53216,78.808052
3400000000,-13.944631,13.768534,-60.008099,179.84515,-60.175999,174.38878,-20.156822,116.10501
3405000000,-7.7210417,25.979853,-61.139862,77.854332,-61.028679,74.737846,-13.394758,50.337856
3410000000,-10.964939,39.242474,-60.800472,-36.074402,-60.058949,-40.905239,-18.358856,117.61613
3415000000,-6.9196515,5.309587,-59.395763,-145.94363,-59.521667,-145.79929,-16.158537,63.505878
3420000000,-9.6284657,10.574166,-59.166382,108.48557,-58.937778,104.64671,-19.51935,64.63504
3425000000,-20.749966,50.95446,-58.16328,2.645529,-57.805305,-0.6515857,-16.062471,102.84514
3430000000,-6.4058957,18.748989,-58.142818,-108.56506,-57.996857,-111.62101,-18.53441,17.535625
3435000000,-13.966871,23.564342,-57.251163,151.41714,-57.469654,148.51096,-16.476875,101.89448
3440000000,-7.3049283,10.759876,-58.066895,43.163734,-57.799671,40.427292,-19.183466,34.485222
3445000000,-10.002761,-20.672644,-57.402126,-68.560143,-57.582428,-69.002899,-21.755548,66.287338
3450000000,-9.8867235,50.109207,-57.060192,-168.77315,-57.09634,-172.36375,-15.50161,72.54557
3455000000,-9.1509304,-22.619154,-57.362732,80.704399,-56.888546,76.28611,-33.058899,-6.5355325
3460000000,-10.215053,43.502247,-57.399212,-22.098436,-57.67028,-27.425455,-15.138088,70.723518
3465000000,-6.5476599,-4.3419847,-57.974998,-131.53694,-57.604309,-135.1064,-26.843863,82.039116
3470000000,-14.915147,-31.661865,-57.031776,123.48568,-56.915764,120.9678,-26.652906,67.102798
3475000000,-8.0717163,27.551765,-57.234364,9.6691113,-57.538586,7.2515898,-18.317926,59.512341
3480000000,-10.593838,-34.044689,-57.463238,-89.774994,-57.239548,-92.105522,-54.739925,140.77191
3485000000,-8.8248758,17.04357,-56.372288,159.75838,-56.411179,159.50241,-17.662464,52.842205
3490000000,-11.966088,2.6397853,-57.372734,52.797695,-57.608952,51.456692,-26.254942,61.323208
3495000000,-11.408454,-7.569768,-56.377117,-48.580894,-56.339245,-49.047085,-21.733177,92.664162
3500000000,-7.8763785,1.1028142,-57.141167,-159.33727,-57.019859,-164.38062,-19.119501,31.423031
3505000000,-15.436233,-26.51195,-57.252102,97.035553,-57.503845,94.408478,-18.98889,136.9081
3510000000,-10.523161,-8.7137728,-57.788792,-17.558914,-57.794235,-19.819376,-21.981426,29.440308
3515000000,-9.4351435,12.217588,-57.742001,-121.33646,-58.055027,-125.15092,-31.123232,119.10286
3520000000,-16.232758,-11.105082,-56.768612,127.3824,-56.653008,125.62214,-20.680189,75.262764
3525000000,-6.4008999,-9.9398289,-57.465008,27.110651,-57.408653,25.643333,-27.331367,-25.112438
3530000000,-14.51745,-43.25938,-57.44585,-77.416794,-57.80872,-76.858658,-16.441868,87.731689
3535000000,-12.774434,3.1727219,-58.426746,173.24371,-58.1339,171.15541,-36.931,19.687876
3540000000,-9.5097122,-20.085529,-58.810081,66.588249,-58.456955,66.176521,-20.910191,105.982
3545000000,-11.386353,41.763699,-58.145962,-43.454922,-58.095715,-46.970554,-22.210752,69.981705
3550000000,-4.8171997,-30.573576,-58.297951,-148.73915,-58.445438,-150.48466,-24.6243,168.89206
3555000000,-24.522516,-6.0834846,-58.279926,104.16198,-58.282288,101.38824,-20.305243,62.198334
3560000000,-10.788695,-14.448419,-59.46722,-5.3639398,-59.646595,-7.6054721,-31.899725,127.7289
3565000000,-17.816135,-38.783863,-59.143688,-114.50115,-59.189106,-116.28987,-22.472361,96.741501
3570000000,-6.1527472,14.304519,-58.819069,136.50911,-59.289253,135.19804,-21.177954,31.046032
3575000000,-10.221362,-54.9673,-59.638302,26.635725,-59.809078,26.80208,-17.024542,125.59204
3580000000,-11.148025,-28.90576,-60.245846,-77.676186,-59.508045,-80.575233,-22.739595,21.341465
3585000000,-12.867633,-8.1418858,-61.031433,172.54424,-60.781387,172.60968,-18.952385,124.79534
3590000000,-19.83016,-67.765358,-61.418049,67.781876,-61.380287,65.728943,-24.315142,73.153725
3595000000,-6.4063158,6.1253071,-61.058693,-45.669514,-61.48436,-49.8629,-32.479855,51.633934
3600000000,-9.8625488,-37.690586,-61.696968,-145.76601,-61.737125,-150.12068,-18.47583,102.10352
3605000000,-10.852847,-52.976936,-62.306999,97.400894,-62.022633,95.078796,-28.241255,-0.037578482
3610000000,-11.764796,-9.3750696,-63.262684,3.5207884,-63.000103,3.3062928,-20.491667,80.8069
3615000000,-33.837154,13.336164,-65.874458,-111.1087,-65.117554,-111.63326,-19.719313,78.595276
3620000000,-6.6086326,-1.268526,-65.143456,142.60426,-65.255157,135.39131,-29.732647,159.04965
3625000000,-7.51371,-50.967766,-66.062935,29.597214,-65.736092,32.011505,-15.649675,70.639854
3630000000,-19.663769,37.128803,-65.763504,-66.356125,-66.509392,-66.042213,-26.46357,-144.78877
3635000000,-6.7705359,-57.286011,-66.194923,-172.77496,-66.107445,-167.36786,-17.543688,85.817001
3640000000,-13.876326,56.804432,-66.394531,90.020874,-66.675629,82.059135,-27.635187,28.972818
3645000000,-6.1278095,-28.849035,-69.486046,-3.3935299,-68.454811,-7.6251941,-23.835007,137.52945
3650000000,-16.317095,-51.759964,-68.138306,-113.83582,-67.530418,-112.76074,-18.272079,28.173361
3655000000,-6.9578309,-6.4173532,-66.327629,142.32536,-66.672318,135.71246,-22.393763,128.14043
3660000000,-7.2601256,-85.735527,-67.815323,31.961767,-67.471832,29.911961,-19.81892,53.508373
3665000000,-9.9675198,51.100693,-67.547684,-66.106834,-67.446663,-71.914711,-31.27491,-17.202906
3670000000,-8.7401581,-32.614971,-66.151772,171.64769,-66.174103,170.17377,-15.285215,106.00238
3675000000,-11.062822,-32.909248,-67.212433,64.736542,-67.462578,64.452148,-19.963982,-39.405491
3680000000,-8.7417774,-34.391766,-68.343704,-51.724621,-67.087173,-56.323051,-18.594881,116.37769
3685000000,-12.428374,-79.978142,-66.65918,-159.96051,-66.605156,-161.51836,-24.12005,-4.8025794
3690000000,-12.240686,8.2816887,-66.775734,112.42683,-67.425568,122.40867,-31.875904,93.058784
3695000000,-8.0305185,-18.11363,-68.112793,2.5857236,-68.456894,0.53701782,-17.844849,53.774864
3700000000,-12.501715,-70.557587,-70.006134,-98.107666,-70.960663,-95.579758,-24.345421,-137.48718
3705000000,-6.6975732,-17.977755,-69.247765,153.27818,-69.75103,157.95468,-17.439739,69.101685
3710000000,-12.635045,-108.38012,-67.642479,35.672928,-68.059235,32.275196,-34.501469,-11.262662
3715000000,-8.2179155,-1.418558,-68.113968,-60.897129,-68.451149,-62.515713,-24.768078,138.99808
3720000000,-8.0318518,-52.183083,-70.585175,-159.84406,-69.325829,-168.84639,-23.016499,42.1474
3725000000,-23.008007,27.858271,-66.400528,77.693848,-66.879036,74.008827,-28.087818,169.11064
3730000000,-4.172339,-35.23164,-68.277657,-26.091438,-67.925629,-30.203903,-22.245672,43.452473
3735000000,-20.317364,-117.78371,-68.17511,-149.23051,-68.072235,-146.87077,-31.99728,147.56239
3740000000,-7.9737463,-24.361681,-68.396843,129.11055,-67.660568,128.57193,-20.159252,115.57318
3745000000,-9.5988102,-66.959999,-68.186569,14.082527,-67.632767,15.769401,-22.195704,-21.754562
3750000000,-11.586635,21.05369,-69.401031,-103.63232,-69.578491,-86.946564,-18.277126,141.05301
3755000000,-6.4560885,-62.90202,-69.855644,167.74437,-69.319839,163.10811,-26.709572,41.036579
3760000000,-11.391277,-22.090977,-68.305573,59.358021,-69.84565,57.933918,-25.898281,177.71756
3765000000,-8.0820789,-55.738583,-66.84243,-42.701363,-66.367371,-46.726345,-23.271482,76.647057
3770000000,-13.736305,-84.93409,-67.332481,-152.78784,-67.054932,-150.47882,-25.466974,-128.49763
3775000000,-7.2012,2.5655313,-70.062889,108.18407,-68.834991,115.09939,-16.647985,87.682373
3780000000,-7.1049242,-66.961769,-69.094757,-2.9157412,-69.705719,-0.47949034,-28.734659,-111.27455
3785000000,-10.825906,-46.930229,-69.194901,-96.364265,-69.046967,-102.86614,-20.556366,127.20837
3790000000,-9.123476,-38.572674,-68.209023,137.93475,-66.779396,133.09021,-21.505558,78.999184
3795000000,-10.239861,-100.14674,-67.954361,49.643055,-68.97953,46.146141,-20.501774,173.25311
3800000000,-7.1042986,-2.2908232,-68.631599,-53.746437,-67.675308,-53.858669,-23.069717,73.512764
3805000000,-6.3374944,-62.622391,-70.073471,-150.58269,-70.14106,-158.11,-23.13187,172.86867
3810000000,-15.394084,-63.610809,-72.242622,106.85266,-71.373856,92.621376,-19.095024,98.304649
3815000000,-4.3710847,-51.416428,-70.085495,-4.7701764,-69.525818,-10.4519,-28.974445,-28.103722
3820000000,-15.534422,172.68811,-67.034523,-113.14566,-67.656647,-117.11681,-15.557713,125.47767
3825000000,-3.5519454,-32.448338,-69.082085,135.97729,-67.347473,138.85831,-23.500027,48.831051
3830000000,-10.667237,-92.610229,-68.214958,48.388798,-68.16848,47.362038,-16.744923,133.17117
3835000000,-9.3832273,-34.755226,-68.58403,-75.864967,-68.23201,-68.22451,-25.035633,123.45825
3840000000,-5.7369437,-79.067261,-70.211861,-163.90982,-69.750214,-158.79631,-25.454882,165.68199
3845000000,-19.97381,-1.2002857,-66.902054,82.935081,-67.619263,77.874519,-17.170385,88.757034
3850000000,-5.041049,-60.122978,-68.43074,-17.319593,-69.430023,-27.688656,-29.79822,-133.45909
3855000000,-11.602091,-78.154526,-67.39547,-109.17599,-67.385292,-114.92107,-19.089523,100.30398
3860000000,-7.9372826,-44.523106,-70.095596,133.09583,-68.552818,134.03371,-18.625511,71.007484
3865000000,-7.1095409,-82.073807,-67.328209,35.618294,-67.360886,35.80793,-21.609804,131.96983
3870000000,-12.288773,-48.191475,-68.790573,-76.672615,-68.044968,-80.811592,-17.273365,82.410645
3875000000,-6.6860485,-64.829338,-67.440582,177.6203,-67.518456,-177.15785,-20.926876,145.13568
3880000000,-11.214158,-100.36868,-65.87471,83.929398,-65.20826,84.739182,-17.974993,89.622238
3885000000,-6.2807832,-31.501024,-67.758011,-14.853621,-68.465622,-15.756956,-27.51539,46.891975
3890000000,-4.428834,-100.27781,-67.029716,-111.60268,-66.990723,-114.03965,-16.277952,138.57607
3895000000,-14.457785,-34.255047,-67.925339,128.58904,-67.005615,127.40678,-15.413895,21.380882
3900000000,-4.3561497,-69.988853,-67.524475,25.342278,-68.359291,24.119272,-16.615467,126.87602
3905000000,-13.183122,-106.85423,-66.518547,-92.32486,-66.156494,-95.089439,-19.578094,53.459511
3910000000,-5.7267389,-41.1133,-66.211823,177.91759,-65.766991,-176.93663,-22.29579,98.56488
3915000000,-6.1220984,-109.96442,-66.726524,75.560684,-65.613976,74.547882,-15.184835,87.671806
3920000000,-7.7714887,-40.632999,-67.529335,-28.273977,-67.772064,-30.563601,-28.629145,-35.345264
3925000000,-5.529448,-95.99575,-66.487373,-125.59961,-65.578102,-128.86884,-15.36314,105.04073
3930000000,-22.114717,-69.06826,-66.577995,132.26283,-66.165634,127.91289,-20.544781,30.288136
3935000000,-3.7884328,-71.571068,-66.310509,14.920622,-65.260262,17.745857,-27.983398,99.975533
3940000000,-14.446227,-104.4938,-66.539207,-71.315475,-66.424034,-84.778969,-14.634234,62.425941
3945000000,-5.1733093,-76.263718,-66.835342,163.83073,-66.442673,162.89438,-27.524139,160.29723
3950000000,-7.8146081,-101.85103,-65.941978,60.958237,-66.30748,57.938255,-13.948292,63.288227
3955000000,-13.399553,-75.444061,-65.724045,-42.442322,-65.808784,-40.597687,-38.871609,-125.67471
3960000000,-6.60955,-76.52121,-65.565697,-137.88503,-66.268044,-143.99405,-17.185997,91.557106
3965000000,-9.1240005,-98.548401,-66.379318,120.86851,-66.801125,111.52943,-19.88772,35.330746
3970000000,-7.7919979,-76.978409,-67.197731,26.631098,-66.360527,25.371918,-28.182182,135.60239
3975000000,-3.9777811,-114.27975,-67.153137,-76.875366,-67.365685,-93.760262,-18.306889,44.303574
3980000000,-16.498487,-14.827981,-66.395241,161.91562,-66.114761,161.91072,-26.511356,50.626244
3985000000,-4.5128918,-90.690544,-66.27935,66.404701,-67.038437,61.969521,-17.166025,72.146057
3990000000,-10.798244,-101.30325,-66.230972,-39.628529,-65.126671,-37.528507,-23.949528,-24.890942
3995000000,-6.1464467,-81.962799,-66.300331,-143.86649,-65.522896,-145.03802,-17.361113,101.24305
4000000000,-5.0542645,-138.19826,-65.526054,103.02564,-66.111404,102.99557,-18.6604,14.710544
END

