!CSV A.01.01
!Keysight Technologies,N5247A,US56070710,A.10.64.09
!Date: Saturday, November 19, 2022 23:12:47
!Source: Standard

BEGIN CH1_DATA
Freq(Hz),S33(DB),S33(DEG),S34(DB),S34(DEG),S43(DB),S43(DEG),S44(DB),S44(DEG)
3000000000,-12.468705,164.82663,-50.61697,-19.937883,-50.734707,-19.6961,-18.138306,-150.39136
3005000000,-15.986831,85.092262,-52.225864,-122.71498,-52.196041,-122.52772,-17.07427,-146.53751
3010000000,-11.944547,145.40805,-52.301704,138.69087,-52.368652,139.84955,-15.774303,-158.98981
3015000000,-13.239424,159.53136,-52.278355,31.771824,-52.375687,32.238007,-15.707228,-148.83002
3020000000,-20.018198,99.786011,-52.202278,-71.557716,-52.10162,-71.618477,-16.646902,-166.04031
3025000000,-8.4620266,136.35338,-50.793503,176.81865,-50.977493,175.6588,-14.523763,-155.78529
3030000000,-29.909847,123.51709,-51.491432,83.432541,-51.478638,82.6782,-18.662151,-169.56134
3035000000,-12.455441,109.10581,-51.023067,-25.80776,-51.084515,-25.67408,-13.907979,-166.79164
3040000000,-9.9044857,145.06293,-52.258858,-123.96061,-52.262089,-124.75361,-18.329025,-173.70418
3045000000,-21.882736,153.12378,-52.503506,124.87217,-52.783539,125.21523,-15.44253,-175.267
3050000000,-9.8453751,103.08481,-50.980709,20.480585,-51.129608,20.27297,-14.877082,175.06728
3055000000,-11.068312,144.72495,-50.997101,-80.918365,-51.013397,-81.888412,-15.751698,-166.91077
3060000000,-18.190117,74.19976,-50.916336,-174.67241,-50.978436,-175.05534,-15.388642,165.51169
3065000000,-8.7451096,122.10098,-52.228596,73.87928,-52.127373,74.143951,-15.360003,-168.08188
3070000000,-14.85329,153.295,-51.873638,-36.131477,-52.030735,-35.534931,-17.056087,162.06668
3075000000,-11.293217,88.876869,-52.221878,-135.42142,-52.249645,-137.04359,-16.104246,173.64198
3080000000,-7.6899815,124.30968,-50.951099,117.20033,-51.00782,116.32024,-16.460207,164.25034
3085000000,-22.415648,170.07376,-50.860035,20.523777,-50.864414,19.723726,-17.125978,164.04663
3090000000,-8.6484671,95.186363,-52.294731,-88.935097,-52.360424,-89.204933,-14.239821,156.25777
3095000000,-11.988811,144.88246,-52.691925,171.53072,-52.8447,171.34076,-17.585865,177.84274
3100000000,-12.988544,102.87398,-52.018734,60.804768,-51.955936,61.199554,-15.145891,148.20909
3105000000,-9.0938454,97.291023,-51.954678,-40.06068,-51.67728,-41.566425,-16.415964,175.4563
3110000000,-10.324666,138.45735,-51.43346,-149.14523,-51.596134,-148.99449,-17.783722,143.42299
3115000000,-14.415897,50.795315,-51.470589,111.99535,-51.472412,112.06571,-16.852589,162.54997
3120000000,-7.3734393,116.11687,-53.085865,11.711269,-52.826382,10.580067,-17.260399,141.33714
3125000000,-15.866653,127.33113,-52.014996,-101.65957,-51.9786,-102.08253,-17.375443,157.4798
3130000000,-9.0292006,80.072952,-51.528515,156.26506,-51.483799,156.06184,-16.111086,135.50668
3135000000,-9.0191145,109.31023,-51.543064,56.192444,-51.681664,55.495487,-17.381035,169.78299
3140000000,-16.894161,108.52317,-51.394981,-54.620731,-51.431488,-51.986965,-16.496578,127.83881
3145000000,-9.2497187,75.064575,-51.140068,-155.09935,-50.984901,-153.17986,-17.337454,161.45828
3150000000,-8.5043392,126.19441,-52.113838,109.27502,-52.336674,107.88622,-18.208515,144.97803
3155000000,-11.814832,71.536407,-52.30442,-7.8043861,-52.306526,-7.2831035,-19.529222,136.83672
3160000000,-8.3566046,87.314774,-50.914585,-102.34505,-51.121506,-102.56393,-16.563602,145.96497
3165000000,-12.10444,108.92806,-51.325947,151.57443,-51.430515,153.50552,-19.86734,129.74385
3170000000,-12.639421,80.381615,-51.501526,44.567677,-51.756107,44.039047,-16.008839,141.95746
3175000000,-9.1245956,98.375938,-51.571213,-58.630344,-51.580601,-59.481747,-18.043356,149.62636
3180000000,-14.177005,86.111572,-52.312679,-165.1496,-52.030746,-164.29883,-18.868259,133.11142
3185000000,-7.554934,65.306046,-51.847111,88.389496,-51.818832,87.423836,-16.60647,156.50342
3190000000,-10.111159,98.510025,-51.09103,-5.8697071,-51.082199,-6.1707749,-21.017441,141.91142
3195000000,-13.808621,64.576866,-52.767273,-106.48936,-52.354309,-106.95229,-21.071255,138.7375
3200000000,-7.6040134,74.209274,-51.988739,134.70839,-51.953876,133.77684,-16.502323,129.88365
3205000000,-8.8680677,114.43958,-52.050343,35.479542,-52.073677,33.868561,-24.105904,152.01791
3210000000,-9.1664639,36.573269,-52.231895,-70.674484,-52.306763,-70.071136,-14.634566,123.29076
3215000000,-8.8815117,82.957932,-52.253464,-168.5925,-52.440742,-168.18822,-21.550314,152.82242
3220000000,-11.911459,82.712769,-52.999321,87.810257,-53.047874,88.822609,-16.050404,135.25139
3225000000,-10.265874,51.126141,-53.265259,-20.14616,-53.138775,-21.327631,-19.225914,138.98936
3230000000,-7.5852227,85.450508,-53.411999,-131.38512,-53.44799,-130.99678,-17.932629,151.27252
3235000000,-13.238955,72.115776,-52.394554,123.01804,-52.397198,122.30648,-20.840221,124.24012
3240000000,-5.8174863,49.537189,-52.781704,22.202608,-52.729984,21.161926,-17.133392,135.31647
3245000000,-13.121885,106.02492,-52.976814,-80.097397,-53.005634,-80.724236,-19.820448,148.08908
3250000000,-10.522217,51.736649,-53.778305,170.78297,-53.696983,171.17261,-17.860939,112.35699
3255000000,-7.4590726,64.624809,-53.40099,68.015053,-53.559242,66.902908,-17.716255,148.51205
3260000000,-11.478393,83.607758,-53.325871,-42.061268,-53.449482,-42.660076,-16.556755,116.826
3265000000,-8.1170893,31.630955,-53.053478,-143.41367,-52.991989,-144.24556,-18.549427,147.26581
3270000000,-7.7005515,73.225853,-53.568771,115.02734,-53.422707,113.60327,-16.615337,128.80579
3275000000,-16.755394,49.814972,-53.99493,3.2057962,-54.079441,4.6092916,-21.379786,127.06388
3280000000,-7.8977528,53.60968,-53.861382,-100.55798,-54.117352,-100.00581,-14.949114,125.15482
3285000000,-8.3202515,71.0951,-53.645061,148.72989,-53.721943,149.18031,-20.476585,135.25644
3290000000,-13.348928,17.927317,-52.886784,44.919964,-53.404171,46.952797,-16.473181,117.30367
3295000000,-6.9876156,37.30402,-54.132191,-56.193745,-54.19297,-55.472935,-15.916172,124.76182
3300000000,-9.907486,81.179726,-54.954529,-157.72865,-54.909832,-158.27869,-18.00279,133.61555
3305000000,-10.054644,16.883636,-55.132603,86.595337,-55.067566,86.236443,-16.833641,118.12831
3310000000,-7.4828787,57.894909,-54.522499,-19.905254,-54.339218,-19.182756,-16.940485,131.93188
3315000000,-11.218968,56.725933,-54.240505,-127.32294,-54.170055,-127.97228,-20.078722,111.73703
3320000000,-9.4018383,17.075129,-54.895329,132.0768,-55.139179,129.38779,-15.682014,113.28719
3325000000,-8.5728769,49.831947,-55.942081,25.282116,-56.181183,26.43718,-18.91358,116.59476
3330000000,-20.842787,12.003387,-56.907383,-86.832031,-57.160469,-87.098961,-15.150068,106.70549
3335000000,-5.2000084,31.865421,-58.356747,160.67253,-58.124279,159.3755,-17.577696,114.16032
3340000000,-10.370707,47.881016,-56.87965,57.21608,-56.861362,55.044518,-15.370535,117.1226
3345000000,-12.330534,16.446915,-57.104572,-51.436863,-56.999329,-50.907661,-19.049568,100.78018
3350000000,-6.1333537,23.381763,-58.953209,-156.89536,-58.510212,-157.84709,-15.218753,117.15955
3355000000,-13.517333,73.743965,-59.614445,96.787971,-59.647015,94.002502,-22.116575,92.601974
3360000000,-10.064685,3.0680735,-61.431477,-27.975512,-61.423542,-24.777029,-15.117275,101.677
3365000000,-6.0983124,34.66449,-61.1534,-130.91609,-61.557537,-128.47137,-19.756912,87.363152
3370000000,-12.756355,16.110912,-62.106716,113.85383,-62.439617,120.28188,-15.656576,97.576584
3375000000,-7.0724692,9.5819225,-63.922455,17.212383,-63.434143,21.83824,-17.024179,91.818199
3380000000,-10.150496,51.320229,-66.956863,-120.43525,-66.796074,-122.14883,-17.651424,104.7953
3385000000,-14.042971,32.612732,-64.535889,148.65508,-65.220428,152.40031,-17.981037,81.383202
3390000000,-5.8031745,6.758615,-65.246613,19.493507,-65.226173,21.971371,-17.241732,96.089317
3395000000,-13.275426,65.173332,-66.012138,-84.130264,-66.796646,-92.545898,-19.136135,83.332977
3400000000,-7.4221015,-13.45947,-69.831787,151.841,-70.244438,151.88777,-17.096113,80.52153
3405000000,-9.8112049,8.6764164,-70.916344,50.476509,-71.353081,42.104881,-20.082037,84.540092
3410000000,-10.32258,51.268333,-65.017906,-92.5755,-64.556412,-88.5783,-15.943175,75.365021
3415000000,-6.0152478,-15.941667,-65.399879,134.67885,-65.255913,144.27553,-19.816835,79.78331
3420000000,-8.8924551,46.141598,-68.157455,39.853111,-66.680901,36.556156,-16.96813,93.026367
3425000000,-11.373414,-8.1065807,-63.566673,-65.819237,-63.762035,-66.148216,-21.873129,51.56815
3430000000,-8.1897907,-7.6466308,-63.036915,149.4584,-63.816914,150.06473,-17.353697,90.12059
3435000000,-11.925692,30.005035,-63.617523,54.194412,-64.224648,58.82523,-22.51808,49.848091
3440000000,-11.639368,-11.484596,-61.819019,-59.322189,-62.213257,-61.082752,-20.813871,70.401619
3445000000,-6.0179415,7.3300872,-62.778446,-162.1624,-62.624508,-160.12024,-17.467535,59.353737
3450000000,-12.295336,2.8746564,-63.500626,90.749535,-63.716927,90.310829,-23.426361,75.78331
3455000000,-11.167463,-29.109728,-61.217308,-31.515821,-60.692734,-33.244183,-18.509933,63.251724
3460000000,-7.9796104,18.402746,-60.729961,-123.72337,-60.433086,-123.217,-21.015066,78.649742
3465000000,-12.977072,-10.07811,-61.473194,121.86328,-61.113869,122.08361,-24.99715,64.634407
3470000000,-8.0872126,-13.067163,-61.788448,15.30803,-61.438778,18.141058,-19.100256,68.34108
3475000000,-8.3621979,11.979389,-60.928684,-104.03986,-61.218445,-103.68755,-32.35759,99.038536
3480000000,-13.935494,-54.604095,-60.069332,148.93663,-60.712345,152.80289,-20.770756,52.403091
3485000000,-5.6976666,0.82836837,-61.07856,50.526306,-61.066265,50.988102,-23.028128,44.955338
3490000000,-18.278675,3.5047765,-61.814846,-42.284019,-62.126019,-43.727337,-22.480562,108.17978
3495000000,-9.3811903,-4.7564049,-62.178822,-168.68202,-62.374306,-167.32047,-19.024534,19.808735
3500000000,-6.5914268,-20.058573,-62.287487,97.803581,-62.629395,98.140038,-19.067905,115.64565
3505000000,-17.580164,65.178345,-61.813797,-13.822685,-61.855785,-20.929331,-24.707045,22.489052
3510000000,-5.9223948,-33.212681,-60.373169,-119.98494,-61.01215,-122.01084,-22.990921,101.67556
3515000000,-11.003576,18.97414,-63.136303,132.31299,-62.62709,131.72801,-28.079336,61.396709
3520000000,-15.103617,-24.713371,-63.646538,22.373051,-63.030811,18.428576,-29.178833,40.720604
3525000000,-8.1118031,-23.245436,-65.345337,-81.321808,-64.985268,-80.290237,-21.432478,66.870056
3530000000,-9.3355885,-3.7548368,-64.387733,164.60568,-63.849876,170.59125,-23.694363,97.319954
3535000000,-13.949278,-60.493839,-63.379047,69.844658,-63.476967,63.992249,-28.804615,52.142513
3540000000,-8.4604826,-13.680243,-65.5597,-30.347353,-65.469513,-39.029907,-18.934935,100.44814
3545000000,-11.875394,14.153078,-64.002129,-150.19513,-64.631012,-151.18015,-37.736317,-127.38409
3550000000,-8.4484949,-45.4049,-66.694489,93.152016,-66.261833,89.467644,-20.281507,88.272919
3555000000,-10.116244,8.9990635,-71.630974,-60.660427,-70.910988,-55.128288,-39.339672,139.96509
3560000000,-12.037333,-37.792553,-68.520355,-142.52261,-67.406052,-143.73267,-23.73465,95.009819
3565000000,-13.531303,-60.067593,-74.40731,95.155823,-73.416298,109.1351,-26.10025,44.53569
3570000000,-6.3692093,7.0707536,-76.596367,-43.702553,-74.675117,-50.277512,-22.289133,104.42516
3575000000,-13.89352,-90.503716,-85.942528,37.929535,-81.05378,46.045517,-24.704288,62.081303
3580000000,-7.1940403,-18.212036,-70.828102,64.163887,-71.655319,74.293037,-21.555544,101.89567
3585000000,-11.941765,-32.169521,-68.311859,-38.456322,-67.481506,-34.025597,-25.062443,102.85445
3590000000,-21.216385,-71.109535,-67.768059,-173.4232,-69.035904,-166.7095,-29.156572,81.182083
3595000000,-5.5542259,-21.690918,-68.31794,96.516815,-67.494858,93.505432,-20.539461,91.1483
3600000000,-24.464888,16.172529,-64.266129,-28.256601,-64.92308,-31.063457,-33.171139,135.78433
3605000000,-6.7558098,-38.830223,-62.882278,-138.99779,-63.248192,-143.38148,-21.824032,60.143661
3610000000,-12.358152,-26.854784,-63.095318,111.76261,-62.915977,111.59784,-22.597504,95.956665
3615000000,-18.260704,7.9447021,-62.091244,-12.962827,-62.009777,-7.710463,-25.613531,80.349655
3620000000,-8.3911991,-46.763119,-60.157219,-109.56589,-59.926662,-108.87235,-21.970835,77.846771
3625000000,-9.8803663,-13.572211,-60.665035,140.16568,-60.259563,140.89932,-24.147404,102.72266
3630000000,-23.370544,-46.521725,-58.90984,26.38645,-58.979946,28.308659,-26.389017,91.885048
3635000000,-6.5152841,-47.742725,-60.166679,-80.686394,-60.025379,-82.935844,-21.938873,56.651985
3640000000,-15.138146,6.1924086,-58.456272,167.80675,-58.01807,168.08931,-22.490221,142.50658
3645000000,-8.5066013,-59.99514,-57.724407,67.550034,-57.791096,69.707886,-19.191954,14.515201
3650000000,-13.649993,-15.74555,-57.712971,-40.097622,-57.479759,-38.567474,-19.407812,114.48711
3655000000,-7.7828593,-12.139481,-56.772537,-139.90569,-57.196217,-138.00015,-23.551083,21.552923
3660000000,-7.8888001,-82.608742,-57.32029,110.39189,-57.555912,112.77016,-23.154242,97.069283
3665000000,-7.7379613,12.821684,-56.780716,-3.3640184,-57.247952,1.1043676,-22.371881,71.178673
3670000000,-11.826946,-93.758026,-56.146404,-107.76929,-56.158215,-105.67202,-33.150982,128.95729
3675000000,-9.6768064,-14.967848,-55.86721,150.39978,-55.695168,150.082,-23.043928,58.307667
3680000000,-8.0794783,-39.146275,-55.934177,47.306755,-55.988407,49.34148,-26.510729,126.35398
3685000000,-17.059416,-86.485596,-56.608734,-56.282234,-56.455013,-56.663841,-25.358997,-25.105843
3690000000,-6.1288605,-33.247356,-56.239746,-166.06371,-56.37019,-166.04024,-20.240067,75.203255
3695000000,-21.535919,-6.9435534,-55.74971,86.317879,-56.222702,86.983994,-31.521173,-44.92767
3700000000,-9.2626667,-53.437977,-55.777939,-15.228117,-55.539444,-15.048676,-21.908602,73.910423
3705000000,-8.0925798,-28.982801,-55.813049,-119.70321,-55.848911,-119.72922,-25.736563,30.426294
3710000000,-20.051466,-68.973946,-55.824474,136.73448,-56.171158,139.45004,-23.511446,136.87805
3715000000,-6.75629,-49.50338,-55.814835,33.319736,-55.688286,30.686047,-21.188038,22.193935
3720000000,-11.206842,-30.156956,-55.929249,-79.055328,-55.611382,-77.45163,-21.640993,157.6534
3725000000,-18.776674,-44.78252,-55.319611,-179.24648,-55.729694,-179.39258,-23.47279,3.9648228
3730000000,-5.2707553,-50.273193,-55.048782,76.41256,-55.38821,76.630898,-28.546099,100.09039
3735000000,-16.330351,13.50524,-55.748146,-30.680834,-56.065399,-29.460157,-26.090525,95.843483
3740000000,-7.9816751,-59.190536,-55.72588,-134.60451,-55.814362,-134.85426,-39.813686,3.3267479
3745000000,-9.3574371,-60.524082,-55.730427,122.73579,-56.247284,121.15753,-23.750364,102.99049
3750000000,-10.269047,6.4114704,-55.790367,13.677074,-56.028111,14.072904,-31.274336,170.27765
3755000000,-6.185668,-101.92725,-55.225925,-87.380821,-54.926769,-89.95034,-31.972345,35.40044
3760000000,-5.8412032,-0.20245481,-54.99897,168.52846,-54.8591,168.23601,-22.379431,136.89973
3765000000,-5.888761,-82.0149,-55.570988,67.329559,-55.699787,66.125015,-26.559069,-46.834373
3770000000,-15.281191,-76.170586,-55.875053,-37.942589,-56.047661,-38.952408,-22.396799,110.14413
3775000000,-5.4098411,-24.884083,-56.300999,-151.07332,-56.250587,-149.93063,-29.767851,57.439697
3780000000,-12.686183,-126.3807,-55.478111,104.51179,-55.29768,104.9773,-24.081583,157.71368
3785000000,-4.6827688,-38.453186,-55.093269,4.3890495,-54.892609,6.5187478,-20.587915,58.513016
3790000000,-11.324096,-66.107231,-55.730103,-101.34602,-55.895973,-102.0305,-18.090639,166.55499
3795000000,-11.06162,-88.427818,-54.916222,157.43202,-54.985386,159.22916,-26.757584,36.540382
3800000000,-7.230957,-40.279469,-56.358982,53.075417,-56.721352,52.786205,-20.565037,144.90219
3805000000,-12.651944,-54.094627,-55.223568,-48.271637,-55.490711,-53.031609,-42.01466,148.34854
3810000000,-8.6571093,-73.883972,-55.864975,-154.89534,-55.993965,-153.74829,-23.951574,97.377678
3815000000,-5.3964815,-53.753765,-56.198368,99.353043,-56.355766,99.461601,-23.81019,119.45164
3820000000,-21.258224,-167.50809,-55.339058,-0.58773285,-55.123722,-1.2596347,-24.953737,127.89715
3825000000,-3.7383034,-57.051876,-56.291252,-104.45054,-56.189121,-104.47981,-22.618162,78.069969
3830000000,-17.736986,-82.835876,-55.201694,148.16946,-55.351837,151.55981,-16.9849,135.96147
3835000000,-8.1400528,-53.429668,-56.108921,45.575279,-56.103565,46.751347,-57.219383,-92.030579
3840000000,-5.452374,-90.150871,-56.533772,-55.446522,-56.368011,-53.555115,-18.788481,116.72814
3845000000,-12.29666,-0.68548095,-55.905869,-159.14229,-55.735817,-160.56596,-29.88916,128.32581
3850000000,-4.1128492,-88.725426,-56.414577,92.876396,-56.6306,92.310127,-24.014559,112.22041
3855000000,-12.228663,-67.822525,-56.685074,-10.919863,-56.758007,-10.433746,-20.293285,82.2201
3860000000,-8.5427246,-54.522682,-55.41452,-108.53478,-55.482841,-107.10237,-22.028605,146.33267
3865000000,-7.201591,-94.064789,-56.642899,144.35939,-56.657322,146.46863,-17.683243,66.402214
3870000000,-6.7188473,-49.3181,-55.612164,43.687374,-55.830013,45.835506,-18.033342,147.36514
3875000000,-8.2231474,-110.53476,-56.240749,-61.020523,-56.389217,-64.25798,-21.640589,68.577385
3880000000,-9.6424036,-70.812561,-55.949783,-171.29156,-55.818878,-170.0585,-22.041206,123.74094
3885000000,-7.602612,-51.844467,-55.72472,88.5271,-55.899395,88.91523,-19.911058,95.233795
3890000000,-5.9928384,-107.42426,-57.169239,-12.665608,-56.691021,-13.553797,-38.959896,143.75352
3895000000,-7.7720871,-73.242691,-56.396694,-116.79398,-56.551521,-117.18407,-16.251663,70.054787
3900000000,-8.5771341,-74.599487,-57.07835,139.21999,-56.784103,137.69637,-21.210684,132.74696
3905000000,-8.1986122,-97.560883,-56.494228,36.799541,-56.828983,36.192223,-19.491062,50.820309
3910000000,-6.5232468,-53.451473,-55.874775,-63.094856,-55.714172,-64.007149,-17.045195,112.99426
3915000000,-8.0658951,-115.3403,-56.150517,-170.51532,-56.080524,-172.25488,-24.697859,52.570889
3920000000,-6.4289684,-70.668556,-56.547974,88.063217,-56.385067,86.516685,-19.827488,106.03094
3925000000,-8.3218946,-94.85495,-56.076008,-20.363834,-55.949787,-21.785076,-20.034302,60.912121
3930000000,-15.043907,-93.980362,-57.099064,-121.06142,-56.900928,-120.26387,-23.551186,153.22079
3935000000,-3.1971562,-87.575531,-55.9543,134.22562,-56.244694,133.2431,-14.938283,38.055332
3940000000,-17.187647,-58.881851,-56.371456,33.966297,-56.400761,32.782478,-19.0968,137.60933
3945000000,-4.5818362,-108.70206,-56.587952,-71.782852,-56.239254,-72.23909,-17.439327,34.589622
3950000000,-8.6133156,-76.018211,-55.754673,-175.15279,-55.773876,-173.24736,-18.712627,97.005508
3955000000,-9.7647657,-89.687027,-56.309479,75.282265,-56.542542,78.48378,-25.419987,86.000168
3960000000,-6.3195462,-116.57222,-56.691368,-25.121895,-56.819038,-24.277277,-20.52524,45.866692
3965000000,-8.8214798,-64.473816,-56.750076,-126.68636,-57.106693,-126.92741,-20.757904,97.944633
3970000000,-7.1157675,-121.70885,-56.792728,128.41837,-56.995724,128.53696,-26.937382,30.8934
3975000000,-5.6581297,-104.96095,-56.970764,27.177254,-57.04451,24.069033,-19.021805,39.678219
3980000000,-9.6578341,-81.328812,-56.970688,-77.595192,-57.112614,-76.83532,-19.650141,104.27888
3985000000,-7.5525746,-124.42318,-56.856777,177.41835,-56.836491,178.67754,-20.039001,8.5942736
3990000000,-8.5882921,-89.782944,-57.215046,73.0289,-57.208759,74.214256,-19.411596,96.47493
3995000000,-7.3778811,-96.225929,-56.926907,-32.85416,-56.863289,-29.613188,-23.341227,40.220013
4000000000,-5.1491995,-143.26158,-56.131886,-130.63931,-56.114986,-130.85628,-35.533241,51.723385
END

