!CSV A.01.01
!Keysight Technologies,N5247A,US56070710,A.10.64.09
!Date: Saturday, November 19, 2022 21:52:02
!Source: Standard

BEGIN CH1_DATA
Freq(Hz),S33(DB),S33(DEG),S34(DB),S34(DEG),S43(DB),S43(DEG),S44(DB),S44(DEG)
3000000000,-15.7384,-142.40956,-57.246418,-71.385101,-57.153069,-72.366859,-16.103155,-119.92125
3005000000,-8.793766,106.51983,-53.683819,-112.62635,-53.516701,-114.28445,-15.214745,-167.40215
3010000000,-17.284117,85.823326,-55.223339,-152.4129,-55.529686,-154.90039,-18.030394,-155.65118
3015000000,-10.029127,168.4149,-55.16972,93.023621,-55.128719,92.191978,-12.588458,-150.84688
3020000000,-10.440951,66.267227,-54.14188,74.664864,-54.086353,76.179878,-19.906927,159.1777
3025000000,-11.396334,156.06802,-61.361687,27.878555,-61.252239,25.777996,-12.16991,-147.60432
3030000000,-13.391264,91.876534,-60.862278,-76.71167,-61.13829,-76.824883,-17.966612,161.62955
3035000000,-15.503864,54.081757,-67.031082,-150.0058,-67.048836,-145.61809,-14.80359,-150.29277
3040000000,-6.446301,148.20641,-57.020779,-179.74141,-56.951218,179.04272,-13.590049,177.75502
3045000000,-11.465503,44.049797,-58.350578,141.78339,-57.77961,142.58612,-20.94157,-173.9209
3050000000,-15.252842,131.49048,-53.935322,61.980743,-53.836159,62.929245,-11.59521,176.61972
3055000000,-7.4701967,108.5985,-51.467327,35.560608,-51.535175,34.80172,-18.877539,177.87447
3060000000,-17.038473,-14.857,-53.8978,-31.131706,-53.851269,-32.021828,-14.81477,-175.10121
3065000000,-5.4251842,117.38515,-52.252258,-97.435593,-52.170948,-98.331581,-14.182925,167.76181
3070000000,-16.754633,31.2763,-55.788185,-132.19716,-55.758289,-131.22186,-19.241264,-162.69772
3075000000,-11.60157,114.78156,-55.668072,-166.00369,-55.934559,-164.45277,-12.523619,160.56702
3080000000,-5.943975,92.2798,-63.505493,114.80055,-62.918648,116.53085,-19.336237,159.47755
3085000000,-15.830255,-108.06056,-57.782749,90.149063,-57.876255,89.231628,-14.663934,173.35918
3090000000,-4.4267535,91.378708,-54.664433,-14.479865,-54.564407,-13.958564,-14.566401,133.39812
3095000000,-26.915998,40.962761,-56.560173,-67.352325,-56.101112,-66.610535,-14.861078,-159.21275
3100000000,-9.6616182,121.19917,-53.892387,-150.09473,-53.756981,-148.80905,-13.286678,131.57343
3105000000,-6.6537042,61.986111,-54.433796,160.8175,-54.435226,159.13385,-17.080101,-166.67722
3110000000,-11.785011,160.69971,-58.06197,98.280205,-58.401436,95.841949,-13.687536,145.14772
3115000000,-8.0685492,62.279018,-56.859463,69.736778,-56.984272,69.652306,-22.031256,140.11412
3120000000,-12.810445,90.826607,-55.470768,23.854202,-55.531296,23.133255,-14.125064,155.73291
3125000000,-10.677734,127.702,-55.409286,-35.503143,-55.356014,-35.307091,-19.498219,134.53242
3130000000,-5.949069,43.739563,-54.928551,-92.44696,-54.593727,-93.415718,-16.308863,155.52356
3135000000,-10.844703,133.8544,-54.511105,-179.56314,-54.673298,-178.80817,-14.853554,149.23875
3140000000,-8.6325321,71.2957,-56.168037,125.96693,-56.179596,128.36415,-22.00424,132.81456
3145000000,-13.103217,33.931595,-61.46904,57.32412,-61.288967,58.1782,-12.945353,147.90121
3150000000,-5.6464782,114.40087,-59.995937,-12.601853,-60.203163,-10.289819,-23.783747,133.53909
3155000000,-8.1284008,21.024538,-58.520039,-15.846103,-58.513012,-16.025909,-17.161297,153.07167
3160000000,-9.252821,110.78695,-61.028755,-77.270416,-60.355724,-75.285866,-16.121204,124.58067
3165000000,-7.5951395,61.525257,-57.294575,-156.80582,-57.626659,-155.96126,-19.294184,175.03165
3170000000,-23.35113,66.280106,-55.272346,154.13269,-55.658062,158.53166,-13.392809,122.86338
3175000000,-5.7740993,84.250999,-53.042583,63.294079,-52.93177,61.622322,-20.576239,171.95891
3180000000,-13.939736,-4.9183116,-56.149944,34.717243,-56.488972,36.613876,-14.906767,136.2415
3185000000,-6.2335086,79.475891,-58.2561,-56.074562,-58.313042,-58.281029,-22.86375,129.48283
3190000000,-9.2122459,43.033455,-56.794106,-96.512291,-56.676472,-96.198746,-15.220387,166.36038
3195000000,-21.594625,88.842789,-57.735332,-175.10902,-57.633411,-176.43341,-21.180607,84.195084
3200000000,-4.4346604,62.249046,-53.4431,173.35638,-53.678905,173.76883,-14.730419,151.97105
3205000000,-17.292055,85.858826,-56.070438,90.042458,-56.188915,89.894989,-20.282131,121.01697
3210000000,-8.7660332,48.769161,-56.555897,25.769583,-56.618538,24.2927,-18.932354,122.2878
3215000000,-9.0751896,45.894806,-56.472107,-28.955713,-56.678738,-29.271595,-14.983297,144.15335
3220000000,-14.189581,103.15454,-59.579082,-64.554909,-59.685226,-63.264027,-21.64056,117.68584
3225000000,-5.2305584,35.30748,-61.094578,-141.78967,-61.141453,-140.94437,-15.231261,155.05247
3230000000,-16.357325,62.468857,-67.202896,-132.1745,-67.444847,-132.77681,-17.711163,119.85014
3235000000,-7.8805809,74.434944,-63.397312,150.77112,-64.357903,152.51865,-20.939526,175.55612
3240000000,-4.5239959,13.192515,-59.977123,65.017479,-59.908276,59.510857,-13.092822,112.23434
3245000000,-9.1602736,133.84671,-60.533237,-40.634621,-60.78022,-41.011543,-21.274477,-158.29411
3250000000,-4.8879147,26.426929,-56.057453,-64.650238,-56.037201,-65.422218,-14.087279,117.78974
3255000000,-14.172001,54.582432,-56.942703,-144.36299,-57.221458,-143.12767,-22.964264,125.29868
3260000000,-7.4322481,56.18219,-55.574131,159.39503,-55.759071,157.86569,-14.0545,144.75908
3265000000,-8.7897415,-13.454555,-59.800674,151.75417,-59.792747,155.23322,-17.916952,98.164757
3270000000,-4.7113428,82.167007,-56.17564,88.711998,-56.521442,85.12487,-15.94913,160.05074
3275000000,-7.4827509,-8.2407742,-62.931271,47.058983,-63.138039,47.369919,-16.430607,100.23803
3280000000,-12.729895,71.806694,-61.295563,-6.8286877,-61.735203,-6.6146693,-18.800535,137.20029
3285000000,-5.4158444,45.682842,-60.55611,-117.06289,-61.429516,-111.28837,-14.479376,138.22447
3290000000,-12.071355,-52.900852,-60.06823,162.97954,-60.520344,163.55418,-19.437025,83.291542
3295000000,-5.4735527,50.231564,-64.00293,107.92144,-63.928947,105.95723,-12.859786,144.63901
3300000000,-9.1216326,16.831629,-56.375755,81.802811,-56.581886,84.241333,-16.935556,97.020485
3305000000,-18.462023,9.9102316,-64.033806,22.495256,-63.46357,16.774387,-18.925034,154.23924
3310000000,-4.7928615,33.607075,-60.022289,-28.680599,-59.79314,-31.763901,-12.893016,111.93565
3315000000,-23.797886,-22.756081,-55.358242,-70.948189,-55.880054,-70.922195,-32.182461,-165.52513
3320000000,-6.7508783,34.635941,-57.976547,-134.60349,-57.743591,-134.57205,-11.562925,116.15425
3325000000,-7.9968591,-9.7453623,-64.118134,-171.84721,-63.61718,-170.8513,-23.55229,74.064827
3330000000,-17.829298,110.25536,-59.694447,100.04775,-60.641525,99.094955,-12.836754,127.16074
3335000000,-2.4580035,5.8489037,-61.72773,24.698936,-61.874344,19.753035,-16.262638,78.898743
3340000000,-23.85161,128.78136,-69.548584,3.4542284,-71.005913,-0.66662443,-15.416823,142.44273
3345000000,-6.1718345,19.878378,-64.746414,-74.015831,-64.885139,-75.180511,-16.022381,91.869247
3350000000,-7.8076239,-21.784969,-61.068096,-148.57629,-61.196945,-147.67647,-17.675646,115.79869
3355000000,-9.1128912,67.950302,-67.367149,149.2238,-70.094826,146.81624,-16.941507,120.96164
3360000000,-5.5410709,-32.264633,-59.079247,110.22486,-58.834736,105.72031,-15.660991,72.274712
3365000000,-9.5830584,54.503372,-62.45805,21.243856,-61.493149,25.993046,-17.730511,126.10434
3370000000,-6.1579933,-1.4336126,-59.369171,-47.554039,-60.09309,-45.001736,-13.482222,77.46405
3375000000,-10.941628,-28.840061,-62.787098,-45.689064,-63.521492,-45.446095,-22.648914,124.59689
3380000000,-7.9144258,42.559277,-63.868202,-127.71628,-63.811096,-128.64435,-12.642935,99.503189
3385000000,-9.9030638,-36.985992,-63.272247,-154.94853,-63.27272,-151.95192,-25.986891,24.727905
3390000000,-8.8664427,12.44402,-64.787621,166.29149,-65.522018,169.29439,-12.629684,101.81803
3395000000,-9.6666546,12.606526,-59.527355,58.571182,-59.991512,59.535637,-19.729195,47.574409
3400000000,-8.8842545,-54.27953,-60.523335,-47.98167,-60.546368,-43.620235,-17.030071,108.86104
3405000000,-7.1242609,19.485569,-60.244072,-132.5321,-60.260239,-132.95657,-15.429639,58.833912
3410000000,-11.345254,-33.697586,-61.565933,-144.30569,-61.405285,-144.14226,-21.279247,112.17239
3415000000,-9.4557781,-0.10886483,-60.757053,105.54881,-60.590439,102.32358,-14.21037,75.973785
3420000000,-6.2124248,-4.3918996,-65.416245,137.27142,-66.780998,143.15031,-22.709415,88.465477
3425000000,-21.994768,-127.51313,-57.701218,120.03227,-57.457455,118.73098,-18.410528,91.145073
3430000000,-3.896055,-2.0120389,-58.129013,2.2431548,-58.212894,3.2150748,-17.371208,48.402348
3435000000,-13.039527,-88.657639,-61.883072,-45.268406,-62.217857,-44.832138,-20.774193,128.4763
3440000000,-9.0749416,17.742252,-57.955822,-137.73717,-57.830349,-137.61047,-16.111662,36.957584
3445000000,-4.6997795,-34.579826,-58.093678,118.73409,-57.863304,120.27991,-22.833305,88.42598
3450000000,-15.653992,64.408905,-58.613503,9.1196003,-59.45076,7.832037,-15.87034,78.515396
3455000000,-5.309433,-34.441021,-72.778206,131.01096,-73.69931,144.2265,-22.607731,2.0146794
3460000000,-20.101513,2.7970569,-62.690331,41.362839,-62.772461,44.247116,-14.460105,96.553146
3465000000,-7.9935899,-4.5182161,-57.291443,-22.726645,-57.455994,-23.731985,-22.541599,-16.624859
3470000000,-6.8407893,-63.175919,-53.353123,-104.40995,-53.354759,-105.36633,-18.071756,98.284416
3475000000,-9.4331408,35.977962,-55.85984,-175.78589,-55.813171,-174.04395,-22.119568,44.153816
3480000000,-6.4313769,-54.303715,-55.912956,80.866943,-55.827915,81.027023,-35.482323,154.10262
3485000000,-10.976695,-14.078486,-63.843281,-36.888412,-63.852036,-33.391006,-15.317275,56.524345
3490000000,-11.375494,2.0257664,-76.157425,-81.741119,-75.691849,-99.597885,-30.004042,-167.80324
3495000000,-8.426774,-66.600151,-59.376724,56.095207,-59.069981,56.82576,-19.440132,53.434986
3500000000,-8.8723536,5.9440641,-61.655865,-69.580879,-61.381374,-68.030334,-20.986403,71.949272
3505000000,-9.9502659,-54.13435,-53.675697,-140.60345,-53.567932,-139.48378,-24.559376,169.69579
3510000000,-14.855574,-59.680717,-53.641727,125.7198,-53.421478,124.80087,-17.237988,52.278008
3515000000,-4.845324,-3.9808004,-55.154987,50.39954,-55.203526,48.255074,-24.004896,-152.23337
3520000000,-8.2497501,-123.94118,-60.761589,-38.539108,-61.182034,-43.003674,-17.239332,64.696564
3525000000,-7.3239341,4.2802043,-71.354134,167.92767,-71.173035,163.14809,-23.349583,-31.594164
3530000000,-7.0301056,-59.268871,-64.944618,16.209923,-64.627449,13.39871,-14.161602,113.40972
3535000000,-29.21497,4.2451482,-58.75629,-81.610291,-59.083191,-78.290962,-18.812462,-28.191906
3540000000,-4.2296314,-41.179916,-53.52766,-172.56915,-53.721237,-171.53828,-14.352467,126.30333
3545000000,-20.873631,140.11551,-60.121147,95.525566,-59.60416,95.595482,-22.986679,4.734705
3550000000,-5.9127526,-29.569256,-55.349247,-3.6692648,-55.416786,-3.5676961,-22.912693,149.93234
3555000000,-14.936792,-72.821091,-58.435364,-86.423073,-58.360172,-83.880966,-19.442013,72.042061
3560000000,-12.763377,-15.44959,-58.69022,-156.22792,-58.104053,-156.99232,-28.9235,-108.944
3565000000,-7.2836003,-76.313271,-69.207787,-17.201757,-69.91671,-10.799898,-19.005943,95.607491
3570000000,-12.465874,14.084523,-62.227562,-154.05328,-62.771358,-153.71021,-22.907593,31.758566
3575000000,-10.259584,-57.26049,-57.038513,145.79132,-57.171745,146.09428,-19.323814,140.76151
3580000000,-10.756868,-73.415001,-56.902332,73.89637,-56.4772,76.503632,-17.346132,50.950714
3585000000,-9.6610098,2.002867,-56.204174,-9.6405058,-56.15469,-7.3789582,-20.454794,174.45729
3590000000,-6.5083313,-95.079353,-63.151894,-125.54166,-63.000183,-123.06873,-19.721045,71.920326
3595000000,-13.668434,5.5529504,-60.948967,129.53018,-61.117466,125.95302,-30.443987,34.025906
3600000000,-8.7725306,-42.24966,-65.394699,68.601372,-65.643738,64.850601,-16.937199,133.51003
3605000000,-10.936605,-94.614113,-74.355347,-20.063854,-74.254066,-27.565931,-17.471333,4.6952958
3610000000,-7.0559068,-12.456354,-62.223885,78.141602,-62.511932,77.991417,-16.934566,133.86784
3615000000,-10.253979,-121.87956,-58.168678,15.515761,-57.788406,18.626223,-18.62458,45.136341
3620000000,-11.440287,-5.1995316,-55.670639,-76.386894,-55.604496,-76.137428,-26.740946,-171.19643
3625000000,-5.3379335,-61.549915,-58.214832,-122.94435,-58.325367,-122.40257,-15.149987,84.183998
3630000000,-12.411103,143.84644,-60.396286,152.64847,-60.118992,149.88458,-22.414577,-97.102684
3635000000,-3.6649594,-46.978207,-66.914635,128.42062,-66.615135,130.72644,-15.423482,83.530693
3640000000,-14.703838,-134.74225,-79.139931,-150.67868,-79.339096,-152.62167,-51.390381,86.320168
3645000000,-8.4571238,-40.523979,-71.223022,18.577227,-68.767029,19.948538,-30.354885,60.963783
3650000000,-9.8875351,-87.895378,-62.088993,-33.119934,-62.213955,-32.528061,-16.868567,69.265327
3655000000,-11.134233,8.6750574,-59.200764,-138.02795,-59.527946,-136.61227,-26.728971,-118.12805
3660000000,-4.2407184,-74.565773,-58.544266,166.31955,-58.127594,171.09479,-15.860769,82.075661
3665000000,-22.301458,55.176937,-59.329807,119.08946,-59.222599,116.45713,-26.379639,-32.677238
3670000000,-11.173244,-44.048977,-60.139492,54.059048,-60.132854,53.062603,-16.683601,123.47149
3675000000,-8.2408772,-87.081535,-63.930672,5.980906,-63.70586,11.544677,-16.685553,-9.8566456
3680000000,-12.611715,-6.3550315,-62.297508,-16.9928,-61.586037,-13.13383,-15.05189,145.78525
3685000000,-6.1205225,-84.287743,-57.156452,-109.34173,-57.473049,-108.11645,-16.432196,-12.976741
3690000000,-20.947069,-46.663448,-65.106834,171.03517,-66.779137,172.05104,-21.77228,135.50397
3695000000,-7.5233331,-24.942808,-57.828056,138.60913,-58.070229,143.29059,-20.168158,50.886532
3700000000,-5.7835307,-118.60925,-60.285339,72.114487,-61.007298,71.017464,-29.019976,-90.935974
3705000000,-7.1484361,-0.12450964,-68.699547,13.786761,-68.722641,6.1755595,-17.231567,75.806519
3710000000,-7.0515065,-109.21997,-64.99334,-26.461218,-64.442825,-26.062389,-28.837303,-112.19335
3715000000,-13.729123,-27.242897,-58.226906,-86.117607,-58.03801,-84.756699,-24.708504,79.975327
3720000000,-4.822885,-55.871872,-64.15818,-179.49265,-64.438713,178.61191,-24.264933,90.811531
3725000000,-9.8694296,-178.46123,-57.178646,138.28294,-57.572796,136.77046,-24.449398,-108.58463
3730000000,-3.5509143,-35.520485,-60.918617,79.620865,-60.742653,81.533264,-17.253485,68.196075
3735000000,-9.7480993,-128.16389,-56.797344,23.815235,-56.447651,24.620247,-28.533722,-115.87876
3740000000,-13.490745,-11.75864,-66.896187,21.094866,-67.129173,21.397249,-20.601072,124.59243
3745000000,-3.4502957,-75.987015,-61.542477,-49.941082,-61.163696,-53.295223,-21.020723,-9.0753412
3750000000,-17.350689,105.5875,-62.318497,-90.910019,-61.924294,-90.190483,-15.353504,161.57016
3755000000,-6.0729885,-85.126701,-64.293816,162.99336,-64.10331,152.62639,-16.763647,5.9374251
3760000000,-12.988624,-53.583042,-60.716492,107.56145,-60.550591,110.65741,-15.958998,175.34851
3765000000,-9.2758846,-64.111397,-58.343971,1.984069,-58.092899,0.23368639,-19.407528,30.212397
3770000000,-5.7107463,-103.31476,-57.833851,-53.533829,-57.780533,-54.868164,-24.322805,-127.32695
3775000000,-12.358667,2.8016601,-58.718822,-112.82174,-59.110985,-113.23329,-15.994568,94.580139
3780000000,-6.8714609,-86.121101,-60.222538,-135.93277,-59.764404,-138.30144,-22.345011,-100.84325
3785000000,-10.356481,-104.70652,-61.320957,-146.88754,-60.788395,-144.29013,-17.487915,106.24091
3790000000,-7.530365,-26.224464,-60.885468,140.84442,-61.82333,141.88596,-24.628248,113.18339
3795000000,-3.2491107,-122.47879,-62.858166,64.338142,-62.274414,62.544884,-22.501057,-145.57919
3800000000,-10.79285,13.69523,-58.591419,-0.19038582,-58.712807,-0.029846866,-16.114826,91.85331
3805000000,-3.59532,-79.897278,-56.660179,-96.963333,-56.863602,-98.664803,-18.978533,-106.23448
3810000000,-10.506474,-173.67616,-63.476593,-162.63048,-63.089485,-163.27576,-14.898557,107.07173
3815000000,-2.5023043,-49.171558,-58.161835,134.07576,-58.081551,135.38478,-24.192759,-24.04664
3820000000,-5.943819,-166.01758,-64.065971,119.68863,-63.575718,121.65564,-13.813401,147.55182
3825000000,-5.205101,-39.297379,-71.283447,32.859528,-71.083351,35.366337,-15.438386,20.590202
3830000000,-5.8195362,-116.23777,-59.290222,27.00561,-59.313728,31.053019,-12.459448,160.44989
3835000000,-30.708124,-50.520836,-60.401794,-67.981476,-60.137985,-71.403816,-21.958538,47.872765
3840000000,-3.078757,-83.791519,-58.482838,-137.23042,-58.421616,-135.36212,-24.827118,-174.65439
3845000000,-13.555872,-175.25468,-55.266655,150.10988,-55.320469,150.46425,-15.735789,111.31304
3850000000,-6.14784,-68.411079,-56.531075,96.300972,-56.570457,95.190819,-25.923582,-42.636589
3855000000,-4.8350325,-117.94256,-60.743641,17.590639,-60.612366,14.755934,-15.254702,114.24918
3860000000,-23.403378,-0.63740486,-64.785217,-2.9698541,-65.318748,2.6337202,-24.522966,65.327431
3865000000,-3.0075312,-88.671402,-64.133583,-42.192741,-64.908386,-41.563374,-24.786753,123.65828
3870000000,-12.438126,-146.35527,-59.684319,-85.251038,-60.497627,-82.515366,-14.609011,105.6226
3875000000,-7.4175143,-68.963867,-59.415146,-159.82648,-59.713341,-161.94136,-29.436979,-86.135384
3880000000,-4.2390614,-135.98465,-55.034451,120.81425,-54.866959,118.8067,-14.992057,117.1646
3885000000,-9.5347967,-6.9533567,-55.840816,45.926548,-55.863312,46.445969,-19.394516,29.687288
3890000000,-0.65529078,-115.34747,-55.275612,-16.180922,-55.05439,-17.630064,-15.322829,167.97746
3895000000,-15.313033,151.63702,-59.55172,-52.102814,-59.15683,-53.616993,-11.424022,32.198692
3900000000,-3.0712435,-69.710396,-64.358078,-150.49832,-64.004211,-149.11375,-13.042619,171.10251
3905000000,-3.7904892,-152.18665,-58.966915,-121.49052,-58.803635,-118.27216,-13.604721,44.061543
3910000000,-6.6359539,-26.117613,-59.736397,133.77859,-59.829029,129.23911,-21.56082,153.75626
3915000000,-1.5914321,-132.07497,-55.138779,95.624962,-55.021523,98.107361,-15.6484,90.068756
3920000000,-19.08774,-13.97904,-55.710651,15.362491,-56.007755,17.307699,-25.881161,-4.0226808
3925000000,-3.083215,-97.615654,-53.928371,-46.356503,-54.021034,-45.089424,-15.534222,106.37481
3930000000,-9.2510071,169.10832,-58.000809,-114.8681,-57.891495,-113.48706,-28.288429,24.735312
3935000000,-3.4942911,-84.178192,-60.017391,-138.7542,-60.398628,-136.33707,-23.389095,45.579082
3940000000,-8.6735516,-153.56378,-64.642754,162.16489,-63.999153,159.22195,-13.806176,91.792221
3945000000,-11.268199,-127.42641,-61.634842,158.90242,-61.757465,159.22849,-21.14175,-49.836987
3950000000,-3.4936376,-92.501381,-59.121754,59.506359,-59.579979,57.617859,-12.14388,88.980095
3955000000,-7.7232537,175.39407,-57.116062,-12.899757,-57.012619,-13.149124,-24.220251,-57.450237
3960000000,-6.2207561,-84.313789,-54.263149,-91.266808,-54.3241,-88.354462,-18.453901,91.44249
3965000000,-5.3698325,-149.07353,-55.249352,-130.92603,-55.33667,-130.61014,-17.980228,47.735714
3970000000,-22.386929,-55.50106,-56.956898,134.41196,-56.732338,130.01317,-21.793196,-168.10732
3975000000,-0.49503297,-125.2132,-57.805641,107.09254,-57.625389,106.10752,-12.911175,42.033581
3980000000,-13.670301,121.66537,-66.279366,57.088718,-66.999344,55.847191,-25.925928,175.49825
3985000000,-3.7580998,-99.30957,-58.773937,28.127371,-58.608681,29.149168,-17.289085,62.88409
3990000000,-5.2831445,-176.00999,-60.7276,-33.403114,-60.681847,-31.487749,-22.789831,-0.72658408
3995000000,-8.319705,-58.532597,-57.352142,-116.63962,-57.306179,-115.18187,-16.722187,119.28524
4000000000,-0.78989697,-158.52988,-53.362957,178.64018,-53.060963,174.64799,-17.882896,-9.1642218
END

