!CSV A.01.01
!Keysight Technologies,N5247A,US56070710,A.10.64.09
!Date: Saturday, November 19, 2022 21:52:06
!Source: Standard

BEGIN CH1_DATA
Freq(Hz),S33(DB),S33(DEG),S34(DB),S34(DEG),S43(DB),S43(DEG),S44(DB),S44(DEG)
3000000000,-15.565254,-141.23311,-57.365452,-68.868362,-57.473652,-70.671959,-16.100763,-119.91553
3005000000,-8.6367006,106.53261,-53.633556,-114.00848,-53.580753,-113.62878,-15.212446,-167.40123
3010000000,-17.628117,82.980362,-55.217747,-152.04771,-55.31702,-154.09618,-18.030598,-155.65717
3015000000,-9.7587471,168.16008,-54.918835,94.128189,-55.066273,93.947388,-12.589388,-150.83803
3020000000,-10.299988,64.255714,-53.686161,75.090729,-53.971466,75.134636,-19.904152,159.22432
3025000000,-11.122215,157.93752,-61.844673,23.598484,-61.631882,26.245066,-12.169576,-147.62675
3030000000,-13.036379,89.420395,-60.783531,-77.935776,-60.978851,-77.261063,-17.972977,161.63432
3035000000,-16.194384,52.92815,-66.956444,-149.89273,-66.830215,-148.85066,-14.800664,-150.29803
3040000000,-6.3240571,146.83447,-57.308773,177.68236,-57.386192,178.53952,-13.59017,177.7554
3045000000,-11.639427,41.47023,-58.624928,145.61464,-58.336914,143.72743,-20.937531,-173.91489
3050000000,-14.67886,131.4055,-53.915741,63.804214,-53.988171,63.15971,-11.596317,176.63333
3055000000,-7.6280465,107.58336,-51.244865,36.672951,-51.394302,35.219494,-18.874331,177.90622
3060000000,-17.586924,-15.759224,-53.659256,-31.652201,-53.623074,-33.279751,-14.813361,-175.10683
3065000000,-5.4446564,116.59707,-52.093315,-98.547401,-52.187153,-99.688034,-14.185336,167.77037
3070000000,-17.077034,30.722868,-56.014229,-133.84886,-55.84082,-131.86142,-19.23349,-162.66748
3075000000,-11.526622,114.24709,-56.313828,-165.62759,-56.118965,-164.76584,-12.520581,160.56248
3080000000,-5.9584551,92.121521,-62.969368,118.91972,-63.758209,123.75555,-19.343847,159.4612
3085000000,-15.678188,-108.35432,-57.646862,90.571808,-57.60585,90.272491,-14.664176,173.37804
3090000000,-4.3646665,91.317566,-54.731884,-12.844939,-54.491074,-13.029752,-14.564452,133.40701
3095000000,-27.126059,32.581558,-55.888161,-66.292526,-55.941517,-65.196167,-14.858949,-159.21292
3100000000,-9.4604397,121.74157,-53.582191,-149.85699,-53.328392,-150.19347,-13.285129,131.57698
3105000000,-6.610353,60.753586,-54.5434,159.21599,-54.170441,159.38495,-17.080881,-166.67931
3110000000,-11.434248,161.82368,-58.252804,92.574654,-58.061577,94.519569,-13.686244,145.15324
3115000000,-7.8426771,61.170349,-57.148415,71.963089,-57.3866,71.303108,-22.038923,140.08316
3120000000,-13.193735,93.091942,-55.493797,27.128284,-55.947102,24.412678,-14.12338,155.75108
3125000000,-10.448243,125.56046,-55.100079,-35.268387,-55.364368,-35.370205,-19.49638,134.52853
3130000000,-6.1019201,42.526737,-54.588772,-92.11145,-54.378376,-92.658241,-16.307627,155.57458
3135000000,-10.474031,132.9888,-54.497849,-178.78343,-54.523075,-178.34956,-14.85096,149.24323
3140000000,-8.7617826,69.523193,-55.890308,125.88644,-56.221863,124.14845,-22.009151,132.79759
3145000000,-13.341257,36.261169,-61.429184,51.907158,-61.30793,52.622021,-12.946112,147.91354
3150000000,-5.7151837,113.44464,-60.680981,-14.148742,-60.592896,-12.487308,-23.787096,133.5545
3155000000,-8.3029137,20.934656,-58.838531,-11.643703,-59.214478,-12.813566,-17.157595,153.07089
3160000000,-9.187727,109.89566,-61.155102,-69.687035,-60.663162,-65.763802,-16.121742,124.57601
3165000000,-7.6701636,61.420052,-57.209667,-155.16592,-57.344814,-152.14098,-19.287447,175.07086
3170000000,-23.293375,67.106987,-54.660519,154.74529,-54.763729,156.57756,-13.386012,122.87167
3175000000,-5.7442899,84.127579,-52.876938,62.376976,-52.923882,60.728401,-20.586584,171.9464
3180000000,-13.887893,-6.1956544,-56.200691,31.368311,-56.152939,31.447842,-14.910602,136.29352
3185000000,-6.1573486,79.962616,-58.690746,-62.146095,-58.633083,-63.087795,-22.849522,129.56401
3190000000,-9.1521854,41.707943,-57.349808,-98.49173,-57.460529,-98.151932,-15.223429,166.32814
3195000000,-21.460178,95.96476,-58.202488,-176.01643,-58.369175,-175.27802,-21.184591,84.144112
3200000000,-4.3247733,61.380501,-53.325672,175.90082,-53.412064,174.78328,-14.72621,152.01961
3205000000,-17.830713,90.315918,-56.054111,93.40992,-55.924213,92.811752,-20.265631,120.9789
3210000000,-8.4157972,49.003002,-56.088005,25.978125,-56.413048,24.363689,-18.945572,122.20345
3215000000,-9.4106455,44.444279,-56.243118,-31.979601,-56.193993,-32.39336,-14.979476,144.24063
3220000000,-13.512785,102.95935,-59.82019,-68.351196,-60.469967,-67.445793,-21.615412,117.753
3225000000,-5.254282,33.656406,-62.212219,-143.37596,-62.177635,-143.83595,-15.24068,154.97618
3230000000,-16.169113,67.691429,-67.72731,-115.10484,-67.10862,-121.53432,-17.729391,119.89583
3235000000,-7.8916492,72.567307,-63.041164,158.26717,-63.727852,156.56859,-20.907616,175.58525
3240000000,-4.6870155,13.262808,-59.391506,67.212059,-60.004292,62.462601,-13.082656,112.18079
3245000000,-9.2196207,132.4071,-60.233543,-36.90752,-60.138763,-37.75621,-21.293041,-158.05908
3250000000,-4.98634,26.064827,-55.585388,-69.231224,-55.528496,-69.103668,-14.088889,117.93539
3255000000,-14.009148,55.084515,-56.710281,-146.21153,-57.142166,-145.95967,-22.903711,125.21891
3260000000,-7.4475079,55.929214,-56.072384,155.38239,-56.09441,154.90427,-14.074144,144.64996
3265000000,-8.8053074,-13.861504,-59.637451,159.5645,-60.523914,155.27905,-17.960527,98.234192
3270000000,-4.6442919,82.315491,-56.424339,90.21273,-56.303223,88.019554,-15.914621,160.02808
3275000000,-7.3754058,-8.9577675,-62.019646,44.138031,-61.749588,44.442989,-16.40498,100.03455
3280000000,-12.68629,74.230766,-60.884197,-8.979146,-61.082043,-6.1690092,-18.857214,137.37854
3285000000,-5.2822309,44.769588,-60.036274,-119.17729,-60.408371,-116.53461,-14.453037,138.45128
3290000000,-12.198917,-56.131931,-59.5555,158.50558,-59.617538,161.08621,-19.3631,83.330673
3295000000,-5.2317142,49.918407,-64.99688,97.646828,-64.494507,97.073219,-12.899046,144.5724
3300000000,-9.4051561,14.849967,-56.878937,83.840652,-56.999252,85.87059,-16.986908,97.369209
3305000000,-18.066366,17.261028,-64.417198,31.196613,-63.916256,26.853924,-18.8393,153.8985
3310000000,-4.871448,31.970182,-59.184925,-25.12326,-58.771729,-26.004393,-12.896845,111.6105
3315000000,-25.970121,-13.125955,-55.124371,-74.11557,-55.050858,-71.328674,-31.965462,-162.45654
3320000000,-6.6298308,32.801247,-58.016304,-139.62485,-58.30265,-139.19136,-11.522769,116.39503
3325000000,-8.3273335,-9.7776766,-65.400658,-177.11002,-65.459549,-174.80449,-23.334484,73.404381
3330000000,-17.907213,104.75979,-61.404613,99.276833,-61.89782,103.8559,-12.915165,127.24073
3335000000,-2.5620184,5.4718394,-63.219372,30.528307,-63.369896,28.446171,-16.309479,79.620865
3340000000,-23.436691,122.29686,-66.868973,22.403677,-66.108475,13.702792,-15.362339,141.79953
3345000000,-6.2257438,19.286947,-62.529327,-74.381866,-62.205029,-79.482574,-16.080915,91.087898
3350000000,-7.8569937,-21.587536,-59.247013,-154.20175,-59.917084,-151.79393,-17.724405,116.93194
3355000000,-9.0658045,67.821815,-65.691917,118.17462,-66.264908,118.70265,-16.776333,120.76463
3360000000,-5.4946332,-32.7047,-61.225784,101.17039,-61.084572,99.426247,-15.620886,71.300201
3365000000,-9.5441399,55.709946,-67.364143,24.609074,-66.792938,30.704535,-17.840145,127.26711
3370000000,-6.0006433,-1.8163679,-61.746845,-24.149645,-62.357418,-26.759039,-13.417342,78.195648
3375000000,-11.258519,-30.327328,-59.27866,-42.670155,-58.887928,-39.529221,-22.674366,122.13307
3380000000,-7.6238585,41.992748,-59.096359,-133.58595,-59.438545,-129.54422,-12.760971,99.559097
3385000000,-9.9355297,-39.935337,-62.863331,172.48918,-62.134171,173.95291,-26.404274,27.100077
3390000000,-8.6295729,14.578342,-78.481148,86.477127,-79.062965,92.676926,-12.556635,101.27676
3395000000,-9.768096,9.5368834,-65.270279,54.501205,-64.926361,54.746948,-19.7878,46.0844
3400000000,-9.3279619,-53.515064,-67.464676,-50.807617,-67.495918,-48.595146,-17.017025,109.92915
3405000000,-6.9801383,17.283894,-65.188148,-126.56129,-65.547218,-127.43501,-15.324327,59.246925
3410000000,-11.937968,-34.277843,-59.424442,-117.45401,-58.775532,-119.97831,-21.403913,110.90571
3415000000,-9.0596256,-0.36261982,-58.968857,133.03346,-59.291702,135.97163,-14.306421,76.030983
3420000000,-6.4421887,-5.0328918,-59.777687,109.54667,-60.884411,109.01001,-22.569246,90.050224
3425000000,-23.35305,-125.58877,-61.397709,90.78315,-61.733994,89.927193,-18.281448,90.291199
3430000000,-3.9506452,-2.791615,-61.732498,-34.452644,-61.400387,-31.999197,-17.414391,47.278316
3435000000,-13.324325,-88.690269,-71.49469,42.711689,-70.256477,50.967808,-20.647228,130.21994
3440000000,-9.0583553,17.086281,-63.12254,-94.944534,-63.12291,-94.249924,-15.987663,37.866356
3445000000,-4.7221107,-34.777149,-62.218014,169.5739,-61.928276,167.14793,-22.980404,85.718536
3450000000,-15.487848,65.278458,-62.553802,72.961899,-63.014439,71.105804,-16.04785,79.2211
3455000000,-5.2061486,-34.595985,-59.449657,49.998726,-59.190254,51.63884,-22.817213,4.7517133
3460000000,-20.955036,4.9868212,-58.934422,-33.216431,-59.24902,-33.384895,-14.445532,95.34713
3465000000,-7.7306662,-4.1371636,-64.455971,-79.452721,-63.682629,-79.819138,-22.438511,-19.757771
3470000000,-6.8079557,-65.096214,-60.487698,-99.698097,-60.327892,-101.15401,-17.901659,99.896637
3475000000,-9.0220699,36.725937,-59.516491,-122.99528,-59.79488,-124.34719,-21.644838,44.233589
3480000000,-6.2376122,-56.073051,-58.775967,133.38731,-58.992954,131.76242,-37.407536,165.90181
3485000000,-11.13315,-10.309861,-61.307526,85.43087,-61.157215,80.253983,-15.468705,57.686916
3490000000,-11.112134,-1.6805167,-57.237705,-6.5339851,-57.058018,-9.6921654,-30.389593,-176.19728
3495000000,-8.8553743,-67.937263,-67.048378,-70.658241,-66.72023,-66.940903,-19.372229,50.960117
3500000000,-8.4694452,4.5769114,-61.133976,175.86745,-60.830383,174.34291,-21.406124,73.436455
3505000000,-10.236341,-56.941479,-64.238319,-127.51026,-64.679527,-125.06696,-24.132153,166.03348
3510000000,-14.715895,-54.825203,-62.269234,164.60373,-61.842068,162.57607,-17.015785,50.885803
3515000000,-4.9752927,-4.9864488,-56.825207,107.41925,-56.975964,106.13772,-23.577171,-148.81894
3520000000,-8.4979057,-124.36204,-56.302025,39.849316,-56.337898,40.650284,-17.210417,66.864609
3525000000,-7.3366675,3.1917894,-57.069801,-42.596504,-57.005173,-41.009552,-23.159632,-27.351608
3530000000,-7.1355138,-59.284466,-58.207329,-135.3876,-58.632423,-135.52324,-14.406715,113.43224
3535000000,-28.629032,3.8680356,-63.848442,111.84045,-63.387177,110.36649,-19.157305,-29.778147
3540000000,-4.1981339,-41.445126,-66.523026,-135.30547,-66.312515,-132.2562,-14.191368,125.08222
3545000000,-20.245943,139.63214,-59.537529,-142.17491,-59.709595,-143.77786,-22.459526,2.245357
3550000000,-5.7588139,-29.334692,-59.167305,73.871567,-59.429256,73.305862,-22.634342,154.00053
3555000000,-14.993788,-76.907089,-55.215328,-5.8873811,-55.225433,-5.2045364,-19.081934,73.7593
3560000000,-12.401434,-12.701508,-52.490993,-108.51933,-52.770332,-106.69391,-29.248981,-99.992027
3565000000,-7.0497942,-77.987297,-56.143726,172.55516,-56.106094,172.54951,-19.401331,96.92849
3570000000,-12.137007,17.936981,-57.192741,83.520149,-57.141693,82.447334,-23.103571,36.041832
3575000000,-9.75072,-58.787029,-64.910378,-74.339157,-64.836433,-75.5998,-19.474335,137.99797
3580000000,-11.405892,-74.448387,-57.009186,153.16264,-56.767258,152.83905,-17.562456,49.221825
3585000000,-9.2376337,-0.28946739,-53.83783,48.91468,-53.76759,49.872162,-19.988222,174.22664
3590000000,-6.5900879,-97.706123,-56.029987,-37.352673,-55.894966,-36.101578,-19.317234,71.333443
3595000000,-12.874105,5.4319086,-55.988632,-152.52885,-55.848412,-151.6736,-30.225872,25.007185
3600000000,-8.9169426,-44.915874,-54.687172,116.98341,-54.818119,116.3171,-16.816135,135.15227
3605000000,-11.312559,-92.685677,-55.828327,19.884686,-55.800232,21.305506,-17.449999,6.4261951
3610000000,-7.0875831,-14.073465,-62.542721,-59.021782,-62.316032,-60.046524,-17.137831,133.13672
3615000000,-10.505143,-123.06351,-64.598343,104.26687,-63.872711,100.16902,-18.87993,44.841301
3620000000,-11.309427,-6.4198179,-59.886379,-21.840567,-59.853519,-20.555431,-26.429125,-174.60332
3625000000,-5.3859801,-61.858116,-54.552986,-80.450172,-54.254742,-79.715332,-15.085215,83.325478
3630000000,-12.371367,143.12364,-54.232491,-173.25807,-54.313343,-174.79518,-22.117559,-96.668091
3635000000,-3.5916007,-47.004818,-55.730972,115.13416,-55.475056,111.65041,-15.417251,84.387711
3640000000,-14.485451,-137.08626,-59.118904,-0.55133504,-58.875664,-1.6220689,-45.767578,78.64325
3645000000,-8.302433,-39.142391,-60.055332,-89.536736,-59.423801,-91.260735,-30.388515,56.4632
3650000000,-9.657114,-89.973877,-68.183868,152.2265,-68.449295,156.69244,-16.988855,69.725143
3655000000,-10.777493,11.292263,-79.903526,15.861073,-84.349205,-6.3132915,-26.97365,-120.51164
3660000000,-3.9966614,-75.330078,-59.440342,-130.3158,-59.738499,-131.19101,-15.82134,81.296844
3665000000,-20.60383,64.577988,-54.961693,154.14058,-54.892464,154.34422,-26.204163,-35.02314
3670000000,-10.511046,-45.045635,-53.948311,66.429771,-53.860676,67.727867,-16.569109,123.92768
3675000000,-8.5554686,-89.866272,-55.720802,-11.109447,-55.380508,-11.135379,-16.611115,-9.1137218
3680000000,-11.829953,-7.0517607,-60.15604,-78.310463,-59.764549,-80.035599,-15.151117,146.08211
3685000000,-6.1044173,-86.779808,-58.422592,-156.56851,-58.671158,-154.77261,-16.533836,-13.323691
3690000000,-20.285299,-35.404858,-64.902893,39.830429,-64.514221,48.026306,-21.635181,134.50856
3695000000,-7.6131244,-27.223843,-60.629124,-169.19151,-60.415764,-169.83942,-20.115749,49.858562
3700000000,-6.0413241,-118.90356,-58.030476,121.36993,-57.662086,121.78139,-28.639454,-92.376633
3705000000,-7.1291122,-1.7149025,-58.375759,45.915371,-58.611404,44.091473,-17.16272,76.379616
3710000000,-7.1702757,-110.15476,-56.826534,-35.847252,-57.030827,-36.360386,-29.131718,-110.18261
3715000000,-13.511212,-27.379702,-55.076691,-110.28076,-55.151001,-110.88885,-24.943157,79.619026
3720000000,-4.8239813,-56.078865,-58.690174,136.29631,-58.986671,137.97211,-24.2101,92.168449
3725000000,-9.8011179,-178.99414,-61.489883,101.56787,-60.913616,100.08918,-24.659925,-108.35406
3730000000,-3.47455,-35.25304,-75.25502,118.15713,-74.445061,128.48521,-17.282936,67.693512
3735000000,-9.514761,-129.16005,-57.954075,51.73275,-57.786922,54.657249,-28.28619,-116.98883
3740000000,-13.159672,-8.9484243,-58.407681,33.269905,-58.606598,34.214119,-20.491783,124.33112
3745000000,-3.2879353,-76.89064,-56.634457,-58.822525,-56.368565,-57.918167,-20.908741,-8.969841
3750000000,-16.24861,102.85634,-59.115807,-126.51698,-58.796108,-125.21497,-15.353651,161.96327
3755000000,-5.7137661,-84.71801,-59.811005,119.79086,-59.691044,118.27641,-16.814205,6.189847
3760000000,-13.897707,-53.592777,-62.712296,65.864418,-62.129322,64.914436,-15.997983,175.08104
3765000000,-8.8015642,-62.148697,-60.366364,-29.142639,-60.032482,-28.001202,-19.417133,29.717642
3770000000,-5.6827946,-105.84896,-63.507568,-62.577301,-63.153229,-59.516747,-24.215368,-127.84885
3775000000,-11.60165,3.297682,-61.621807,-83.704185,-61.478245,-81.98455,-15.949828,94.519112
3780000000,-6.692112,-88.507851,-57.018772,-118.69498,-56.782856,-118.90477,-22.329979,-100.2226
3785000000,-10.863719,-103.11873,-57.488129,-162.29886,-57.465355,-161.00056,-17.519869,106.54732
3790000000,-7.4723678,-28.365459,-58.6968,113.23487,-59.531475,114.51729,-24.517609,113.37472
3795000000,-3.3884666,-123.20239,-61.533382,26.396173,-61.104168,24.817202,-22.590738,-145.43272
3800000000,-10.721071,11.803055,-61.087933,-21.234529,-61.192673,-18.094461,-16.154917,91.824692
3805000000,-3.6580684,-80.264549,-59.089741,-112.64565,-59.168873,-110.65778,-18.966179,-106.59098
3810000000,-10.565907,-173.61635,-72.580383,-155.18073,-71.836113,-148.71504,-14.877964,106.94157
3815000000,-2.4780509,-49.129246,-59.941299,155.02013,-60.215775,157.71288,-24.114986,-24.110943
3820000000,-5.8480926,-166.22449,-59.579502,137.22258,-59.169605,138.14859,-13.807256,147.70619
3825000000,-5.1435051,-38.449207,-63.29958,48.642509,-63.889912,42.265701,-15.440462,20.785915
3830000000,-5.6106763,-116.63809,-58.14743,10.129104,-58.482819,9.3756962,-12.478084,160.41003
3835000000,-31.919968,-16.861073,-59.155842,-92.574409,-58.824501,-90.875786,-21.994583,47.697269
3840000000,-2.8425498,-83.926422,-59.954327,-157.46974,-59.981289,-156.16037,-24.760965,-174.76558
3845000000,-13.252532,179.38347,-57.210728,146.14331,-57.348515,144.14961,-15.721048,111.17831
3850000000,-5.7905297,-67.515091,-58.613689,101.8903,-58.667351,100.40351,-25.845421,-42.705811
3855000000,-4.8223929,-120.23923,-61.946701,42.803932,-62.241699,40.719193,-15.252952,114.38915
3860000000,-20.862503,-2.3151274,-61.711422,12.937002,-61.646828,11.304656,-24.481899,65.437332
3865000000,-2.9399755,-90.483101,-61.456802,-49.715214,-61.472141,-50.505802,-24.81016,123.47356
3870000000,-13.273525,-146.43347,-59.389019,-99.25267,-59.243046,-99.602829,-14.621977,105.65423
3875000000,-7.1858339,-71.137924,-60.549061,176.6053,-60.32972,-175.561,-29.479277,-86.690773
3880000000,-4.4446454,-136.86328,-56.18335,111.46188,-56.165802,110.48696,-14.986788,117.06741
3885000000,-9.4570446,-9.3173237,-57.585667,43.954407,-57.466072,44.764977,-19.398169,29.580545
3890000000,-0.71986729,-115.86908,-56.420872,-9.3872309,-56.66925,-12.196569,-15.313895,168.006
3895000000,-15.66607,152.47412,-58.737637,-40.501667,-58.846745,-39.218204,-11.420309,32.246956
3900000000,-3.104641,-69.893822,-62.399426,-128.50905,-63.631947,-128.66649,-13.04793,171.13408
3905000000,-3.7790391,-152.20181,-57.964954,-131.78647,-57.69809,-126.54192,-13.611445,44.06987
3910000000,-6.5790825,-25.700838,-58.016903,121.88608,-58.411644,121.14432,-21.545214,153.69202
3915000000,-1.5010325,-132.20471,-55.823231,91.347733,-55.836254,91.099701,-15.642508,90.038124
3920000000,-18.759129,-8.1151705,-56.968052,14.098372,-56.946331,12.28795,-25.875803,-4.1979332
3925000000,-2.8824284,-97.637955,-54.680107,-47.854275,-55.05463,-43.861057,-15.5344,106.45239
3930000000,-9.0606375,166.21346,-58.431408,-110.43408,-58.862095,-106.016,-28.273502,24.911207
3935000000,-3.2513988,-83.47728,-59.314331,-133.0406,-59.291595,-129.40147,-23.390018,45.492477
3940000000,-8.4586773,-156.7977,-61.011803,160.43712,-61.744591,160.38414,-13.808402,91.829041
3945000000,-11.446831,-122.65955,-61.431973,143.45665,-61.786831,146.65884,-21.146177,-49.788658
3950000000,-3.4671576,-94.550537,-59.661762,45.426193,-59.680729,46.900917,-12.139086,88.984505
3955000000,-8.1962347,173.92511,-57.877865,-22.401203,-57.567413,-19.238455,-24.210217,-57.406609
3960000000,-5.9895039,-86.47876,-54.999424,-92.872093,-55.157635,-91.151718,-18.451433,91.535301
3965000000,-5.6693301,-150.17229,-55.926411,-126.5539,-55.914474,-126.54576,-17.97374,47.73822
3970000000,-20.989305,-64.084183,-57.883564,141.29527,-57.742565,140.9256,-21.791403,-168.07042
3975000000,-0.59850436,-125.88995,-57.004486,112.97585,-56.998405,109.76788,-12.913398,42.033581
3980000000,-14.188484,122.13876,-64.257332,54.774071,-64.808762,51.367374,-25.918324,175.53885
3985000000,-3.8303959,-99.982773,-58.589275,19.632742,-58.183006,24.150774,-17.286634,62.896851
3990000000,-5.3384809,-175.69116,-61.920719,-38.477165,-61.586544,-42.012817,-22.791006,-0.71160531
3995000000,-8.3590984,-58.445812,-58.022804,-121.14281,-57.963711,-120.3168,-16.718172,119.30717
4000000000,-0.75054896,-158.46121,-53.595451,177.04893,-53.696758,176.4801,-17.885769,-9.1256924
END

