!CSV A.01.01
!Keysight Technologies,N5247A,US56070710,A.10.64.09
!Date: Sunday, November 20, 2022 23:03:11
!Source: Standard

BEGIN CH1_DATA
Freq(Hz),S33(DB),S33(DEG),S34(DB),S34(DEG),S43(DB),S43(DEG),S44(DB),S44(DEG)
3000000000,-18.865774,174.19757,-60.077015,-31.468822,-60.503849,-24.676022,-17.734735,-141.2571
3005000000,-8.8614712,149.81963,-58.10807,-97.663864,-57.619987,-90.218712,-15.980623,167.40718
3010000000,-19.255806,-111.01093,-58.761799,-111.68934,-61.887783,-109.87012,-20.229841,-162.66956
3015000000,-12.616224,154.96976,-61.45079,-162.79123,-60.548534,-175.54846,-13.987592,178.40717
3020000000,-11.257416,168.19495,-52.198177,115.3885,-53.454197,114.55789,-20.768564,156.8755
3025000000,-18.939075,-164.96736,-60.185982,61.998398,-60.838024,43.562897,-14.552522,-172.77249
3030000000,-9.484333,130.59839,-54.88176,-10.067114,-56.517319,-20.423124,-16.247541,149.96349
3035000000,-15.950402,-151.55191,-60.203018,7.9460278,-61.955227,19.185802,-17.369934,-166.707
3040000000,-12.344172,163.97511,-61.31287,-107.32881,-60.67202,-140.66194,-13.747071,152.62244
3045000000,-11.23454,136.18637,-58.219894,-106.74511,-57.30851,-108.92232,-20.724817,156.95854
3050000000,-10.966455,-156.6223,-58.380318,-161.62169,-57.889828,-171.47919,-12.499866,159.87544
3055000000,-9.6236916,108.55261,-55.605003,118.29932,-54.83046,128.31587,-18.141993,128.83452
3060000000,-13.712277,-162.59879,-60.138626,111.32882,-59.775303,86.761887,-13.857321,174.29608
3065000000,-10.70764,158.29666,-63.268982,-25.351261,-61.577404,-33.258629,-15.110518,128.54909
3070000000,-15.085914,113.20702,-61.82748,-6.8645816,-56.64521,13.692018,-16.865934,172.97873
3075000000,-8.1182175,168.97693,-59.451042,-11.005972,-57.004147,-24.545389,-13.3098,136.46767
3080000000,-15.04438,98.945625,-56.57526,-111.08712,-57.018688,-91.697357,-19.414158,132.65453
3085000000,-11.384518,162.2697,-59.32069,-110.86015,-58.370586,-137.05354,-13.211098,150.06572
3090000000,-9.7502098,145.53,-59.937614,84.174927,-58.351418,100.23654,-16.775761,106.1929
3095000000,-23.965919,114.58266,-56.512569,116.53838,-59.662315,123.46494,-14.361138,160.41209
3100000000,-6.7010517,147.02649,-62.24678,-161.88487,-76.914482,-158.4108,-13.559689,117.8466
3105000000,-16.500645,134.40321,-60.883862,58.090275,-62.593884,35.905617,-19.048952,159.08835
3110000000,-12.585607,133.46179,-55.500519,6.7091622,-56.77055,-16.192806,-12.300179,125.37083
3115000000,-9.538558,135.87518,-54.531281,-83.130058,-56.853806,-57.702839,-21.965439,115.04406
3120000000,-20.836086,162.46419,-57.274288,-131.09531,-56.93705,-134.78064,-13.483676,133.89728
3125000000,-7.1220293,132.32704,-67.29628,-160.45085,-65.573349,117.69855,-16.515884,103.81502
3130000000,-12.51267,120.70485,-64.557663,139.5771,-62.905319,108.68819,-16.375013,149.89104
3135000000,-14.6807,150.68028,-58.296253,179.63919,-60.725109,-179.18869,-12.85125,107.16418
3140000000,-7.0471945,110.08491,-60.602531,63.595215,-62.158005,34.058178,-20.071209,144.76335
3145000000,-14.386054,-165.96584,-54.58746,21.50264,-52.157852,29.662703,-12.677356,118.08064
3150000000,-7.4822116,114.68504,-60.627731,-78.634735,-60.808197,-111.60884,-20.871672,106.97443
3155000000,-11.883835,117.85493,-65.514534,-107.90304,-57.167191,-132.63739,-14.681009,136.16084
3160000000,-10.780925,148.45248,-66.672607,107.16982,-66.857559,-10.195641,-16.298847,87.844795
3165000000,-8.4526577,81.123665,-66.492325,-155.95187,-59.435856,-145.02611,-15.955249,140.13211
3170000000,-8.9864769,164.06868,-57.290558,-168.18631,-56.709,-179.68198,-13.719664,104.55692
3175000000,-10.902725,96.036285,-58.971821,94.235535,-56.471104,119.36504,-21.012161,118.8245
3180000000,-10.490752,110.77546,-56.342983,-8.1100702,-55.032173,-16.576414,-12.651776,124.41058
3185000000,-8.2571106,129.88916,-66.757736,-28.45759,-65.015785,-119.01649,-23.128784,83.632652
3190000000,-11.565796,64.249855,-66.034096,176.59085,-68.216919,135.77065,-14.065171,137.55966
3195000000,-8.8302498,130.82307,-58.464592,-45.356304,-60.822311,-50.703079,-17.652113,80.090279
3200000000,-10.638075,114.77521,-63.177242,-66.405228,-58.515076,-51.43417,-17.122421,136.09299
3205000000,-10.950194,91.300529,-58.091675,145.69183,-57.009678,137.80324,-13.797386,93.245316
3210000000,-6.830029,118.36692,-57.01247,91.568825,-63.490524,99.18618,-22.411766,124.74173
3215000000,-15.086946,62.470825,-64.015724,11.374513,-60.794769,14.31884,-13.013308,109.95319
3220000000,-8.9831152,107.17287,-75.110176,67.701981,-69.501617,166.56268,-19.3731,97.23819
3225000000,-9.6433153,111.97362,-58.936394,90.907646,-58.960651,84.482086,-14.219463,135.81165
3230000000,-17.002277,90.097084,-58.085598,-16.408981,-59.152882,-37.085922,-15.809458,79.533989
3235000000,-4.2556953,96.802483,-56.307499,-88.395729,-57.000626,-80.593636,-16.017637,142.84537
3240000000,-18.630215,43.237564,-62.24432,169.16112,-58.841316,-173.04446,-14.449758,90.048225
3245000000,-10.019891,106.42552,-63.447006,168.80087,-66.933853,119.52078,-20.386469,124.31163
3250000000,-7.6303782,84.513702,-66.813187,-98.753548,-58.773861,-34.140182,-13.594804,111.94698
3255000000,-12.671759,142.5639,-73.101639,42.850277,-74.20018,119.07722,-18.501781,79.841995
3260000000,-4.8859434,66.529022,-56.453907,99.988319,-57.665592,72.502274,-12.792957,128.44522
3265000000,-16.480087,119.95398,-58.481068,-13.194365,-55.689972,-8.1307344,-15.800631,81.536499
3270000000,-9.5147476,92.58622,-63.062973,-65.357941,-65.046135,-90.672371,-16.528921,135.75491
3275000000,-8.5285549,63.28611,-58.116837,-153.71402,-60.578041,-131.84201,-13.01933,90.347984
3280000000,-8.9916449,130.70375,-68.28051,30.95615,-63.984901,148.10947,-21.849215,130.37314
3285000000,-7.5263295,53.688904,-67.971779,-41.60873,-62.375134,-142.14388,-11.724946,102.6088
3290000000,-10.151073,86.495377,-60.796509,160.76454,-58.884205,147.29228,-20.062275,90.054543
3295000000,-11.073227,89.540848,-57.632076,65.284698,-59.024101,80.555275,-13.050541,112.98721
3300000000,-9.688962,45.419834,-57.568008,12.64229,-57.296036,9.5946693,-14.096102,82.867058
3305000000,-7.151866,111.20116,-60.266285,-103.17091,-58.151791,-45.548065,-16.213392,134.56126
3310000000,-8.898469,48.858501,-80.054657,31.324709,-64.305183,-52.911037,-12.377382,86.743973
3315000000,-10.694314,67.886955,-71.662605,165.8902,-70.118454,-101.25201,-20.978863,122.8818
3320000000,-6.9606986,86.388954,-58.75428,-125.68727,-59.820019,-118.89029,-11.627141,98.295212
3325000000,-12.662499,-3.6691828,-56.560135,169.66057,-56.896305,164.10164,-18.26803,63.033154
3330000000,-5.423398,93.487129,-53.8965,102.21176,-56.179493,96.853951,-11.707097,111.90354
3335000000,-9.5817976,44.065784,-58.61684,2.188869,-60.347202,-10.783929,-15.126155,64.31601
3340000000,-13.045694,60.573124,-61.08852,-69.768082,-60.218788,-46.220272,-14.268579,113.64085
3345000000,-5.5070314,62.773495,-76.576271,-124.95965,-72.317009,70.666977,-13.441167,85.017906
3350000000,-27.570871,-54.398602,-62.139565,-12.923117,-61.573509,-56.629307,-19.830204,82.858147
3355000000,-5.5952134,65.517822,-55.698063,-107.03312,-57.562332,-115.67457,-11.453256,97.202423
3360000000,-11.470265,56.538937,-58.62767,168.57744,-54.923981,179.71562,-17.965204,42.387077
3365000000,-12.555397,53.328709,-56.372536,100.12124,-55.561703,101.99731,-12.74255,98.788528
3370000000,-5.6449022,44.184837,-64.99147,-16.13036,-62.497021,8.4689817,-12.978885,61.107136
3375000000,-16.405775,94.886314,-62.742859,90.13092,-70.960808,135.67719,-17.019711,114.36244
3380000000,-9.3412428,47.943588,-57.073959,84.921761,-58.030777,76.749603,-11.508687,69.81546
3385000000,-7.5094318,49.893467,-54.72884,-39.935947,-56.377716,-30.997875,-21.28257,94.938141
3390000000,-14.551908,82.74604,-54.300575,-108.65532,-53.548916,-89.017647,-12.325542,76.716057
3395000000,-6.2233515,27.420591,-53.258934,178.37701,-53.126823,177.93591,-15.747676,52.803127
3400000000,-13.436846,72.595398,-56.846176,86.047539,-57.504486,89.363739,-15.760857,106.55365
3405000000,-10.832686,50.464512,-70.096062,-66.799675,-64.869972,-31.989597,-11.934616,42.892193
3410000000,-7.1782966,23.085901,-58.358139,-174.12549,-62.526516,156.19463,-17.529764,108.83823
3415000000,-9.6306171,85.842255,-53.255775,52.682758,-52.635204,73.294464,-12.129854,61.409328
3420000000,-7.1750622,5.4401875,-53.031265,-22.87775,-55.760334,-34.005817,-21.03863,58.315952
3425000000,-10.420746,65.005371,-50.935471,-106.69788,-54.008034,-96.656715,-12.628763,83.899345
3430000000,-9.1150656,39.156971,-59.50864,145.82954,-59.386829,166.49174,-17.690149,17.33235
3435000000,-12.435807,-9.529726,-62.063934,85.015572,-63.085941,91.311615,-14.835966,95.071747
3440000000,-5.0993133,59.464119,-57.745777,-126.65334,-59.816273,-105.42412,-14.59033,35.463863
3445000000,-13.129088,-22.656477,-55.174259,130.11055,-54.528946,138.30377,-21.460361,82.091545
3450000000,-7.3627009,37.344955,-50.563931,49.579887,-52.061127,47.391193,-11.856428,61.924175
3455000000,-10.345214,32.554924,-54.021633,-4.474587,-53.932697,-16.558468,-28.622433,10.752808
3460000000,-19.460651,-6.1939845,-53.348774,-117.73831,-54.867912,-113.04427,-12.526839,71.399643
3465000000,-5.1581869,37.142345,-62.727932,119.60145,-61.065567,98.516251,-21.547819,27.348848
3470000000,-15.451739,24.339046,-62.521957,-4.6915154,-64.590225,-1.7920295,-17.573269,93.524162
3475000000,-10.199613,12.12367,-55.57225,-145.99904,-55.450329,-138.68367,-15.323582,38.080151
3480000000,-6.9787517,24.2152,-53.124657,137.14102,-55.012974,137.61275,-25.410271,113.83967
3485000000,-33.108387,82.016899,-51.852604,34.161846,-51.482029,40.758366,-13.678193,50.369156
3490000000,-6.1189513,28.871578,-54.541939,-21.079317,-54.722271,-33.860966,-25.705002,33.087311
3495000000,-10.401942,17.986788,-58.367249,-154.02023,-59.070599,-154.91002,-15.496067,81.050041
3500000000,-14.529795,34.89114,-66.001617,13.329431,-71.831184,-39.839375,-17.752085,18.184536
3505000000,-6.22439,-1.9529024,-60.80949,-58.124458,-57.474701,-51.308613,-15.330979,113.72733
3510000000,-12.488654,98.519325,-51.453636,-153.87027,-54.45731,-158.17059,-16.704769,27.731131
3515000000,-6.9209995,5.5505795,-53.919258,139.2542,-53.092545,135.67699,-23.496668,126.63385
3520000000,-11.198408,11.751086,-52.723965,41.82074,-53.154808,30.806257,-14.759844,54.781723
3525000000,-10.353845,41.728348,-57.734135,-18.829552,-62.37849,-49.491798,-31.174532,-10.479292
3530000000,-8.0554371,-38.488712,-60.507637,-166.55756,-58.955547,152.1217,-13.648347,80.103333
3535000000,-7.5122237,58.128231,-58.067406,-9.6823187,-62.780258,9.5416031,-23.800997,25.017365
3540000000,-11.303853,-13.895984,-51.624821,-50.671131,-51.54179,-60.26144,-16.450048,104.79244
3545000000,-10.132932,1.1834643,-54.96291,-174.61342,-54.561455,-160.40221,-16.376526,44.02055
3550000000,-8.1747522,30.893015,-53.961319,131.15001,-54.150963,138.37573,-20.455864,147.67973
3555000000,-15.846264,-56.920155,-57.368965,21.478983,-58.94902,17.257446,-14.842724,52.955959
3560000000,-7.6164064,17.914087,-80.47139,-86.801575,-65.341019,19.490709,-33.393093,124.32229
3565000000,-13.41223,27.3232,-56.727619,117.44875,-55.155685,118.75268,-15.587166,85.88472
3570000000,-12.665648,-31.758484,-54.59919,14.121199,-56.622974,18.122154,-19.103811,12.167969
3575000000,-6.3257642,23.822712,-52.856003,-54.593674,-52.028072,-65.11898,-13.902572,108.16953
3580000000,-19.12491,-65.416237,-54.085148,-168.36157,-56.020569,-164.1338,-17.428566,25.623863
3585000000,-8.4668283,8.4880304,-56.118423,126.78861,-54.519547,120.56952,-17.964653,120.66435
3590000000,-10.670183,3.7360368,-66.051552,-62.012386,-63.579346,-18.996443,-16.660431,59.312756
3595000000,-26.086115,69.212082,-74.774033,-90.762146,-67.102448,-170.03471,-30.269592,42.325649
3600000000,-4.6209922,-2.2880294,-54.773632,98.280891,-55.617954,92.406494,-13.709442,88.067467
3605000000,-23.168951,33.712173,-56.48225,28.512264,-55.818592,27.712143,-21.646996,0.83413655
3610000000,-10.526118,-4.3471146,-51.970638,-62.045242,-52.083431,-58.285732,-15.565373,91.139282
3615000000,-9.85215,-11.786774,-60.415909,-148.77087,-58.240208,-121.54337,-16.125618,45.885059
3620000000,-10.772381,62.10601,-58.724541,105.22872,-60.950226,115.05576,-22.375807,141.02274
3625000000,-5.955277,-40.997292,-66.03125,-120.22069,-61.519962,-80.226357,-12.794669,59.432899
3630000000,-9.7469482,45.902046,-68.728485,176.84999,-59.769287,-156.36871,-28.403149,-159.41594
3635000000,-12.438108,-26.899889,-52.61636,99.654228,-56.190254,106.70528,-13.464971,71.567451
3640000000,-9.1849184,-29.278507,-58.984032,31.004158,-56.764572,35.145401,-23.250095,14.051643
3645000000,-8.8585882,39.499977,-55.267269,-58.959984,-54.320499,-73.347206,-17.32321,105.77666
3650000000,-11.578808,-40.026787,-68.80722,-145.66098,-69.845573,-58.872719,-14.87578,19.967028
3655000000,-7.6300688,-0.87250167,-61.090462,78.173363,-65.613937,74.014946,-19.063858,124.2132
3660000000,-12.526817,11.0892,-58.75193,-141.78339,-61.745274,-127.52171,-14.585214,48.03476
3665000000,-13.440165,-63.121544,-55.985023,-160.03311,-55.009895,-160.52142,-33.995407,36.384628
3670000000,-6.4606357,23.791107,-56.07486,93.723289,-55.585537,104.49969,-13.451077,81.867645
3675000000,-13.842181,-30.361769,-54.789055,42.715164,-57.838352,57.656551,-20.717382,-20.698586
3680000000,-12.26974,-27.607006,-61.133614,-58.533047,-59.067451,-68.652718,-15.897738,101.88869
3685000000,-6.4543796,3.5685534,-67.281471,19.467995,-67.109543,120.28646,-17.292429,16.455519
3690000000,-19.21944,-165.04105,-65.385574,24.320337,-58.744335,22.852331,-23.752045,136.42764
3695000000,-4.2245212,-2.9696236,-59.103455,-94.178154,-58.164322,-82.68721,-12.796285,47.590702
3700000000,-20.445185,-26.745049,-54.542027,-155.67293,-57.148338,-144.0123,-26.512331,-142.16846
3705000000,-12.403584,6.449039,-60.654327,119.26807,-61.970486,93.511703,-13.510415,64.484367
3710000000,-6.2822962,-24.019892,-58.172379,57.919849,-61.797878,49.428818,-26.136816,-15.051667
3715000000,-13.997481,52.879242,-60.208893,-139.86974,-64.133781,-117.11511,-16.369625,104.11127
3720000000,-7.205224,-43.106464,-65.272568,132.06857,-69.440102,93.383759,-18.778093,19.826546
3725000000,-10.31741,24.486013,-59.791012,42.079651,-60.804276,3.7301905,-22.128626,139.72685
3730000000,-10.445247,-0.9986127,-58.667461,-96.079971,-59.772415,-109.87138,-15.330296,46.289474
3735000000,-7.1352296,-50.889786,-54.155102,-158.50883,-57.779816,-158.97563,-59.492065,152.76335
3740000000,-8.8242598,27.313343,-61.745548,77.291183,-71.282944,119.25721,-15.101959,93.011215
3745000000,-12.331739,-57.133507,-57.560375,36.112541,-57.8661,24.754169,-19.703981,-26.556982
3750000000,-8.463603,-10.88421,-59.633823,168.99092,-57.872913,-173.30844,-14.003778,116.08905
3755000000,-8.732276,13.834607,-59.419441,64.42675,-81.182312,152.03894,-18.109402,9.6087542
3760000000,-7.0571704,-73.180618,-55.483459,24.552961,-55.169132,12.427436,-18.336058,144.26057
3765000000,-8.0610018,13.344609,-60.707405,-87.126785,-60.1087,-86.162552,-15.61887,45.179157
3770000000,-11.149153,-23.703661,-55.772678,-153.87881,-57.452885,-149.28583,-28.364597,-150.05273
3775000000,-13.42075,-43.211948,-72.862671,-65.807068,-65.481964,141.04781,-13.890272,78.645508
3780000000,-4.5143447,0.2063511,-66.225357,-96.287025,-63.226559,-39.837666,-31.86618,-13.513433
3785000000,-13.039461,-104.11028,-61.330772,161.90099,-58.123024,177.87392,-15.651915,107.99967
3790000000,-6.4696155,-13.519585,-64.788567,121.60289,-61.200592,116.01158,-17.129093,43.206116
3795000000,-11.100152,-26.404882,-56.872833,1.4217489,-56.137402,1.2920467,-16.427505,154.87955
3800000000,-15.53879,10.291239,-62.181419,-90.529709,-65.288956,-12.099679,-15.208302,50.170719
3805000000,-2.8915021,-34.163651,-58.742008,166.81578,-69.680527,-163.38542,-24.678944,177.23979
3810000000,-16.947279,89.518616,-68.517052,-47.547241,-68.882912,99.615196,-13.64467,84.237251
3815000000,-5.6169248,-43.822342,-62.681557,-69.247391,-62.119022,-73.076782,-28.534842,-6.8855195
3820000000,-10.300163,-13.556109,-60.365807,-174.95848,-61.200485,157.68806,-13.854947,105.88759
3825000000,-10.844079,-2.5788267,-58.552742,108.18131,-59.310432,120.41472,-17.320086,35.909184
3830000000,-5.2788005,-57.38068,-61.367661,4.2988091,-67.315475,-22.649889,-15.019792,133.44676
3835000000,-10.874689,6.6533127,-59.703365,-62.552391,-61.560074,-57.469048,-15.858544,66.26815
3840000000,-10.622691,-35.398495,-70.998619,-102.08121,-79.995407,-170.33992,-24.167646,-168.11914
3845000000,-6.0996695,-52.556068,-71.906059,147.06419,-60.988956,21.640705,-12.301145,77.861229
3850000000,-8.4785767,9.8395472,-59.821907,-91.502228,-59.893616,-79.301331,-39.258556,-24.884212
3855000000,-7.1040788,-83.796341,-60.708191,161.22139,-60.158955,173.86949,-14.063541,90.369209
3860000000,-6.9838476,-7.1537333,-56.571491,129.29213,-56.013378,106.96204,-17.654989,40.546921
3865000000,-8.0094004,-30.783342,-64.808052,-13.935182,-59.812805,-11.249172,-16.822939,113.1883
3870000000,-8.2629795,-95.449242,-70.380882,-20.362202,-70.08857,22.988956,-13.689381,67.308441
3875000000,-4.3117576,-6.8923993,-61.401314,65.496819,-66.586327,145.88034,-26.784925,132.19879
3880000000,-11.024859,-110.79021,-65.350845,-79.100098,-63.294991,-61.213776,-12.378716,87.334854
3885000000,-5.4274364,-24.035446,-60.427017,-80.846352,-64.032051,-81.940216,-20.824728,0.26369414
3890000000,-5.8905458,-51.708508,-62.526127,169.04961,-63.592396,167.19054,-12.275123,109.00498
3895000000,-25.105501,-147.62434,-62.400314,89.267303,-55.50555,130.54063,-14.116854,5.0304098
3900000000,-2.2714279,-43.259941,-69.094742,-57.152721,-69.178619,91.901634,-12.880382,113.48227
3905000000,-27.856916,25.396601,-66.306747,92.127831,-67.402115,118.22409,-14.344909,39.721863
3910000000,-6.1722031,-42.111153,-65.599159,33.919399,-61.377293,87.361267,-20.406467,107.84854
3915000000,-4.5066471,-59.191956,-62.314484,-18.603716,-62.813034,-18.374792,-12.808445,72.016357
3920000000,-16.239336,27.703127,-64.637131,-67.085121,-63.491478,-29.235256,-22.497215,24.077633
3925000000,-4.6992812,-66.956978,-68.187607,-114.77177,-64.06147,161.64722,-13.915166,95.306847
3930000000,-9.4784994,-17.887075,-77.514801,-79.928108,-69.916458,87.491165,-15.469865,22.400297
3935000000,-9.6376276,-50.441063,-67.208176,-164.24992,-64.772591,-134.47261,-17.989433,122.78278
3940000000,-3.3687668,-75.05468,-62.194153,139.70514,-68.91922,-159.73329,-10.918468,40.67326
3945000000,-12.978921,18.997837,-58.172939,49.283955,-63.641262,31.621778,-22.755854,148.7007
3950000000,-5.7035494,-68.516243,-62.24662,-75.167923,-62.458385,-5.5571666,-11.297389,57.071819
3955000000,-8.3356981,-60.957996,-58.96545,-71.221283,-60.853466,-87.4011,-28.367842,8.5786638
3960000000,-6.7987757,-20.086088,-63.074364,11.238298,-65.705009,-101.31888,-13.792681,81.817513
3965000000,-3.4016137,-117.56768,-67.564323,84.539093,-76.335976,-102.10165,-16.945089,22.673714
3970000000,-4.2924829,-5.8525262,-64.602837,-47.745869,-71.014641,-97.433456,-19.589222,112.00161
3975000000,-5.9321256,-98.592697,-61.839397,134.64789,-70.765923,158.33035,-12.20552,39.79504
3980000000,-11.680574,-57.093117,-63.982994,83.279701,-67.061157,53.875572,-43.734566,-136.81377
3985000000,-3.5572164,-45.232597,-69.595749,-14.114874,-64.716881,38.86953,-11.203103,63.554016
3990000000,-8.8102283,-161.86053,-65.436684,-115.64932,-62.717537,-123.92323,-21.166588,-39.910324
3995000000,-2.771554,-45.944817,-66.738373,-45.436844,-69.091362,152.41959,-12.920152,84.401169
4000000000,-10.858022,-96.441467,-65.723785,-0.3050606,-65.665192,84.014816,-17.294136,6.5130668
END

