!CSV A.01.01
!Keysight Technologies,N5247A,US56070710,A.10.64.09
!Date: Sunday, November 20, 2022 20:56:06
!Source: Standard

BEGIN CH1_DATA
Freq(Hz),S33(DB),S33(DEG),S34(DB),S34(DEG),S43(DB),S43(DEG),S44(DB),S44(DEG)
3000000000,-3.1858191,-113.09901,-55.652454,-179.04778,-54.988873,175.28191,-18.110947,-162.78589
3005000000,-5.1511097,-98.662987,-62.034996,-168.6006,-62.804562,-134.83377,-18.720528,-167.92227
3010000000,-3.8486636,-106.43555,-61.938148,-147.61536,-60.481983,-152.98386,-16.752129,-176.39044
3015000000,-4.2582502,-112.54974,-54.818211,145.34177,-53.413502,154.19427,-16.769365,-176.15233
3020000000,-3.4773917,-96.262421,-51.838898,91.455711,-51.790985,87.531967,-17.309961,178.83971
3025000000,-4.9446359,-118.11553,-56.434784,35.969616,-54.710953,38.796925,-16.393671,176.74272
3030000000,-3.7011018,-101.69363,-59.902184,-4.2245879,-60.961594,23.586355,-16.699535,177.50514
3035000000,-4.3831248,-104.56221,-55.155594,45.514866,-53.949623,28.238001,-16.603401,171.98935
3040000000,-4.7978387,-118.49644,-54.376534,-30.038851,-52.15189,-28.294544,-16.345842,169.40039
3045000000,-2.8023813,-103.4521,-52.255337,-74.676125,-51.479565,-74.227409,-16.332811,158.6041
3050000000,-5.4012299,-109.44455,-55.76622,-133.32079,-54.853603,-122.19704,-15.031525,157.42543
3055000000,-4.1639333,-113.6619,-66.993187,-139.79987,-59.901058,-166.47462,-15.889148,159.15788
3060000000,-3.4438269,-103.47977,-59.805099,-132.83705,-62.181675,-152.86412,-16.026741,158.34612
3065000000,-5.9180717,-114.41818,-56.44846,167.09003,-55.380615,171.02579,-15.518643,156.00832
3070000000,-3.0054641,-111.07746,-53.521523,106.08119,-52.796886,109.58694,-16.061844,156.09262
3075000000,-5.3199315,-109.91631,-59.686989,66.833389,-56.402821,70.550789,-15.764373,146.58556
3080000000,-5.3041506,-115.16401,-65.811523,-47.469673,-74.814804,-48.950096,-15.533037,145.69791
3085000000,-2.5864058,-115.13299,-58.071777,95.828049,-59.279099,106.72878,-16.272755,141.43956
3090000000,-6.5012202,-105.96136,-57.568409,40.368389,-58.142078,50.317455,-15.559366,138.15193
3095000000,-3.0668576,-118.76198,-58.45665,-14.737957,-58.021366,-32.398472,-15.697,144.46007
3100000000,-4.7722111,-115.06001,-70.700897,-107.06774,-67.473457,-129.19006,-15.317093,140.21266
3105000000,-5.041595,-109.41125,-61.542896,1.87464,-60.580814,-11.739178,-15.873859,138.53058
3110000000,-3.8183837,-128.70853,-56.897461,-40.142921,-59.666748,-53.066422,-15.839345,136.0751
3115000000,-4.2093711,-101.84971,-55.272346,-102.39161,-52.013733,-110.08411,-16.460085,128.03398
3120000000,-4.9776835,-127.45562,-54.613434,-173.66571,-55.608036,-176.34592,-15.881107,127.93667
3125000000,-4.1111088,-119.57561,-63.492245,179.9821,-66.134033,179.89789,-16.287228,131.39005
3130000000,-4.8491716,-110.57317,-65.955025,158.82352,-67.352974,-178.52301,-16.160559,126.96505
3135000000,-5.4568963,-131.64256,-55.792213,139.05702,-55.377762,157.63817,-15.307389,129.06465
3140000000,-4.0715375,-117.31015,-57.350391,88.32859,-57.028461,82.449806,-16.238964,125.44151
3145000000,-4.9936876,-114.8092,-56.362164,22.503468,-55.92762,52.532108,-15.744086,124.10443
3150000000,-4.993186,-136.72449,-71.97728,-130.56371,-70.033363,-65.885078,-16.648413,129.68991
3155000000,-4.0418081,-113.27484,-61.711639,92.560509,-69.280205,39.834743,-17.676973,119.38124
3160000000,-6.7669764,-127.01275,-60.530548,13.590236,-62.08419,10.568996,-16.486082,122.00401
3165000000,-4.635941,-126.83541,-60.452,-62.402576,-62.056931,-71.344025,-16.243759,120.14748
3170000000,-4.4568725,-121.90453,-58.146255,-140.69662,-60.08778,-106.30132,-16.107592,120.40124
3175000000,-6.9606533,-124.02112,-68.827728,75.672661,-67.202621,113.20139,-15.896901,117.67883
3180000000,-3.6885276,-127.22009,-61.509926,-132.19374,-68.940826,-91.147797,-16.67664,127.3138
3185000000,-7.911448,-120.57375,-54.788414,-143.90263,-57.41045,-135.21082,-17.278698,121.63575
3190000000,-5.1198616,-131.47263,-55.881317,143.68944,-53.762421,152.57559,-17.442591,128.2083
3195000000,-4.9856319,-129.85016,-60.405807,149.77402,-62.672195,139.17227,-18.625286,116.04049
3200000000,-7.5550885,-120.15848,-71.263512,165.74918,-70.084557,130.12029,-16.058077,113.3535
3205000000,-4.4664884,-144.78685,-55.121086,115.95438,-59.683842,124.42709,-17.235357,114.25457
3210000000,-5.5676527,-115.7392,-56.859451,56.86269,-58.90831,67.039757,-17.005672,108.45092
3215000000,-7.1813354,-137.84239,-57.135731,13.229874,-55.363434,-2.4015617,-16.057583,113.9846
3220000000,-6.0384154,-136.23619,-64.270477,-18.641672,-62.829193,-23.166016,-16.37488,121.40973
3225000000,-5.2817822,-117.97394,-69.954391,-63.226128,-65.842964,4.4323058,-16.662916,117.54478
3230000000,-8.0410881,-148.3506,-59.420155,-49.985092,-56.619942,-22.339632,-16.691916,119.12067
3235000000,-5.4447255,-133.97099,-58.483349,-67.813469,-55.68903,-86.878822,-16.981424,114.72998
3240000000,-8.354537,-120.5465,-61.989807,-169.55954,-58.335712,-155.06891,-16.511923,111.19633
3245000000,-6.3663645,-148.741,-71.340042,106.51122,-62.765053,171.43871,-17.024323,118.09411
3250000000,-6.0113153,-126.43211,-59.545063,-54.007046,-69.190338,-132.33397,-16.82951,107.95173
3255000000,-8.7885752,-137.50658,-56.970043,-178.2372,-64.679482,-173.98181,-15.478117,112.58222
3260000000,-7.2758904,-143.74146,-57.708153,85.568901,-55.800568,89.337166,-15.665309,116.97963
3265000000,-6.3884726,-127.36712,-70.542496,34.326298,-60.805573,16.386013,-16.068836,111.87809
3270000000,-12.472381,-146.20837,-67.41687,54.341866,-75.004997,-161.85742,-16.034824,115.35728
3275000000,-4.8959475,-139.67194,-62.149208,108.96458,-59.363438,94.339897,-16.620686,107.26728
3280000000,-10.25744,-138.56665,-60.437801,13.02223,-61.468277,-16.723869,-16.152025,110.92641
3285000000,-9.0600996,-138.75539,-58.666557,-31.099737,-60.428703,-27.307581,-15.557673,108.38523
3290000000,-5.9189734,-142.95805,-59.85144,-81.717842,-59.103924,-89.127197,-15.607511,107.10654
3295000000,-11.896021,-112.24745,-61.705086,-79.848885,-58.655071,-68.630928,-14.89677,104.30673
3300000000,-8.1868696,-157.73442,-59.23563,-63.369907,-59.483322,-55.590431,-14.73483,107.60854
3305000000,-7.5117569,-129.15721,-54.932297,-146.47084,-56.281219,-149.72958,-15.639681,109.46517
3310000000,-11.799734,-142.82458,-60.797832,173.86258,-59.431896,170.00827,-15.271178,106.36845
3315000000,-9.1284523,-156.73926,-62.945919,118.49001,-65.509682,118.65973,-16.049316,105.75006
3320000000,-8.5693521,-123.72256,-63.060295,122.6479,-57.988186,155.19919,-15.035973,101.18539
3325000000,-12.316917,-145.26231,-61.556362,85.800491,-58.043316,97.072258,-15.010727,94.300316
3330000000,-8.0910206,-144.0921,-56.747681,64.34407,-58.21875,88.695244,-14.494496,100.4057
3335000000,-12.028759,-111.39433,-60.581367,68.148308,-63.622204,26.832151,-15.092727,94.483711
3340000000,-11.459723,-165.75694,-63.27951,58.82407,-65.448982,12.851684,-14.145323,99.625404
3345000000,-9.5136709,-131.50034,-56.927917,1.3050103,-58.556614,13.380473,-16.163164,99.196983
3350000000,-13.49577,-113.80192,-62.450638,-47.923038,-61.657452,-17.088135,-14.796678,89.837128
3355000000,-11.373261,-165.55722,-63.324078,-76.39386,-57.241959,-82.990189,-15.10216,97.117836
3360000000,-8.522191,-124.13239,-68.44014,-36.801365,-64.165527,-76.616859,-15.876046,82.224937
3365000000,-24.565681,-117.92389,-60.345684,-99.050735,-57.373398,-87.820084,-14.579036,79.754402
3370000000,-10.93021,-143.42102,-56.743958,-162.85985,-55.374004,-168.91135,-14.053413,88.506599
3375000000,-13.805083,-121.67844,-62.257122,158.47301,-63.330273,136.37117,-15.347082,85.485916
3380000000,-15.228374,-124.62177,-61.047859,141.92197,-63.647625,143.88483,-14.771366,87.174553
3385000000,-10.553131,-157.21553,-59.404198,157.6001,-57.634399,138.70062,-15.84298,85.144753
3390000000,-11.976257,-81.250031,-57.139145,90.624596,-58.50816,61.714516,-14.910229,73.420883
3395000000,-12.803123,-176.87537,-56.4142,46.823978,-58.817299,40.179382,-14.870862,82.544327
3400000000,-11.943879,-106.21048,-62.06115,-72.375526,-80.597633,-136.9608,-17.100409,73.201675
3405000000,-12.961512,-99.895935,-66.13591,-10.297138,-61.896423,96.795891,-14.9774,69.902428
3410000000,-17.336546,179.20512,-57.625332,-5.1146073,-60.917564,-17.668669,-15.176835,76.40136
3415000000,-9.7393618,-97.60463,-55.167007,-103.32291,-58.255058,-94.631836,-16.210775,72.957443
3420000000,-29.633345,-118.20759,-61.061783,-151.86765,-64.95372,-132.67946,-15.039431,72.484856
3425000000,-14.683321,-129.46765,-67.998459,-75.751694,-69.829628,9.7609234,-16.691059,75.704208
3430000000,-10.840969,-92.249229,-60.914448,-107.716,-57.524002,-78.451393,-17.207689,65.420204
3435000000,-22.932159,-151.02917,-57.630032,-157.02431,-57.701248,-151.12215,-16.899847,70.633522
3440000000,-11.953919,-105.17673,-57.525589,128.36365,-57.402615,137.28935,-18.303253,61.438858
3445000000,-14.448779,-80.820786,-79.554176,44.553692,-70.804939,-168.89059,-15.69276,60.374344
3450000000,-25.871189,-57.499912,-61.792957,161.29105,-63.773998,153.04901,-16.506346,71.183243
3455000000,-8.8890057,-113.26673,-52.293873,117.65255,-53.028767,105.58538,-18.281343,65.211266
3460000000,-17.883814,-34.340363,-55.494186,27.705496,-56.0061,40.497662,-16.44068,60.245003
3465000000,-12.923514,-106.74,-64.075554,-34.742752,-57.945004,-20.571627,-18.5721,78.231995
3470000000,-13.41141,-102.22433,-84.692299,72.980522,-63.413177,-12.666997,-19.463953,61.173389
3475000000,-12.105469,-47.395466,-56.518997,-13.225747,-58.261566,9.2352047,-18.924444,67.934151
3480000000,-11.542006,-130.75525,-53.561329,-74.582405,-55.471416,-62.746197,-19.606764,60.138226
3485000000,-10.054593,-52.276623,-54.640804,-125.19786,-57.703133,-134.91995,-18.130672,54.439632
3490000000,-16.825903,-116.29752,-57.528767,167.0114,-57.093746,171.52136,-18.900263,69.691895
3495000000,-14.570962,-92.361938,-87.50972,-40.510139,-70.339752,-159.79164,-19.57279,56.033539
3500000000,-9.3113804,-68.906235,-59.301785,166.09953,-63.823357,162.97318,-18.256111,67.502228
3505000000,-23.580763,-127.79094,-54.078037,130.44896,-54.513401,143.84058,-19.00156,84.981926
3510000000,-8.7738342,-83.849655,-59.683903,50.968483,-56.337021,42.225033,-21.636282,73.139549
3515000000,-13.728963,-57.629475,-63.131603,-21.697893,-60.248737,-8.4624758,-20.634624,65.023361
3520000000,-14.725077,-111.80103,-66.00425,132.70349,-58.641491,157.23221,-20.536758,66.773178
3525000000,-8.9996929,-79.956512,-56.251049,46.934502,-55.952305,44.045063,-20.588057,63.016563
3530000000,-13.92277,-55.022053,-57.389732,-11.566118,-58.011803,-14.204657,-18.427917,72.812126
3535000000,-11.373029,-94.164009,-53.483273,-83.495789,-63.274742,-73.060959,-20.538469,81.961868
3540000000,-9.0000381,-81.67659,-78.059738,143.04141,-65.15976,-136.15678,-18.932848,79.025497
3545000000,-16.448238,-23.038818,-57.703606,-56.617599,-59.163399,-42.739326,-19.623365,84.186119
3550000000,-7.7913103,-97.874794,-51.692402,-116.2346,-55.779774,-116.33469,-21.43152,80.488174
3555000000,-14.390738,-48.051178,-56.902863,-164.92549,-52.715504,-172.01488,-20.642838,75.008217
3560000000,-9.8480711,-81.297455,-56.909344,107.30404,-57.039597,105.19704,-20.179028,80.074615
3565000000,-10.595106,-111.11467,-64.722374,10.339341,-63.253662,-36.611443,-21.816782,82.268379
3570000000,-7.8627324,-43.766598,-61.547913,134.98412,-61.251579,146.43829,-18.937599,64.125168
3575000000,-10.369309,-130.58621,-52.850578,82.28492,-55.357059,82.183228,-17.913492,87.773735
3580000000,-8.648262,-59.713799,-55.361816,-3.7407768,-57.761112,5.5602384,-20.29063,74.225021
3585000000,-10.0204,-74.710472,-58.285492,-81.068176,-59.488247,-71.245308,-18.972206,84.173965
3590000000,-13.305316,-117.38454,-64.289886,108.88379,-61.387245,124.59182,-21.546806,85.571602
3595000000,-6.2304635,-65.695198,-60.962608,23.800562,-56.527065,9.7370911,-19.402941,68.815033
3600000000,-17.695286,-99.568405,-55.223732,-87.156235,-56.821224,-74.84742,-19.34573,85.096901
3605000000,-8.3874254,-76.331978,-57.971195,-144.92247,-55.733345,-140.62915,-19.98768,72.15007
3610000000,-9.2119007,-71.338547,-73.753975,-172.74185,-66.04184,94.56385,-18.674282,62.968716
3615000000,-17.304653,-88.307785,-58.371189,-87.160645,-58.942375,-54.243462,-17.75638,81.689697
3620000000,-6.6260195,-82.560486,-58.544369,-132.85086,-59.295162,-152.60294,-20.980219,72.807396
3625000000,-11.918967,-70.507118,-56.091572,125.05642,-55.907791,123.63434,-17.999563,80.417702
3630000000,-14.528451,-75.841675,-58.81435,44.476727,-59.929771,39.194675,-20.873856,81.328178
3635000000,-5.3649521,-90.029037,-63.255402,-168.25903,-67.271385,-59.098198,-19.605694,66.57254
3640000000,-12.844739,-31.655451,-57.656727,133.64491,-58.756535,130.17133,-18.989628,77.129066
3645000000,-6.5443807,-91.585724,-54.220524,29.383314,-56.418297,26.829826,-21.850441,65.937744
3650000000,-12.485778,-73.929535,-60.402527,-43.231663,-55.260628,-43.950203,-20.130474,58.662605
3655000000,-8.212204,-48.047344,-58.956512,-142.01529,-61.603916,-109.36124,-18.529694,64.594696
3660000000,-7.0351043,-112.33318,-68.267624,63.301907,-73.094933,155.03206,-20.36231,76.351387
3665000000,-7.6913633,-35.486031,-59.064301,-30.881464,-55.867413,-63.10857,-18.906141,61.564342
3670000000,-8.5656729,-109.56235,-53.804527,-121.37334,-53.987946,-110.10203,-19.699074,77.269882
3675000000,-10.876364,-72.367729,-55.69928,139.76839,-55.255871,141.21706,-21.279287,62.677299
3680000000,-6.5832291,-65.505821,-59.490917,70.107826,-60.220104,37.593418,-20.338871,68.837967
3685000000,-12.872968,-113.35164,-68.88987,-92.850868,-58.131054,-99.954033,-24.121092,72.155464
3690000000,-6.3072019,-62.420792,-63.210377,168.41878,-58.798721,176.4333,-20.327286,50.253006
3695000000,-11.469009,-75.690193,-53.176842,66.229401,-55.378403,60.366901,-19.000896,65.997932
3700000000,-10.949917,-92.719231,-53.696007,-24.716707,-55.997429,-34.15345,-21.829155,73.301765
3705000000,-5.8811636,-65.001762,-59.388695,-96.324425,-59.651321,-88.883347,-20.3297,53.673382
3710000000,-16.759476,-103.36389,-59.358093,104.73264,-61.08704,79.474762,-20.969263,79.299088
3715000000,-6.1406536,-70.014565,-54.299255,-15.368567,-59.577572,-12.718544,-22.024033,70.821289
3720000000,-7.9499545,-77.22879,-53.987232,-88.339745,-55.451061,-90.154442,-22.793293,82.965088
3725000000,-17.660383,-48.732452,-59.562443,175.54849,-56.142334,-172.82202,-23.341694,68.518372
3730000000,-3.965399,-81.265099,-60.519527,49.521694,-62.242577,21.857012,-22.166172,57.086433
3735000000,-16.698446,-41.357552,-63.726124,-106.13763,-57.091133,-90.4468,-20.021046,72.821243
3740000000,-6.9894104,-70.835594,-56.757275,-172.71843,-54.515942,166.90712,-23.151054,92.533272
3745000000,-6.8750052,-89.218796,-57.030357,105.37026,-58.838253,104.49544,-24.24192,69.129364
3750000000,-9.3628149,-32.247883,-60.175896,-3.274456,-59.265846,23.527985,-20.660254,86.318092
3755000000,-5.344038,-109.34591,-59.941494,-98.256874,-60.629635,-122.90211,-23.502853,90.118607
3760000000,-6.5649729,-40.590611,-61.842865,107.39714,-58.447384,113.93565,-22.782427,84.967934
3765000000,-6.9205184,-81.346123,-53.498489,11.164512,-54.767296,58.167183,-22.627001,75.768623
3770000000,-9.9443521,-94.054077,-58.664654,-99.556541,-57.173473,-73.670288,-23.870008,76.945854
3775000000,-4.6747732,-49.957016,-61.667263,165.87761,-62.931255,179.09415,-20.098713,78.854393
3780000000,-9.5788975,-118.3283,-59.192696,56.077305,-55.086491,66.98735,-21.346788,101.3137
3785000000,-6.0573821,-60.190258,-60.655891,19.543514,-56.358299,-24.160746,-21.100931,80.544754
3790000000,-6.6885395,-66.746262,-60.401569,-107.62483,-59.360916,-98.818611,-18.542421,93.207527
3795000000,-10.515434,-99.413857,-60.17329,154.70345,-61.528297,150.60902,-21.026936,109.24184
3800000000,-4.2702208,-62.053398,-70.728966,26.941944,-63.750603,0.80118221,-22.491989,92.01442
3805000000,-10.359766,-81.835533,-57.197739,-109.11919,-56.520653,-122.95619,-21.584805,85.867126
3810000000,-8.8577948,-71.871086,-53.866409,151.19553,-56.846073,158.61491,-19.54402,96.411079
3815000000,-3.5812876,-72.60421,-57.365025,71.430763,-52.808704,83.942116,-20.454147,85.953354
3820000000,-20.114204,-64.164093,-58.533092,-50.431927,-57.582176,-10.767722,-18.658169,93.377274
3825000000,-2.9557607,-74.027054,-64.515053,-132.70911,-60.020958,-113.64064,-18.913593,86.026894
3830000000,-10.786705,-81.295227,-60.089405,125.36411,-61.386791,105.01478,-17.412855,98.518837
3835000000,-6.9803486,-57.488098,-56.489033,-24.745407,-59.612206,-30.770597,-19.329374,114.19407
3840000000,-3.8980737,-94.610802,-63.221088,-103.10359,-58.596905,-102.56075,-22.808947,90.383255
3845000000,-7.8322248,-30.153133,-57.533569,-177.88403,-57.971802,153.33612,-18.270691,87.649635
3850000000,-3.7987657,-92.77005,-61.176979,40.812248,-62.443932,74.474289,-19.380322,92.489044
3855000000,-7.6863246,-73.996735,-63.376518,-52.794052,-60.940914,-45.38525,-19.261864,74.22477
3860000000,-5.5639849,-56.468765,-64.784187,-141.69748,-58.764664,-142.03195,-17.124678,80.919106
3865000000,-5.3645811,-102.80132,-57.906036,99.61171,-68.036308,90.939491,-17.49054,84.491158
3870000000,-4.86729,-51.073845,-62.274582,44.71986,-64.269112,-38.978603,-17.243073,91.67186
3875000000,-5.3588715,-89.9664,-64.082733,-136.24402,-60.896881,-130.32001,-17.571556,89.099342
3880000000,-7.6343865,-83.513504,-57.079193,138.02898,-56.4501,145.94739,-19.13319,92.956871
3885000000,-3.4942477,-60.729431,-56.014805,39.596447,-59.281528,60.431698,-16.858242,74.820274
3890000000,-6.5341539,-109.13128,-64.570923,-71.932274,-58.078609,-53.085407,-19.310978,92.704468
3895000000,-4.5426259,-63.734867,-59.305672,-159.40292,-62.954124,177.15939,-17.974699,58.637924
3900000000,-3.9288745,-78.191971,-61.267883,92.32048,-59.14188,68.528152,-15.730881,80.053268
3905000000,-9.9995155,-91.461388,-60.23568,-49.750156,-58.330372,2.2283914,-18.574001,80.173912
3910000000,-2.053293,-70.448143,-61.605038,-97.987457,-58.238136,-118.81698,-16.399437,74.755386
3915000000,-9.7509537,-96.429161,-60.931049,114.82478,-57.888905,144.6165,-17.358925,78.03511
3920000000,-3.9301164,-70.20919,-59.762871,55.587376,-65.559219,46.321476,-17.410614,76.262787
3925000000,-4.3507342,-86.646111,-57.620224,-95.718979,-57.192165,-90.605606,-17.850309,66.688515
3930000000,-9.3348961,-57.404114,-63.443844,-161.38077,-58.706814,166.27534,-18.280003,78.962524
3935000000,-1.5830282,-92.181458,-60.563065,91.042305,-58.720459,75.948196,-18.292999,56.82098
3940000000,-8.5843391,-50.847839,-59.918766,-23.172899,-61.706333,-37.027359,-15.951144,67.159378
3945000000,-3.6500161,-89.399811,-56.920189,-136.63882,-58.618034,-116.47717,-17.534271,69.80867
3950000000,-4.1582017,-85.668991,-57.712841,131.64795,-58.006248,115.34089,-16.536291,63.212952
3955000000,-5.6738162,-59.603756,-58.38081,33.469715,-56.465191,45.73782,-18.399628,74.754021
3960000000,-3.7899809,-102.69046,-57.044613,-59.830074,-58.511692,-61.504555,-17.730505,59.25705
3965000000,-4.8945875,-70.647041,-61.851467,179.83653,-58.993847,143.06694,-18.928785,71.981369
3970000000,-5.3785901,-81.300522,-61.611328,42.232586,-60.8507,63.056995,-18.134033,58.734299
3975000000,-3.6385903,-102.34887,-59.749916,-46.635426,-57.072605,-23.744228,-18.266897,59.23082
3980000000,-3.6735024,-61.529957,-58.368343,-140.35954,-57.894207,-114.07234,-17.915346,54.730659
3985000000,-4.677937,-103.88377,-62.502266,96.876198,-55.19017,138.36119,-17.50963,59.353264
3990000000,-4.9040599,-81.503517,-58.632847,10.303436,-61.515072,-12.767841,-19.11463,58.132896
3995000000,-3.2661614,-80.55275,-63.246811,-104.19102,-64.53315,-117.39396,-18.330416,63.21722
4000000000,-6.6814008,-115.61934,-60.157784,134.23097,-56.004673,135.78798,-20.157652,59.953106
END

