!CSV A.01.01
!Keysight Technologies,N5247A,US56070710,A.10.64.09
!Date: Sunday, November 20, 2022 22:13:42
!Source: Standard

BEGIN CH1_DATA
Freq(Hz),S33(DB),S33(DEG),S34(DB),S34(DEG),S43(DB),S43(DEG),S44(DB),S44(DEG)
3000000000,-4.7196984,-105.25293,-50.629532,176.9968,-49.109818,-175.7524,-18.605848,-159.23216
3005000000,-6.0985289,-113.9599,-47.687912,163.90742,-46.951427,163.31781,-17.749069,-178.64801
3010000000,-3.6628389,-101.08059,-50.861488,146.38004,-50.650208,160.24126,-17.694977,-174.79732
3015000000,-6.0294886,-110.76672,-51.079117,139.74306,-51.978985,150.93967,-16.00404,179.3002
3020000000,-4.1219068,-109.66976,-49.273357,153.94377,-49.225227,162.22928,-17.999016,173.98599
3025000000,-5.2778368,-103.577,-46.433102,128.54161,-46.70097,133.31616,-16.366142,176.17757
3030000000,-5.8542767,-110.93407,-47.120842,103.49964,-47.202801,99.35907,-16.040451,169.01656
3035000000,-3.7407894,-106.27975,-51.859093,81.889778,-50.834465,82.478249,-17.695387,175.23839
3040000000,-5.5359893,-114.73406,-50.67728,77.668259,-48.763451,83.583344,-15.15682,162.43134
3045000000,-5.1895962,-110.80816,-50.146694,61.641678,-49.658726,63.684288,-17.72407,153.85976
3050000000,-3.8626709,-109.00226,-52.306271,31.306351,-52.178253,33.903442,-14.072121,158.7182
3055000000,-7.1809182,-110.24963,-53.190102,57.510796,-52.290604,55.836357,-16.899208,146.01468
3060000000,-3.3797491,-110.42538,-50.316631,62.6049,-50.510189,62.035015,-15.030865,164.7403
3065000000,-5.8765531,-116.34861,-48.011269,24.523821,-47.27319,20.50182,-16.050589,144.12837
3070000000,-5.2974234,-108.58105,-50.242321,1.8838066,-48.387173,1.2223203,-16.031702,158.47261
3075000000,-4.700789,-121.38593,-50.782902,-34.019505,-52.0285,-26.288319,-15.28299,141.25459
3080000000,-5.8754492,-101.5387,-50.07148,-26.830397,-50.039169,-28.011366,-16.260746,139.1814
3085000000,-3.7969596,-124.1115,-55.483208,-44.701721,-52.634243,-52.1096,-15.278276,144.44363
3090000000,-5.8252344,-112.50471,-56.896904,-77.418579,-55.74292,-84.662849,-16.261866,127.55193
3095000000,-4.8560739,-110.47743,-54.971462,-17.053631,-59.028717,-25.090021,-15.4203,146.33818
3100000000,-5.5904827,-127.38837,-51.905594,-43.96228,-51.296139,-35.668816,-14.641823,131.90074
3105000000,-4.5427208,-110.32758,-47.617771,-55.813229,-48.476631,-57.196804,-17.279222,141.91547
3110000000,-6.1732035,-123.70604,-51.248241,-98.562004,-51.183773,-83.848793,-14.400521,127.3679
3115000000,-4.9446878,-118.73782,-53.730404,-115.57664,-54.480907,-122.38337,-17.728394,129.21318
3120000000,-5.448616,-114.21209,-52.972252,-103.606,-53.541313,-111.2868,-15.54494,123.44344
3125000000,-5.4800429,-131.16763,-57.793045,-160.48764,-56.409145,-157.55193,-15.749352,125.22269
3130000000,-5.8738093,-119.00027,-54.924011,-150.13869,-59.613049,-170.50093,-17.262165,130.94511
3135000000,-5.2442451,-119.08125,-54.085903,-77.794197,-55.047817,-66.467171,-14.206487,119.28094
3140000000,-6.4783893,-133.73004,-51.619389,-121.17611,-51.175652,-124.86308,-17.581371,127.92251
3145000000,-3.933754,-117.02718,-49.186928,-164.87843,-47.781197,-155.82098,-14.781252,119.84851
3150000000,-8.0197134,-136.32243,-51.621887,158.71021,-49.97411,166.67325,-17.58597,120.98731
3155000000,-5.0082574,-122.48553,-55.365665,152.28372,-55.122234,163.32968,-16.731524,125.71231
3160000000,-5.5805869,-128.28244,-51.743851,141.84909,-52.060066,137.71902,-16.830753,108.5995
3165000000,-8.0287151,-121.81464,-52.417278,103.3413,-52.94038,104.8578,-15.899421,122.47289
3170000000,-3.8058715,-136.1613,-62.653652,123.16396,-62.153507,123.26299,-15.517167,116.98598
3175000000,-7.6266685,-110.42493,-57.259773,179.31285,-53.627918,-168.32083,-17.393574,110.60293
3180000000,-5.8361745,-136.3446,-50.818665,139.71506,-49.312149,136.40437,-14.799036,127.06443
3185000000,-6.9238496,-130.88185,-49.92535,100.00074,-50.095192,103.8105,-19.704695,110.35699
3190000000,-6.7451124,-122.37933,-58.445717,95.092834,-54.681469,76.280655,-16.030806,128.28226
3195000000,-6.4424443,-146.53146,-53.136913,90.260849,-55.716869,88.826408,-18.594643,104.17433
3200000000,-6.4044333,-124.20608,-53.600666,49.61171,-54.692772,47.311035,-16.833515,117.43822
3205000000,-7.8385911,-139.38965,-54.574902,-10.957687,-53.759899,-10.249646,-15.783668,102.11818
3210000000,-6.0761766,-138.26834,-63.705856,45.674747,-68.997513,90.659294,-18.344929,114.03253
3215000000,-7.1398439,-123.76173,-54.59436,88.705879,-54.50713,76.821327,-15.255335,107.84537
3220000000,-8.6425009,-147.93849,-51.10923,29.978661,-51.648438,32.685818,-16.772026,114.49042
3225000000,-6.2172275,-132.29965,-54.050205,4.1525264,-56.003071,-1.4892039,-16.251051,124.08456
3230000000,-7.7710586,-130.29414,-58.080517,-6.8366942,-60.034317,-31.843128,-16.83979,101.37242
3235000000,-8.7301264,-161.85872,-54.74398,-3.4314289,-51.743015,0.61920327,-16.311455,122.64042
3240000000,-6.4954138,-121.07308,-51.938736,-41.641399,-52.055931,-32.766361,-16.803711,101.68153
3245000000,-8.8960238,-151.68906,-59.70026,-93.612427,-61.68153,-82.900764,-17.060854,112.94924
3250000000,-8.6268721,-140.16385,-61.247723,41.875072,-58.645905,38.250729,-16.173376,111.60826
3255000000,-6.537889,-140.27914,-57.367989,-29.135223,-54.591145,-15.290704,-16.277752,100.15502
3260000000,-14.860188,-135.46593,-51.137131,-60.347229,-53.755699,-49.015106,-14.842343,118.92711
3265000000,-5.465672,-141.25246,-59.935757,-87.898438,-59.585316,-89.123703,-15.733019,103.69129
3270000000,-12.861448,-143.18987,-56.846813,-73.535049,-57.77174,-83.277512,-17.3857,116.58737
3275000000,-9.7914476,-143.20596,-49.823811,-103.2477,-49.250931,-91.403549,-14.398408,100.61152
3280000000,-7.601265,-151.43602,-54.652344,-136.88445,-52.191856,-145.96124,-18.783522,114.70031
3285000000,-11.696236,-125.90847,-59.493954,159.56918,-61.42487,173.33432,-13.580916,102.13205
3290000000,-9.1728935,-158.12949,-54.076622,-79.261444,-55.374668,-81.001785,-17.05937,105.51046
3295000000,-9.8479309,-133.6772,-50.706139,-110.32864,-51.758064,-109.11832,-14.474257,103.73467
3300000000,-13.992396,-145.13696,-54.452091,-167.73293,-55.070465,-155.59952,-14.328287,97.835388
3305000000,-8.652236,-156.12854,-56.888264,-165.64279,-61.728199,-166.36406,-16.111879,116.9537
3310000000,-11.78935,-129.36803,-52.035023,-159.33778,-50.918716,-148.79971,-14.586224,95.773834
3315000000,-11.895275,-164.48178,-50.937908,162.33096,-51.107731,153.12683,-16.82205,105.86482
3320000000,-11.197596,-157.53311,-52.274258,103.69335,-53.766159,127.61445,-14.205747,99.537498
3325000000,-9.53088,-109.3868,-78.420074,29.196125,-70.515739,65.744247,-15.718897,82.015739
3330000000,-11.017054,173.64772,-55.040852,-176.43773,-55.918381,-175.37753,-13.329665,105.274
3335000000,-11.536754,-117.41897,-51.705223,134.5061,-50.830715,137.63492,-15.845365,82.811096
3340000000,-14.531623,-158.21819,-57.813763,122.40426,-60.6479,117.4031,-13.971398,98.466011
3345000000,-17.036324,-159.77136,-58.885555,141.59518,-59.2938,128.41344,-15.304222,97.666275
3350000000,-9.7068214,-131.90373,-50.376842,113.63818,-50.717331,100.92561,-16.091476,80.933022
3355000000,-25.357494,175.63699,-50.946255,71.164154,-50.63652,61.20573,-13.564073,97.289436
3360000000,-9.3472719,-145.50549,-55.18182,-6.9041438,-57.861454,2.9684,-17.100353,68.346222
3365000000,-22.184175,-99.86245,-64.622078,74.615242,-62.592693,82.440842,-13.855834,84.056076
3370000000,-21.000635,-128.11351,-53.396442,65.604591,-54.650597,65.796417,-13.872802,78.527153
3375000000,-12.752058,-156.94186,-51.506992,21.589006,-52.462952,23.530865,-16.326532,91.70594
3380000000,-15.354419,-100.61488,-57.485313,27.098249,-57.253185,20.68367,-13.548411,76.953209
3385000000,-16.392345,167.62384,-51.818558,37.374363,-51.538631,48.332706,-16.84874,88.862923
3390000000,-12.883829,-119.78435,-48.262455,7.0673981,-48.872124,-3.586014,-14.603601,68.297585
3395000000,-25.04277,-63.178486,-53.227966,-41.01022,-53.177326,-32.05088,-14.476954,74.886017
3400000000,-13.946082,-141.97379,-63.856167,-86.871758,-60.781673,-49.90572,-17.801186,81.946037
3405000000,-15.731791,-108.66682,-54.296822,-5.9990425,-57.043915,-0.4271417,-13.916477,58.176846
3410000000,-25.213676,-49.493412,-54.380009,-26.471928,-54.220673,-35.035088,-16.023472,81.210663
3415000000,-16.330048,-137.29395,-53.241817,-89.317352,-53.845268,-89.789719,-14.887608,69.076813
3420000000,-13.113599,-75.217995,-56.926662,-41.923122,-56.514805,-39.213863,-16.356243,63.436802
3425000000,-18.789633,142.24345,-52.8004,-62.98547,-50.511322,-67.664703,-15.22466,81.691521
3430000000,-13.148082,-84.666039,-49.449596,-107.35569,-48.788326,-101.2878,-17.834059,45.511482
3435000000,-15.703693,-100.30383,-51.900875,-153.67854,-52.664734,-153.91141,-16.206289,77.418289
3440000000,-26.557047,13.512289,-63.678707,-146.37071,-61.715469,-108.04421,-17.218771,50.620052
3445000000,-11.25036,-108.09102,-53.818661,-97.748863,-52.831898,-112.83778,-17.425711,60.638367
3450000000,-15.253566,1.0916255,-55.581081,-161.60709,-54.087509,-161.024,-14.343103,65.006279
3455000000,-13.462256,-117.62189,-56.717728,-145.41188,-59.942612,-178.33551,-21.766018,58.94775
3460000000,-15.672583,-82.546623,-51.880192,-114.37943,-51.545517,-108.80161,-14.571781,61.84388
3465000000,-16.306704,-30.923265,-49.856655,-172.34453,-50.042183,-162.27124,-20.596388,69.180618
3470000000,-14.611182,-126.77531,-50.621201,140.11691,-51.444893,144.63948,-19.02586,66.260445
3475000000,-11.721495,-51.075577,-61.75116,118.09162,-61.624943,128.05069,-17.762236,56.06179
3480000000,-20.176758,-40.382404,-55.956116,147.94688,-60.039967,161.62074,-21.415529,69.925835
3485000000,-11.77911,-97.341759,-52.59417,135.50209,-52.314053,128.55153,-16.887892,47.083897
3490000000,-16.219105,-36.332787,-60.769173,119.72402,-57.449776,81.095695,-19.464178,64.084732
3495000000,-20.696215,-70.882797,-60.005833,171.48962,-61.849689,149.80693,-19.045008,66.158722
3500000000,-11.910906,-76.918915,-51.248466,118.45834,-51.208698,136.88431,-18.421698,49.510246
3505000000,-12.45003,-46.718563,-49.524933,71.834572,-50.66642,80.260391,-18.184261,94.840378
3510000000,-16.455181,-127.75914,-54.354122,55.59264,-54.602554,52.32819,-20.267088,53.157803
3515000000,-10.017149,-54.281281,-55.84333,70.424179,-56.664555,72.559105,-22.505676,71.96669
3520000000,-19.74947,-67.702026,-53.808125,28.566629,-55.090096,46.453392,-18.287998,62.893024
3525000000,-12.901089,-73.28566,-54.666279,-13.3048,-52.709156,-7.0426888,-23.004326,47.754711
3530000000,-9.5390358,-72.788254,-67.466415,-99.680061,-65.743095,41.211735,-16.372158,76.43985
3535000000,-19.184032,-13.219263,-54.729931,45.209053,-56.671623,57.292568,-22.316767,68.248489
3540000000,-9.1972713,-93.178925,-52.943062,9.1921511,-52.103409,19.922659,-18.660288,85.882233
3545000000,-11.680148,-27.979261,-53.080677,-11.29763,-55.704708,-27.280882,-18.162958,67.168442
3550000000,-13.178141,-83.592453,-54.263721,-22.653248,-55.140785,-38.136665,-23.365774,105.35605
3555000000,-13.094765,-90.270943,-50.81118,-48.342804,-50.207596,-53.111073,-18.074825,63.043377
3560000000,-9.559638,-41.937222,-52.595207,-75.806213,-54.096104,-64.165176,-23.166552,80.367523
3565000000,-13.916105,-118.80827,-65.769402,-117.88852,-59.948936,-117.83849,-19.185884,84.191185
3570000000,-8.5425291,-61.4743,-60.077175,-13.924028,-57.19693,-55.156845,-19.52165,42.530117
3575000000,-16.213514,-50.349945,-55.521137,-60.524349,-55.561195,-70.002235,-15.988553,96.613289
3580000000,-11.026905,-91.846268,-59.011734,-108.43191,-57.240608,-102.2303,-20.805908,46.554611
3585000000,-8.8691282,-50.336452,-55.106571,-101.91159,-56.061165,-81.312935,-17.88625,93.489777
3590000000,-15.596675,-85.020927,-54.59676,-120.32825,-53.401047,-114.28683,-21.405025,72.722374
3595000000,-10.393718,-85.896942,-52.035591,-164.01357,-52.463223,-157.63332,-20.03867,59.92638
3600000000,-9.3409529,-42.816738,-59.978779,167.31226,-58.954369,160.20363,-17.388945,89.925011
3605000000,-14.679946,-92.325172,-58.87014,-159.95163,-61.57478,-159.81589,-21.419516,50.683502
3610000000,-8.2091675,-68.589714,-55.560028,175.61632,-55.005615,-167.80577,-17.950081,69.057716
3615000000,-13.880275,-63.915108,-64.779366,-151.63297,-60.61832,-142.25218,-17.214716,72.611694
3620000000,-14.081736,-71.387154,-60.421005,-121.48329,-59.193935,-110.55929,-24.258194,82.575233
3625000000,-6.5955987,-77.593285,-50.916805,-176.49805,-50.774269,-167.65759,-15.56326,69.806602
3630000000,-15.931242,-4.1437759,-51.733337,138.9261,-52.489143,134.04373,-25.870907,95.335602
3635000000,-6.8208308,-93.743073,-56.361485,101.01942,-55.283428,84.769691,-16.829895,64.966011
3640000000,-9.4595051,-47.533966,-60.220791,116.38547,-57.816391,109.41891,-21.022806,67.927803
3645000000,-12.359173,-66.364914,-57.623699,132.01015,-57.903805,119.24474,-21.55372,74.025017
3650000000,-10.267258,-91.700394,-57.758228,44.823662,-59.944458,49.910042,-18.109701,44.522148
3655000000,-7.2124658,-38.049355,-66.929276,93.094223,-63.173153,94.813652,-19.599194,78.561653
3660000000,-12.329464,-99.472839,-54.862331,114.4528,-53.001659,113.66572,-19.093687,62.910763
3665000000,-8.4435129,-68.812325,-50.57719,78.31459,-50.385563,70.468414,-20.479877,52.413033
3670000000,-12.79726,-45.085094,-53.905724,34.674603,-53.49836,24.70639,-16.931086,82.442886
3675000000,-11.038035,-85.58007,-63.075764,44.192028,-63.648335,-0.29237178,-23.639076,29.496231
3680000000,-7.5407815,-69.25293,-56.416599,40.347256,-54.877781,8.8991795,-19.160498,78.857162
3685000000,-12.21267,-43.15337,-56.560192,-17.213272,-55.89967,-31.838964,-21.779724,47.778114
3690000000,-10.465897,-93.70694,-72.96225,-117.85348,-64.846138,-89.180077,-23.573551,59.930397
3695000000,-6.5372891,-44.941113,-62.818245,101.06383,-61.036583,79.789276,-16.378153,57.886688
3700000000,-14.559515,-106.20634,-54.066998,6.6443577,-52.228889,20.064272,-28.839722,85.27977
3705000000,-8.0969305,-66.669846,-53.26133,-47.962044,-55.022243,-26.362473,-16.76059,56.118359
3710000000,-9.818161,-56.033115,-57.454945,-58.633015,-55.978844,-60.749088,-25.970411,72.565498
3715000000,-12.584001,-54.768562,-56.61602,-74.514153,-56.675415,-51.474091,-19.603222,78.57399
3720000000,-5.2065549,-81.922508,-54.398678,-80.753105,-55.241581,-63.000458,-23.668346,59.837055
3725000000,-13.998358,-3.6490376,-58.223427,-142.70305,-60.545238,-150.5697,-23.54571,76.983818
3730000000,-7.2699299,-79.795937,-72.532532,62.79488,-64.574333,-12.596515,-20.547026,54.898239
3735000000,-9.0819979,-59.905193,-59.59956,-41.363869,-58.731808,-55.982182,-21.658548,65.25029
3740000000,-9.5046597,-46.683491,-53.05814,-113.72961,-53.166008,-90.505981,-20.558243,99.546425
3745000000,-7.687036,-96.549759,-55.568432,-95.546165,-55.113037,-113.28403,-23.565775,24.914583
3750000000,-7.7179151,-37.099808,-61.268017,-147.79425,-59.612827,-159.75832,-17.960732,105.44924
3755000000,-12.670183,-81.204735,-57.139294,-175.18414,-59.726929,-142.59889,-23.004955,42.954861
3760000000,-5.7034144,-72.049469,-57.491234,178.57637,-58.683266,-164.47569,-22.019142,110.8584
3765000000,-8.8411169,-47.169346,-60.1772,124.99001,-59.204086,119.8173,-20.142893,56.415512
3770000000,-10.770066,-83.319237,-62.827076,177.26244,-69.039055,165.9698,-27.54932,86.721542
3775000000,-6.8654337,-64.000839,-53.322292,-136.76028,-55.690292,-142.9668,-17.707129,75.348915
3780000000,-8.9765453,-39.439693,-55.915298,177.41391,-57.148418,172.01971,-24.210491,99.488083
3785000000,-8.4374094,-92.698357,-56.187622,142.39632,-53.553864,146.94672,-19.829212,86.695267
3790000000,-5.5223174,-51.261742,-63.233017,149.51483,-59.211071,142.52722,-18.002138,77.725456
3795000000,-12.413877,-78.595863,-61.25647,116.0479,-59.351929,131.75519,-21.111681,133.34277
3800000000,-7.5344596,-62.282776,-56.054344,73.34166,-56.519981,71.028481,-19.241735,68.21373
3805000000,-5.0341792,-61.850124,-61.543613,9.3526402,-59.128311,4.115078,-24.297691,100.68573
3810000000,-18.39171,-68.096458,-81.953346,89.692444,-76.880188,-104.18014,-17.461845,89.655807
3815000000,-3.6445127,-71.043678,-57.946976,121.15373,-61.449024,136.18951,-23.107826,73.825607
3820000000,-11.638113,-38.948296,-54.782192,53.57235,-55.037788,82.719879,-17.329592,96.624931
3825000000,-6.4443889,-70.648056,-56.560863,37.46302,-57.407711,59.74786,-18.136806,67.049042
3830000000,-6.4613862,-76.782127,-58.237007,49.2202,-58.726326,42.284321,-17.316813,114.23472
3835000000,-7.7607627,-40.688843,-54.3125,10.270223,-59.565613,33.744545,-18.508804,92.038994
3840000000,-6.8910604,-93.357742,-62.101177,-27.514711,-57.712917,9.0025759,-27.822472,105.87417
3845000000,-4.7237353,-50.680489,-60.637875,-79.276314,-81.471779,-109.53332,-15.293301,81.650574
3850000000,-8.8878288,-68.071312,-61.43441,90.733803,-63.779518,118.92937,-24.415833,95.27858
3855000000,-5.6572485,-88.129082,-56.315071,0.95105624,-57.394745,16.183197,-16.376572,74.250137
3860000000,-6.0168505,-44.873119,-56.706367,-16.443314,-55.225842,-17.983137,-18.751541,75.157257
3865000000,-7.8301935,-72.098068,-58.520863,-65.545227,-56.027164,-72.304977,-17.280691,81.745102
3870000000,-4.9172473,-79.507225,-60.172405,-54.053158,-59.050007,-40.682243,-16.137171,89.080986
3875000000,-5.6216617,-48.655972,-55.196041,-69.345551,-56.932423,-89.154594,-19.834831,78.687874
3880000000,-8.2243299,-106.59669,-69.814392,-169.51923,-59.153954,-144.22746,-16.308773,95.701035
3885000000,-3.2978923,-54.065617,-61.898769,169.37419,-61.525219,123.54905,-18.489735,51.607559
3890000000,-6.9372606,-79.408325,-64.720398,-33.704437,-62.679169,-21.670012,-16.294355,103.33185
3895000000,-7.7879219,-73.73027,-62.031612,-41.926125,-56.288017,-57.683872,-16.901432,29.828194
3900000000,-1.8440796,-69.149864,-57.601559,-136.34703,-61.182457,-140.70126,-14.490396,93.849739
3905000000,-17.759096,-70.34185,-59.908302,-121.87586,-59.163731,-131.48753,-18.29891,57.251694
3910000000,-2.8688207,-70.981224,-59.268124,-124.45734,-61.343872,-118.11322,-16.505014,78.42482
3915000000,-6.0758824,-65.931084,-60.010151,-172.12393,-55.044186,170.32982,-16.783789,75.635384
3920000000,-6.8790808,-72.846397,-57.188423,131.20242,-63.832558,137.64603,-17.814102,63.159622
3925000000,-4.089973,-85.267036,-70.051353,-108.79833,-66.056534,-19.281397,-17.649189,79.86232
3930000000,-6.4993067,-44.424877,-57.670197,-75.925011,-58.117065,-100.79929,-17.321241,53.70369
3935000000,-4.9769158,-89.82547,-59.034027,-154.61758,-56.757187,-131.82443,-20.451099,79.695557
3940000000,-3.3547163,-68.427048,-56.062557,168.90181,-61.059505,165.19995,-13.592051,51.697495
3945000000,-8.5760832,-71.952637,-55.555023,-176.81369,-60.277061,174.73346,-20.308712,89.570534
3950000000,-3.8945878,-86.257744,-56.605976,155.6951,-59.396011,149.19975,-14.505239,53.979492
3955000000,-4.9312992,-62.731018,-55.724545,100.91766,-55.668541,125.27709,-20.69371,73.737068
3960000000,-6.5085554,-69.905792,-59.692863,48.619785,-63.182392,43.725941,-16.435474,59.790119
3965000000,-3.4072437,-99.752083,-60.607018,-124.2019,-70.491684,151.24498,-18.585981,63.182686
3970000000,-4.1989803,-45.374844,-60.699947,152.69191,-62.19537,142.17935,-20.727186,62.340988
3975000000,-4.0968142,-109.24429,-54.665173,122.78944,-55.80418,115.67842,-15.213941,51.924355
3980000000,-4.0229406,-64.501144,-59.546421,83.592827,-58.681641,96.501167,-22.386532,45.921196
3985000000,-4.2257895,-75.220024,-58.379608,65.412094,-61.554253,93.834946,-14.335982,61.266239
3990000000,-7.612371,-104.60841,-54.480095,44.555603,-57.358543,45.47015,-24.423624,32.879478
3995000000,-1.3821765,-71.476921,-56.618969,2.9165447,-56.969128,11.033905,-15.73307,65.424324
4000000000,-9.273572,-100.12978,-57.453472,-75.388542,-57.775738,-69.529282,-21.183197,42.767982
END

