!CSV A.01.01
!Keysight Technologies,N5247A,US56070710,A.10.64.09
!Date: Sunday, November 20, 2022 22:57:45
!Source: Standard

BEGIN CH1_DATA
Freq(Hz),S33(DB),S33(DEG),S34(DB),S34(DEG),S43(DB),S43(DEG),S44(DB),S44(DEG)
3000000000,-18.741255,-176.34322,-55.875496,168.62164,-59.416641,-164.38783,-17.452595,-139.00473
3005000000,-9.0150919,151.96017,-53.527744,122.44031,-55.179768,145.11967,-16.097166,170.521
3010000000,-18.766926,-109.61637,-55.405128,96.215263,-55.713539,100.56596,-19.882084,-156.61884
3015000000,-12.840264,157.29367,-57.356888,31.545168,-56.570026,45.882061,-14.014435,-179.93689
3020000000,-11.234118,171.78416,-54.152645,5.3761363,-54.419102,12.108142,-20.95689,164.09862
3025000000,-17.936035,-161.45667,-60.414169,-26.388931,-59.503113,-1.9981097,-14.479953,-170.74532
3030000000,-9.5762501,131.93454,-53.559761,-104.20338,-53.214775,-101.95069,-16.43047,153.34068
3035000000,-14.944608,-146.87453,-55.213261,-113.07955,-55.805759,-106.91436,-16.945002,-163.81276
3040000000,-12.014985,167.75998,-59.700272,-157.459,-56.243851,171.82916,-13.887994,155.46254
3045000000,-11.748132,140.57413,-57.867077,154.7963,-56.883083,141.80118,-20.421131,164.98428
3050000000,-10.431859,-154.72787,-59.797768,124.91641,-62.979385,112.0888,-12.611186,162.43704
3055000000,-10.040145,108.84579,-54.546223,34.920341,-54.313103,42.421413,-18.478571,133.65715
3060000000,-12.880845,-159.21977,-55.405098,26.932377,-54.773373,33.885273,-13.774155,176.66563
3065000000,-10.823774,160.47801,-54.937988,-67.754028,-55.331501,-44.620609,-15.329987,131.76122
3070000000,-16.022606,120.17377,-55.688698,-78.979172,-58.114292,-93.698174,-16.544697,175.73398
3075000000,-7.9528241,170.77721,-56.550537,-79.147987,-58.884014,-86.130562,-13.39532,139.59407
3080000000,-16.05937,103.54771,-56.305717,172.37825,-57.640629,167.03056,-19.443272,139.1057
3085000000,-11.125566,164.6254,-55.412868,166.59941,-58.713806,162.30925,-13.137039,152.69803
3090000000,-9.9649353,149.15431,-57.846111,113.86259,-56.413311,117.70847,-17.274216,110.44473
3095000000,-25.244251,139.17963,-56.246796,39.321671,-57.027138,33.355087,-14.247094,162.70073
3100000000,-6.6728525,149.05148,-57.773869,54.616398,-61.133965,29.528418,-13.78015,120.83962
3105000000,-16.584826,142.89619,-63.630848,-23.023041,-62.31007,-23.253389,-18.64423,162.04468
3110000000,-12.638919,136.5257,-55.03973,-61.009995,-54.625656,-59.9492,-12.420762,128.19022
3115000000,-9.6731911,139.83696,-61.341038,-46.677498,-60.105247,-58.666973,-21.893318,122.31066
3120000000,-19.489857,175.36932,-54.257275,-154.86798,-55.627537,-158.35667,-13.491047,137.08923
3125000000,-7.1246805,134.32776,-63.5009,160.53902,-62.503704,89.279411,-16.852467,107.40169
3130000000,-12.658652,126.81816,-59.042858,110.8065,-62.306763,111.19147,-16.141994,153.38467
3135000000,-14.150865,155.34431,-59.551723,120.31207,-58.677658,120.06851,-13.082568,109.49925
3140000000,-7.3814726,112.69572,-58.701191,72.114723,-58.910603,56.79924,-19.659071,149.15034
3145000000,-13.099658,-162.59537,-60.620003,-25.739067,-60.18026,-12.675406,-12.832826,120.5928
3150000000,-7.5677862,116.50942,-59.187607,-59.179703,-60.388054,-63.030563,-20.961655,112.27027
3155000000,-11.956769,124.08757,-62.144844,-105.44611,-60.411701,-85.276657,-14.497217,138.8871
3160000000,-10.626303,150.34621,-67.174568,153.98302,-65.196968,-137.75662,-16.772482,91.209442
3165000000,-9.111249,83.952667,-63.213165,-137.62816,-60.02475,-124.35691,-15.753058,143.57436
3170000000,-8.521841,165.56683,-58.515537,145.66931,-56.730942,139.49384,-13.978628,106.83197
3175000000,-11.282511,100.40469,-58.337704,84.029129,-56.609627,70.899361,-20.867233,126.32755
3180000000,-10.374393,114.48538,-60.021729,39.211388,-64.504906,24.729902,-12.849874,125.68539
3185000000,-8.2995329,133.14729,-67.900208,14.003715,-63.320335,50.439503,-23.513546,93.093163
3190000000,-12.38768,69.004738,-65.833527,125.87273,-66.623459,33.797848,-14.098136,138.61317
3195000000,-8.4718142,134.05244,-59.659775,-63.256985,-58.618343,-52.199451,-17.921392,86.107132
3200000000,-10.870524,118.7691,-56.019993,-89.562843,-56.774242,-72.006721,-17.05624,139.9919
3205000000,-11.260036,96.949394,-57.637802,157.67284,-59.313564,158.84402,-13.881446,96.127945
3210000000,-6.7595,120.39751,-62.698215,172.52277,-68.097931,177.88596,-22.073967,133.05301
3215000000,-16.015574,69.13382,-74.098991,-155.2509,-66.837311,96.134872,-13.174929,112.22794
3220000000,-8.8487558,110.50503,-58.778687,131.62813,-57.918091,116.04961,-19.687752,102.7572
3225000000,-9.7212439,117.02495,-63.357132,8.7894211,-61.393108,53.402016,-14.179957,137.62244
3230000000,-16.452841,103.23919,-56.729965,-13.410024,-62.103436,-35.057213,-16.132685,82.711205
3235000000,-4.3537889,97.918701,-77.757965,-82.77166,-61.332016,0.71043342,-15.737031,145.71918
3240000000,-21.350393,59.217201,-67.013947,18.777367,-66.460899,-50.437679,-14.693526,92.926353
3245000000,-9.8849754,108.16878,-63.890911,-104.66116,-66.973099,-134.94635,-20.121912,129.27493
3250000000,-8.0045519,88.901291,-59.026283,-130.01057,-63.84761,-139.68634,-13.631411,114.89857
3255000000,-11.91794,145.00473,-58.622601,124.09678,-58.57486,171.16286,-19.199837,85.004776
3260000000,-5.0770721,68.609146,-68.530762,141.17497,-61.408428,129.80988,-12.757172,130.15781
3265000000,-15.601439,124.73692,-64.204895,2.0314274,-71.632126,-45.771629,-16.268595,84.609695
3270000000,-9.8896885,95.615494,-62.465607,18.637823,-65.497787,90.384605,-16.174704,137.69902
3275000000,-8.8107424,69.350861,-63.145359,27.36273,-63.82819,64.581589,-13.271315,93.67421
3280000000,-8.4711237,129.99164,-59.928413,-53.478657,-58.564354,-63.794556,-21.431433,135.49394
3285000000,-7.9525294,55.127666,-60.426403,-87.12088,-59.552078,-96.6576,-11.84588,105.33523
3290000000,-9.9750185,92.446884,-66.313347,-112.47478,-66.767868,-76.86515,-20.426861,97.364189
3295000000,-10.834421,95.300522,-67.125038,134.55074,-62.98798,65.342415,-13.016301,115.52006
3300000000,-10.018104,48.248756,-65.755814,128.79208,-62.084324,172.92393,-14.483799,85.606903
3305000000,-6.8357635,113.25114,-69.825241,75.70797,-67.127632,79.007622,-15.925806,136.93542
3310000000,-9.317318,51.759075,-59.803627,103.82211,-59.516624,84.658623,-12.545825,89.066299
3315000000,-10.564236,74.559341,-62.643509,2.7760537,-63.855328,50.735184,-20.220535,127.8871
3320000000,-6.9051118,88.779587,-63.713051,-0.78180456,-60.841808,-47.617741,-11.797539,100.72749
3325000000,-13.767352,-0.83476079,-64.935135,-1.9667099,-65.889275,-23.61511,-18.556248,70.832748
3330000000,-5.3612647,94.770866,-66.093071,-79.086205,-62.454533,-77.76046,-11.888682,114.47351
3335000000,-10.292622,50.105839,-60.778721,-104.14878,-66.269264,-153.48596,-15.238101,67.751465
3340000000,-12.427906,67.539322,-64.618881,-130.33592,-61.603828,-179.10753,-14.30801,117.86248
3345000000,-5.6062512,63.829403,-61.666248,110.55244,-61.000229,167.19954,-13.363084,86.763214
3350000000,-33.277023,-118.08318,-59.811104,88.765205,-59.178375,133.77748,-19.917038,90.716469
3355000000,-5.6102929,67.050858,-63.341492,64.928116,-64.237923,36.441475,-11.521317,98.97287
3360000000,-11.477962,65.05835,-61.452469,9.2163153,-64.482437,37.816612,-18.506332,49.277489
3365000000,-12.190935,58.562458,-61.20293,12.776569,-63.819454,4.2598219,-12.6628,101.60345
3370000000,-5.8013649,46.40683,-67.116905,-72.514511,-61.273869,-90.858688,-13.423731,63.276432
3375000000,-15.710525,103.04055,-57.906029,-121.80183,-57.091026,-145.82603,-16.671246,117.41449
3380000000,-9.4335918,52.553093,-61.155556,-167.10431,-58.466885,-174.06337,-11.66173,72.213196
3385000000,-7.5420094,54.304905,-59.642559,142.70082,-58.384968,124.55891,-20.938597,98.644547
3390000000,-13.878855,84.312256,-59.862808,139.82588,-61.889889,146.25873,-12.411387,79.984055
3395000000,-6.5367212,29.235542,-56.499168,100.24377,-58.481415,70.744286,-16.059286,56.841888
3400000000,-12.476871,78.162376,-56.690544,2.0948892,-57.738262,38.806377,-15.360703,107.28916
3405000000,-10.934037,55.754578,-59.105534,-47.714153,-60.573978,-17.956116,-12.418881,45.254101
3410000000,-7.4989562,27.063297,-62.292873,-59.440884,-62.867645,-67.0765,-17.156,112.22622
3415000000,-9.1106081,87.30603,-60.654827,-93.968567,-62.245193,-81.30542,-12.224235,63.593925
3420000000,-7.5768499,7.126863,-55.742939,-139.15944,-56.593613,-126.55164,-21.392347,63.650826
3425000000,-9.9424314,68.590385,-56.08675,-175.62424,-56.653633,172.98328,-12.698712,85.67144
3430000000,-9.4544153,42.051353,-54.500195,90.078308,-59.87104,84.717514,-18.19278,22.628174
3435000000,-13.249713,-0.88823342,-61.90567,116.44769,-67.339149,143.83444,-14.760505,95.432091
3440000000,-4.99968,59.895485,-71.000603,-102.94262,-62.544281,98.591087,-15.052022,38.572639
3445000000,-14.285724,-18.533182,-52.973091,19.473658,-55.777065,37.81012,-20.86459,89.022835
3450000000,-7.2028461,40.149319,-53.322948,-54.617416,-55.53524,-38.423138,-12.038266,63.109226
3455000000,-10.395101,38.351364,-53.085484,-124.38284,-56.497547,-120.40086,-29.605003,19.524019
3460000000,-20.992693,8.6285305,-64.125824,169.88287,-61.492664,-165.41603,-12.747543,74.473038
3465000000,-5.1432486,38.971958,-74.876602,-106.95663,-78.81218,-168.59764,-21.205734,31.006836
3470000000,-15.424263,35.839882,-53.122349,165.07306,-55.26413,177.86652,-17.519598,95.796928
3475000000,-10.242847,13.915819,-58.159332,122.63387,-55.584404,111.36718,-15.669036,40.094856
3480000000,-7.1226177,28.200565,-52.52776,25.799994,-54.081161,26.886675,-23.658552,116.01941
3485000000,-26.64666,86.221451,-55.855137,-13.284905,-56.620934,-2.8281925,-13.864875,51.369835
3490000000,-6.2079673,31.16004,-60.403034,176.11818,-70.931274,-141.37625,-26.962225,38.918552
3495000000,-10.357754,23.681292,-56.574684,0.99409306,-57.614902,-17.514233,-15.322545,83.934898
3500000000,-13.79702,38.166405,-54.117359,-78.075699,-53.407413,-81.549553,-18.19672,18.681726
3505000000,-6.5857372,-0.34235737,-57.600212,-168.36302,-56.296741,-166.16658,-15.481721,114.09846
3510000000,-11.131571,98.774826,-53.470852,126.38797,-55.271191,116.47947,-17.226671,30.092714
3515000000,-7.147974,7.8067703,-59.942188,12.681442,-60.706848,30.094612,-22.494093,123.74377
3520000000,-10.917668,17.243765,-65.362022,134.94475,-65.127022,122.33076,-14.967299,56.010963
3525000000,-10.400882,43.06094,-51.819412,89.750435,-56.266376,94.352951,-35.874157,-8.5726519
3530000000,-8.832118,-37.089191,-57.316467,-36.005062,-53.571316,-27.735186,-13.738496,82.038307
3535000000,-6.9971752,58.804585,-53.621632,-70.053017,-51.541615,-67.780411,-24.35474,27.638474
3540000000,-11.841672,-10.191998,-63.752567,-169.57928,-63.080711,178.58015,-16.762827,106.9318
3545000000,-9.8986645,6.7444277,-62.068237,141.57947,-58.240772,106.66547,-16.644321,47.50843
3550000000,-8.4270935,32.469128,-57.642704,-110.59742,-56.890678,-106.82074,-20.371439,146.47028
3555000000,-17.9816,-49.969654,-56.8978,158.95227,-55.889187,179.98724,-15.006346,53.970951
3560000000,-7.5666142,19.926096,-52.801098,101.41742,-54.179474,82.163689,-30.472967,141.1259
3565000000,-12.841475,34.90979,-55.778599,1.554912,-54.943462,-4.4649849,-15.496706,86.866714
3570000000,-12.816435,-28.998692,-60.897045,-48.273632,-60.900764,-47.492977,-19.885498,15.027282
3575000000,-6.4429083,26.3818,-60.337185,34.065632,-64.300346,48.237637,-14.178915,110.68
3580000000,-21.585201,-57.165062,-59.035389,-64.609001,-66.598053,-89.888306,-17.782827,30.056364
3585000000,-8.2919893,10.699185,-51.996914,-118.83618,-52.957008,-127.5921,-18.154097,121.59888
3590000000,-10.532664,8.1930857,-56.007408,167.80586,-57.705223,165.06445,-16.73423,60.891323
3595000000,-24.467117,73.122322,-56.208153,84.321083,-57.627304,72.269257,-31.720051,67.154869
3600000000,-4.9345341,0.75113487,-70.071426,113.69987,-65.798561,133.67294,-13.701818,89.046364
3605000000,-19.417006,44.454067,-62.688202,91.455444,-57.954311,123.79006,-22.353605,2.7049892
3610000000,-10.358313,-4.8062863,-53.714458,52.698246,-54.107243,30.83534,-15.528595,95.389008
3615000000,-10.492886,-7.7334042,-57.103172,-26.427794,-58.948463,-37.748779,-16.508768,47.135033
3620000000,-9.9598103,64.398903,-54.635357,-127.00245,-57.429295,-135.38606,-21.886673,139.15903
3625000000,-6.3857694,-37.659603,-65.666092,-28.109066,-61.141457,-119.30417,-13.325502,60.578514
3630000000,-9.098423,43.03577,-70.717209,127.12582,-70.056717,162.20668,-28.181498,-174.63556
3635000000,-13.726496,-30.687529,-55.536709,166.92235,-55.900253,159.91096,-13.632617,73.182846
3640000000,-9.9628401,-19.688631,-60.948528,96.225517,-56.834843,118.4047,-23.629667,17.114151
3645000000,-8.2346077,38.40448,-56.158955,43.180553,-56.943848,28.407293,-16.999304,108.29168
3650000000,-12.02789,-38.902885,-62.586468,-22.969076,-62.895164,-17.633408,-15.17075,22.401611
3655000000,-7.7421341,1.795019,-79.583076,26.343065,-66.062996,5.8510327,-18.789351,126.54617
3660000000,-12.480656,19.613844,-60.804111,-46.847816,-57.489395,-43.621586,-14.886569,48.964588
3665000000,-13.908406,-54.569263,-57.812782,-99.657921,-59.783974,-60.367214,-33.784935,73.758049
3670000000,-6.4570107,24.573278,-60.824379,164.80025,-56.122082,174.10995,-13.6749,81.523788
3675000000,-14.935696,-22.522444,-60.707977,152.10844,-60.344769,144.84358,-21.766571,-17.943913
3680000000,-12.176546,-20.805908,-71.061729,80.846748,-72.288582,-116.24933,-16.008583,103.06329
3685000000,-6.4171381,5.8445745,-60.306026,110.19038,-62.578274,104.85154,-17.506733,20.36401
3690000000,-20.4415,-176.38553,-62.110996,37.972221,-63.649567,91.211189,-23.155012,138.13472
3695000000,-4.5365534,-1.1936109,-59.087219,-16.975357,-60.657249,-33.133499,-13.182329,49.341751
3700000000,-18.969259,4.7653666,-60.139938,-48.246479,-60.635845,-104.91258,-26.795303,-149.32906
3705000000,-12.30635,4.2383518,-65.018288,-46.903923,-67.689636,104.02583,-13.745299,66.068443
3710000000,-6.7273116,-20.494387,-68.421059,-118.41518,-60.141022,-122.9353,-26.846138,-15.859729
3715000000,-13.114534,53.743523,-63.279224,-104.90913,-62.686512,-101.99276,-16.22378,105.82426
3720000000,-7.7403116,-39.840218,-64.20015,115.74004,-66.379913,133.67581,-19.025551,20.361681
3725000000,-9.4539461,26.365646,-67.680466,93.095062,-59.891483,96.070282,-21.587669,139.33485
3730000000,-10.967117,0.52016521,-80.310265,-163.57913,-71.065857,6.9306583,-15.702723,48.446014
3735000000,-7.6620579,-45.267227,-69.395905,29.109795,-74.874496,-33.339073,-42.954613,168.54193
3740000000,-8.6947002,27.259727,-71.213646,34.255634,-60.089626,73.965225,-15.29173,93.016693
3745000000,-13.80348,-48.291271,-60.398399,-121.20863,-60.251743,-101.40847,-20.539301,-27.677269
3750000000,-8.179347,-9.1379089,-68.067139,-60.320938,-72.453041,-68.219864,-14.15109,116.54839
3755000000,-8.5104437,19.09478,-61.436111,144.5797,-57.888916,153.57184,-18.623449,10.890979
3760000000,-7.3887987,-69.67379,-66.533302,-140.61511,-70.408272,-174.40569,-18.292612,144.49313
3765000000,-8.0458279,15.500158,-78.850677,112.03896,-62.414616,-130.90198,-15.90099,47.57914
3770000000,-11.663272,-15.110556,-72.311012,-116.79278,-62.214684,98.252037,-27.615845,-157.05251
3775000000,-13.049252,-32.976364,-62.029976,51.719257,-57.769249,40.056465,-14.184278,80.930946
3780000000,-4.5003781,0.98750842,-61.288227,-30.851788,-66.674431,-21.721052,-33.723171,-19.426817
3785000000,-14.692338,-104.94736,-69.019554,-110.64336,-59.227806,-100.29659,-15.599719,110.72854
3790000000,-6.3592315,-11.733803,-69.727951,-39.779232,-62.910042,36.274868,-17.709187,42.859146
3795000000,-11.361897,-15.928328,-73.448837,41.068222,-68.210495,-101.19053,-16.36434,154.31265
3800000000,-14.05927,9.3703737,-65.70916,163.61728,-62.003853,-148.35196,-15.606684,51.610172
3805000000,-3.2992764,-32.675873,-69.231613,-144.80821,-66.343292,150.50569,-23.759336,173.91489
3810000000,-15.394763,75.008965,-59.964336,85.446899,-58.757187,89.185036,-13.94871,86.02858
3815000000,-6.0241055,-42.638359,-70.007942,-167.84169,-67.886932,-116.92141,-31.041224,-3.0783951
3820000000,-9.464509,-5.992692,-73.435402,-27.398109,-80.290527,-15.672508,-14.036529,108.16174
3825000000,-10.861735,-1.0139865,-62.466492,38.660378,-59.724339,46.048332,-17.906355,39.396477
3830000000,-5.7601094,-52.635258,-62.109131,-62.365814,-58.805531,-40.128292,-15.259574,136.22925
3835000000,-10.073052,6.334898,-58.561161,-116.8975,-58.464523,-123.61316,-15.904473,67.482567
3840000000,-11.447332,-28.835699,-72.722206,-176.3956,-68.044342,-154.91183,-23.379627,-173.46104
3845000000,-5.9796104,-46.56168,-67.416115,65.576118,-76.045715,143.24571,-12.526541,80.018219
3850000000,-8.4247398,12.693715,-62.064247,-160.7244,-65.126129,-174.74403,-48.627472,-6.551362
3855000000,-7.6491284,-76.95813,-66.726753,140.0412,-64.917198,172.52142,-14.055602,94.237328
3860000000,-7.0585957,-6.9444675,-55.818748,53.759693,-54.932339,17.788097,-18.232944,43.30666
3865000000,-8.1095457,-21.362011,-70.45121,7.04351,-79.304779,-18.028978,-16.684097,116.63058
3870000000,-8.3776674,-89.003136,-60.281631,-120.85535,-62.44738,-94.656853,-14.027108,68.871895
3875000000,-4.2950444,-5.2361445,-66.1894,45.260326,-62.343636,-27.735758,-25.540941,136.58008
3880000000,-12.640663,-107.32741,-64.337547,-64.641708,-78.761917,-152.56926,-12.424005,88.300316
3885000000,-5.3219042,-21.369694,-60.23811,-122.83063,-57.923569,-127.06512,-22.423822,3.5508876
3890000000,-6.030261,-44.757645,-64.223305,103.86974,-61.160728,142.32155,-12.357087,108.66522
3895000000,-25.548998,-113.26629,-57.129391,77.070457,-62.415119,64.630646,-15.054449,9.0929499
3900000000,-2.7863064,-40.81741,-68.625587,-86.94709,-69.366508,-62.368233,-13.165111,115.18941
3905000000,-19.055096,24.033955,-66.75264,-169.15157,-61.504276,138.53326,-14.578111,43.910084
3910000000,-6.112782,-40.766556,-65.650902,27.824015,-64.689674,46.002018,-20.314604,113.75503
3915000000,-4.613328,-54.762581,-54.842579,-51.3876,-57.415981,-37.63055,-12.865911,73.408974
3920000000,-15.580842,26.741642,-63.066105,-139.6579,-62.241978,-145.63174,-23.375484,31.053644
3925000000,-5.3779845,-62.382057,-60.915714,144.20447,-66.576721,-143.63133,-13.862782,97.073143
3930000000,-7.9580364,-16.211273,-65.114159,14.798377,-66.178711,-45.967312,-15.820936,25.038679
3935000000,-10.244261,-48.509743,-61.462818,-117.44485,-63.670486,-167.98341,-17.27507,123.87992
3940000000,-3.5869529,-70.036766,-58.393139,121.61063,-65.253319,144.2251,-11.38767,42.044449
3945000000,-12.429547,19.073122,-63.531586,60.290524,-63.457722,29.274099,-21.885487,143.929
3950000000,-5.9250312,-63.302631,-57.845566,-49.726414,-61.434082,-40.943657,-11.703708,59.153831
3955000000,-7.7732873,-56.059605,-61.613762,-179.91591,-64.393089,-173.04681,-27.945675,17.173689
3960000000,-6.7495813,-16.296425,-73.27861,65.611031,-64.290154,152.73073,-13.686917,85.505486
3965000000,-4.0708609,-112.6554,-60.931545,-51.171543,-61.84919,-21.329668,-17.199471,23.420431
3970000000,-4.2952456,-5.8974733,-63.666965,-157.18744,-63.698071,-134.57825,-18.734352,112.62704
3975000000,-6.9367642,-91.760269,-58.841675,122.20202,-57.574455,139.0546,-12.544541,41.897755
3980000000,-10.786994,-55.594147,-58.65448,-10.62428,-58.541294,9.7711744,-39.075363,161.7652
3985000000,-3.7364066,-40.721127,-65.373817,-123.91048,-61.352314,-61.582394,-11.370719,64.941559
3990000000,-10.114363,-155.37701,-67.045395,103.52642,-60.206909,113.40895,-22.218901,-39.2328
3995000000,-2.9409602,-45.052959,-62.586941,67.52063,-62.662857,29.046671,-13.013462,85.372856
4000000000,-11.62475,-81.375595,-60.020576,-82.730515,-64.487312,-85.860977,-17.69702,10.295845
END

