!CSV A.01.01
!Keysight Technologies,N5247A,US56070710,A.10.64.09
!Date: Friday, November 18, 2022 21:50:43
!Source: Standard

BEGIN CH1_DATA
Freq(Hz),S33(DB),S33(DEG),S34(DB),S34(DEG),S43(DB),S43(DEG),S44(DB),S44(DEG)
3000000000,-3.3285334,-74.644348,-72.172028,163.87294,-72.770103,164.07457,-15.276611,-131.11983
3005000000,-6.5286722,-93.580055,-77.564529,82.033562,-77.76651,79.81424,-17.445368,-145.89992
3010000000,-6.1935616,-67.069382,-71.57061,-31.939457,-72.99205,-28.732092,-14.865126,-152.66125
3015000000,-4.0244956,-92.733063,-75.018379,-131.66708,-74.764648,-128.5424,-15.81139,-139.74113
3020000000,-8.0129566,-69.45208,-74.663406,133.81668,-76.434143,139.56349,-16.8281,-156.11284
3025000000,-4.0386271,-82.543243,-78.757141,35.773628,-76.904037,7.9477882,-13.87809,-154.15286
3030000000,-6.6135898,-92.500984,-77.651741,-93.645576,-76.775101,-94.535957,-16.338682,-145.85519
3035000000,-5.3408403,-70.303413,-76.565903,176.37126,-77.98494,152.72742,-14.476687,-167.88849
3040000000,-4.8142138,-100.48191,-75.395164,54.20422,-77.695953,54.329021,-15.097808,-157.32765
3045000000,-7.1344671,-67.362755,-73.037399,-63.760883,-73.235275,-68.522568,-16.457205,-167.18402
3050000000,-3.7271974,-86.705284,-79.501472,179.93402,-79.309082,156.00983,-14.557321,-178.35698
3055000000,-7.8255558,-100.86357,-74.688805,109.04814,-75.608032,102.53545,-14.811174,-157.25067
3060000000,-4.2598014,-70.106255,-74.325653,7.4938464,-73.029068,8.1258287,-15.57299,173.93069
3065000000,-5.6398473,-109.97746,-74.231522,-109.28395,-72.515991,-114.57354,-14.273282,-168.80127
3070000000,-5.8133731,-69.608238,-74.62455,161.83275,-75.051781,160.25394,-15.646933,-178.33434
3075000000,-4.2020202,-94.757896,-76.941147,40.900013,-77.088356,22.272509,-16.661362,172.94975
3080000000,-9.9376307,-91.482025,-81.972321,-35.520596,-81.081764,-34.24931,-14.110766,179.30042
3085000000,-2.7777476,-83.84272,-78.26664,-134.04449,-76.940498,-154.78331,-18.748922,178.80415
3090000000,-8.9111538,-112.05854,-75.379974,111.87768,-76.718651,111.56399,-14.110131,166.15376
3095000000,-4.695879,-76.611771,-75.445633,5.4540653,-74.808685,-7.0962877,-16.052349,-179.15689
3100000000,-5.0797744,-103.24884,-75.214828,-138.24292,-76.102646,-135.36011,-16.354548,161.80983
3105000000,-8.8140306,-79.448822,-74.216232,131.68805,-73.399155,133.66957,-15.168695,168.00743
3110000000,-3.4610524,-96.013489,-78.550407,58.54446,-78.726524,48.058254,-17.020317,170.68417
3115000000,-8.881505,-95.91626,-74.444466,-76.458138,-75.301796,-72.913696,-17.298487,160.11095
3120000000,-5.7124195,-85.604179,-73.542786,177.2056,-74.560562,171.9563,-15.269982,164.15314
3125000000,-5.0721927,-108.40102,-72.927284,88.070702,-74.022987,88.204674,-17.731152,168.03767
3130000000,-8.3301544,-70.126656,-75.038315,-4.9843607,-74.984146,-15.321144,-16.038877,150.09512
3135000000,-3.7757797,-106.8615,-77.317711,-110.32568,-78.537766,-107.26875,-16.136618,165.16846
3140000000,-9.7298183,-99.584412,-74.979668,145.86905,-76.440582,136.80327,-19.362879,155.50224
3145000000,-4.6132979,-82.216537,-79.666679,35.946503,-80.402687,41.242832,-15.657123,149.02396
3150000000,-6.4543052,-127.95156,-74.253525,-74.9328,-72.895187,-80.641548,-17.552834,173.62279
3155000000,-6.474442,-70.374443,-79.019897,150.53081,-75.798523,146.61177,-18.176266,144.62872
3160000000,-4.5722313,-114.76778,-76.143272,72.013123,-74.468323,67.046608,-16.198372,153.93166
3165000000,-10.887238,-93.007896,-74.810402,-12.674618,-76.052757,-18.202417,-18.84985,160.75082
3170000000,-4.269475,-95.220856,-74.946884,-129.70929,-75.313187,-132.3037,-17.856724,137.40562
3175000000,-9.7933578,-128.16266,-75.034531,136.58403,-75.623802,144.5372,-16.732698,160.58168
3180000000,-5.0817661,-83.29438,-76.215652,20.899107,-75.665039,21.825798,-18.916098,152.08685
3185000000,-7.3129096,-125.27209,-75.424614,-96.793976,-75.947792,-103.29554,-17.716408,150.51164
3190000000,-9.3771763,-84.421158,-73.836845,-168.60863,-73.238617,-173.23096,-16.293007,158.93813
3195000000,-4.3820767,-109.02714,-76.55146,79.516235,-77.561829,85.486412,-23.086594,152.26437
3200000000,-13.648946,-115.19164,-76.687027,-18.598181,-77.808472,-33.811745,-15.374455,137.80827
3205000000,-5.8138866,-98.378395,-72.254982,-152.31569,-73.170647,-137.93832,-20.05547,179.90233
3210000000,-8.0192204,-120.87536,-75.73439,132.77707,-77.352234,129.22401,-17.348257,128.45708
3215000000,-9.5752649,-86.463562,-74.914795,27.426672,-74.860603,13.097346,-17.283682,157.80798
3220000000,-5.552639,-120.10325,-73.322411,-98.314781,-73.570572,-93.480103,-18.018946,151.27963
3225000000,-14.013739,-103.14203,-73.008171,162.32097,-71.443817,164.02135,-19.01812,134.35983
3230000000,-5.8824649,-100.54635,-72.837952,55.384132,-72.633423,61.169666,-15.449101,156.90926
3235000000,-9.3765564,-142.118,-75.261871,-31.872316,-74.929939,-32.940952,-24.143665,141.90086
3240000000,-7.9392023,-71.104713,-73.759377,-135.19017,-74.207832,-143.03217,-15.452936,143.7045
3245000000,-4.8624334,-140.43257,-73.131561,109.57967,-73.341766,109.35629,-18.814138,159.78609
3250000000,-15.492857,-63.351753,-76.119453,-7.5244856,-75.442314,-7.2143526,-19.219505,139.95236
3255000000,-5.5422678,-110.84547,-74.438423,-127.27888,-73.189102,-123.86603,-15.894982,136.08263
3260000000,-13.77619,-150.96448,-74.261337,126.94741,-76.845154,115.04668,-18.270674,162.50121
3265000000,-6.3794127,-90.267067,-73.129387,25.701859,-73.737694,23.386734,-17.629791,124.63914
3270000000,-9.3650951,-160.14789,-71.827988,-81.954758,-72.426369,-77.820366,-16.18462,156.06026
3275000000,-9.8357487,-72.26783,-74.32267,-168.16162,-72.76606,-176.24614,-19.750898,140.05392
3280000000,-6.584353,-131.37126,-71.49604,94.320427,-73.140221,90.680382,-16.192316,133.84683
3285000000,-24.44359,-118.7725,-75.845207,-0.93515611,-74.710274,-10.482108,-16.543852,145.01285
3290000000,-6.3484268,-99.63781,-75.937103,-130.98508,-74.418694,-122.89535,-19.674643,132.87556
3295000000,-12.106166,-168.72438,-76.311485,164.82744,-76.480843,164.32721,-15.295528,128.76102
3300000000,-11.147502,-76.525002,-77.446579,46.713631,-75.599998,53.778591,-18.090714,148.13312
3305000000,-7.7341342,-131.56352,-74.691025,-82.579002,-74.831352,-85.14901,-16.999662,127.82315
3310000000,-44.211422,60.000404,-74.240311,156.09735,-73.874001,160.82478,-16.171938,131.16698
3315000000,-6.9263124,-108.87355,-72.193047,63.376759,-71.370193,64.189796,-17.160833,144.63741
3320000000,-18.061653,-177.46115,-70.328453,-41.338108,-71.185928,-36.410763,-16.603237,103.12955
3325000000,-11.219531,-79.818512,-72.435478,-130.53087,-71.019241,-130.91411,-15.763101,144.66286
3330000000,-8.0696316,-152.18109,-72.556961,121.62411,-72.403923,128.50447,-17.211432,107.04755
3335000000,-13.976841,-1.9679211,-70.1054,22.96884,-69.380569,25.311268,-17.147985,133.34039
3340000000,-6.8699355,-125.27198,-71.101273,-76.244812,-71.981277,-84.333046,-14.660404,117.07948
3345000000,-21.594233,107.59945,-71.425262,-165.3889,-71.619255,-172.76161,-21.168875,137.38443
3350000000,-9.497777,-90.151207,-71.948708,67.049026,-72.780746,63.751457,-13.374231,106.59478
3355000000,-11.432648,173.70122,-77.110916,-34.888893,-76.673088,-28.846806,-20.516165,138.87318
3360000000,-10.87737,-47.275482,-72.636063,-136.70853,-72.294327,-135.10471,-16.029932,101.9906
3365000000,-10.779511,-149.96658,-73.387573,92.448669,-73.78067,94.166649,-17.658571,111.56175
3370000000,-22.574781,-18.908905,-73.669914,-2.8255539,-73.814224,-10.359671,-16.556517,116.52486
3375000000,-10.833069,-98.635704,-71.262871,-117.69454,-71.156944,-124.67971,-17.570623,88.794807
3380000000,-15.717932,131.6541,-72.205673,142.75009,-71.285522,136.94333,-14.963512,118.71304
3385000000,-11.374894,-72.188629,-69.774185,31.762211,-69.658089,28.233509,-20.933466,85.680939
3390000000,-15.893175,-144.68539,-70.81871,-70.068115,-70.341805,-71.073669,-15.842372,97.826515
3395000000,-20.451414,9.5249777,-70.22451,-158.48555,-69.95089,-158.24509,-18.892471,109.60578
3400000000,-10.155616,-103.08538,-69.628822,100.9263,-71.26532,93.075592,-19.931307,95.305672
3405000000,-17.600922,77.136612,-71.703079,-14.903565,-72.604622,-4.9580717,-15.973975,84.599686
3410000000,-11.93004,-71.604736,-73.319664,-108.27493,-73.702911,-111.35984,-19.994123,115.60211
3415000000,-18.758326,-174.3622,-72.652603,140.82156,-73.893089,141.46661,-17.359653,69.644661
3420000000,-12.188286,-14.178897,-73.795433,24.332817,-72.530243,17.221073,-18.09461,102.30025
3425000000,-11.065965,-130.07617,-74.063828,-90.932144,-74.390213,-86.86483,-21.378803,83.597702
3430000000,-11.738034,25.221922,-71.659561,172.21803,-71.756233,171.98537,-19.604021,74.007957
3435000000,-10.948377,-89.6138,-71.232994,65.02906,-71.24147,62.196003,-17.178455,104.72089
3440000000,-16.715822,103.33614,-70.942635,-29.713905,-70.918159,-36.851849,-24.629202,34.983051
3445000000,-7.6946764,-35.922375,-72.092018,-140.73204,-71.458588,-140.63438,-16.406286,83.780075
3450000000,-13.857074,-178.28717,-72.549438,112.10471,-72.0224,105.86751,-25.444839,83.956924
3455000000,-10.066756,-10.555017,-71.952095,10.372927,-71.953308,6.7781596,-21.388788,70.440567
3460000000,-15.011724,-96.999222,-72.672562,-88.052139,-71.20977,-90.664886,-19.332027,68.737061
3465000000,-13.541773,41.71056,-69.741035,168.01933,-70.693283,170.49243,-22.090498,135.48311
3470000000,-9.2348728,-60.644859,-72.42482,60.749252,-74.247757,62.929039,-18.303411,36.746979
3475000000,-21.421551,111.16566,-72.220322,-37.421955,-71.94796,-38.58836,-19.940441,124.03562
3480000000,-9.8050489,-23.981201,-72.387833,-130.27354,-71.029137,-134.33827,-23.715258,18.229551
3485000000,-17.844864,-87.569473,-75.501266,125.80148,-78.081299,117.18516,-21.7467,79.165649
3490000000,-13.653487,31.382526,-72.800262,12.927058,-73.293404,7.7929916,-22.341845,95.686172
3495000000,-8.5825739,-55.975815,-74.308571,-111.04187,-75.451797,-100.41241,-32.03207,-19.587852
3500000000,-20.627066,85.028793,-73.986465,153.71149,-73.703468,160.45811,-16.842934,82.267487
3505000000,-9.3207092,-26.930367,-71.496193,44.988625,-72.43045,43.492554,-30.994968,-173.35687
3510000000,-16.548992,-114.34454,-71.20974,-66.816261,-70.702232,-62.599934,-21.974619,63.744106
3515000000,-7.4233632,13.630586,-70.59713,-173.09744,-70.08905,-170.67314,-26.677479,105.75634
3520000000,-8.4798574,-92.911751,-69.808197,98.945816,-69.615654,96.664803,-28.367031,122.07735
3525000000,-11.327546,48.216461,-68.640488,-0.85960728,-68.323303,-4.713697,-23.760406,36.94677
3530000000,-6.9756355,-46.169052,-70.509834,-97.895226,-69.840599,-100.51967,-19.123337,121.45489
3535000000,-24.354305,167.58969,-72.011902,156.39775,-72.39859,150.57767,-35.556019,-11.471585
3540000000,-6.7092772,-16.217684,-72.371391,69.430061,-72.815544,64.440758,-20.107285,85.333435
3545000000,-16.104507,-110.4482,-72.694504,-42.231331,-72.833923,-28.589827,-25.835878,156.08084
3550000000,-8.3691769,0.18610656,-74.145767,-148.2289,-71.968262,-150.9274,-29.355986,84.788521
3555000000,-10.352673,-62.997658,-72.306984,99.997887,-73.560791,103.93439,-23.216198,93.572044
3560000000,-19.653933,32.998775,-72.060211,-7.1354661,-73.281876,-9.5576162,-24.265816,151.03799
3565000000,-7.4271631,-32.476009,-69.666496,-121.58997,-69.330582,-119.84869,-25.116638,54.335197
3570000000,-20.304935,-58.541183,-69.859695,129.0766,-69.188911,132.90108,-22.100502,112.92221
3575000000,-9.6832266,-11.605415,-68.966515,43.76543,-68.987633,38.284054,-27.011652,112.57318
3580000000,-9.8132715,-62.636471,-66.607925,-65.923508,-66.853783,-64.927597,-29.793983,74.809525
3585000000,-13.285872,27.183075,-66.774376,-174.06227,-66.553383,-172.37236,-17.883415,113.14558
3590000000,-7.5405598,-48.149326,-65.692802,86.348991,-65.838196,81.907127,-28.832457,-101.49636
3595000000,-22.560081,-21.316511,-67.543388,-15.256336,-67.075989,-19.148329,-17.652044,84.970886
3600000000,-7.6560068,-9.7932415,-67.803169,-122.18517,-67.437897,-123.5511,-26.803892,151.98415
3605000000,-9.0407839,-82.695351,-65.89859,127.99403,-67.363312,126.74503,-26.46777,87.974625
3610000000,-9.0897083,26.368324,-67.295624,13.501082,-68.86026,15.537591,-22.227745,66.624359
3615000000,-7.3450503,-64.139412,-68.236923,-93.320267,-67.096527,-95.217422,-20.215914,143.02782
3620000000,-17.136007,36.116196,-66.454514,149.68268,-67.028206,146.35211,-22.293375,30.305817
3625000000,-4.9424462,-28.034184,-65.452736,47.330166,-66.125801,47.623486,-18.002218,115.55007
3630000000,-15.427421,-128.22116,-66.095741,-60.155266,-66.204239,-61.683399,-43.862068,130.97943
3635000000,-6.2317352,-7.2424345,-65.202698,-164.85387,-65.453789,-168.52136,-21.679422,67.278679
3640000000,-11.531577,-70.24839,-65.950302,91.886169,-66.021774,86.213676,-20.909447,119.40354
3645000000,-11.614742,11.971175,-66.634865,-14.929118,-66.172852,-13.852356,-36.133591,-64.489326
3650000000,-6.3787284,-45.880505,-67.897598,-124.16156,-67.652901,-125.72439,-18.859634,77.586494
3655000000,-24.312508,-13.063022,-69.201172,126.20601,-69.512566,129.37733,-28.360456,138.62172
3660000000,-7.2310328,-23.697252,-68.508156,25.682915,-69.217644,22.841776,-25.196711,58.60693
3665000000,-12.983925,-52.48143,-68.285416,-93.962448,-67.88176,-91.869919,-23.73983,73.132858
3670000000,-11.193453,-0.083355308,-68.792458,167.26852,-68.992065,166.67331,-22.731741,133.04822
3675000000,-6.5625424,-47.562485,-69.122421,65.792305,-68.949699,62.150242,-23.960724,-1.7820103
3680000000,-20.104898,28.836363,-67.164749,-41.226341,-68.030762,-36.982571,-18.289894,114.84402
3685000000,-5.8734279,-27.06205,-68.412994,-140.32829,-68.354309,-142.39639,-27.395391,-73.135826
3690000000,-14.496581,-74.066048,-68.640961,121.11559,-68.493156,113.44473,-21.213518,62.306122
3695000000,-7.2890487,7.3136635,-67.338379,8.4596272,-67.679344,9.7012691,-28.431126,104.90438
3700000000,-7.315506,-71.002838,-69.563347,-91.654945,-69.46965,-94.696465,-38.866459,-146.5657
3705000000,-10.544714,28.164927,-70.198441,158.35233,-69.630417,164.98047,-20.532923,49.870052
3710000000,-5.5377369,-43.85051,-70.111412,50.000832,-70.226044,57.003254,-22.003204,165.40201
3715000000,-24.515642,-38.642139,-70.359238,-51.548485,-70.172867,-55.985043,-23.373278,13.150681
3720000000,-5.0698442,-13.73904,-72.949577,-168.47218,-72.208855,-166.72188,-22.432257,124.43474
3725000000,-13.383227,-88.505836,-71.093376,89.157143,-71.302628,91.336105,-45.647449,-131.49628
3730000000,-5.4141827,1.4775679,-72.022186,-12.759023,-72.024963,-14.982308,-30.820505,-6.709887
3735000000,-8.1469212,-66.097076,-70.487892,-110.54435,-69.884186,-105.86322,-19.976578,110.3452
3740000000,-13.85218,18.01897,-69.338371,152.60219,-70.270729,151.63222,-24.171724,-115.35654
3745000000,-4.7619996,-26.355835,-71.407112,37.635128,-71.513771,47.030823,-22.417927,71.959961
3750000000,-15.903572,-58.941673,-71.017868,-56.942112,-71.057983,-59.998089,-26.422493,164.944
3755000000,-7.1699848,-9.2385244,-69.963669,-149.09857,-69.840813,-150.48593,-33.67598,178.96028
3760000000,-7.9150362,-47.549541,-70.358658,100.88985,-70.32505,93.928909,-26.044556,62.499134
3765000000,-12.248035,3.7646253,-71.406151,-13.74235,-70.751678,-16.621828,-20.067888,-179.36206
3770000000,-5.7103839,-32.991467,-72.542816,-130.86182,-72.107895,-125.98528,-26.681145,1.2382873
3775000000,-13.802244,-28.38361,-69.13382,125.9376,-70.033218,130.30884,-20.775051,126.12093
3780000000,-6.0840402,-12.340511,-71.367706,16.098244,-72.0467,27.129608,-26.421644,-174.52258
3785000000,-8.4892912,-64.218697,-71.616379,-67.421585,-72.290199,-67.137047,-31.682249,31.883492
3790000000,-7.1266627,18.568163,-73.005379,-176.6947,-71.017319,-171.14989,-18.37138,126.87051
3795000000,-4.3394499,-55.680626,-73.547256,71.13401,-72.822632,73.853035,-23.2938,-130.76347
3800000000,-11.997452,21.268648,-72.366501,-22.637877,-71.13591,-27.997814,-22.075333,92.241333
3805000000,-4.419271,-30.169247,-72.500961,-120.93997,-70.046852,-133.17943,-21.234558,163.45638
3810000000,-14.450868,-57.719826,-73.1437,114.68359,-74.357552,126.83939,-30.456837,114.90203
3815000000,-3.4696233,-7.3591762,-70.374794,14.921827,-70.253876,16.324337,-24.795998,112.48445
3820000000,-8.1038313,-72.103294,-71.381828,-93.955811,-71.796967,-94.314957,-19.488415,147.04617
3825000000,-7.0926018,7.3615499,-70.195152,-177.10762,-70.268143,176.48402,-36.874344,-26.207825
3830000000,-4.5666637,-38.372265,-74.674828,69.534523,-75.632683,61.588676,-15.238465,118.00304
3835000000,-13.885536,-17.015034,-73.781204,-43.477856,-73.233398,-29.984972,-20.634974,-150.04117
3840000000,-3.5909536,-26.092985,-74.839142,-132.20909,-72.613022,-134.30139,-21.233072,94.930733
3845000000,-11.281404,-52.07687,-75.9291,114.92249,-75.586166,119.03066,-22.363056,120.90372
3850000000,-5.6954837,-7.8872261,-75.50531,23.362335,-74.007721,35.245182,-21.457722,168.63408
3855000000,-4.6303024,-45.955475,-74.622841,-81.877655,-73.052292,-84.83181,-20.459818,56.015846
3860000000,-11.688678,4.4548726,-72.626396,172.07919,-73.372696,161.07639,-16.243704,147.89909
3865000000,-2.81022,-33.907825,-74.219727,63.52005,-74.206779,75.042374,-26.57366,46.941921
3870000000,-11.249389,-50.482979,-73.093498,-53.88401,-73.939796,-51.784954,-18.133854,119.17014
3875000000,-4.5977645,-7.4636178,-74.620789,-149.68498,-73.224396,-157.41441,-20.309425,124.78239
3880000000,-4.8459706,-59.19846,-74.137985,94.358185,-74.648956,101.2783,-35.032669,107.02483
3885000000,-6.9234443,9.4881296,-76.084724,0.20898996,-75.44455,1.5558466,-16.332405,98.675217
3890000000,-2.3787775,-49.022457,-75.94986,-86.990196,-74.416901,-105.61266,-21.352943,-179.67526
3895000000,-16.720814,-27.395903,-73.711494,170.25552,-73.684082,162.62852,-19.026024,56.833004
3900000000,-1.3323863,-19.118044,-75.503304,60.274117,-74.31842,69.745583,-16.87422,118.7066
3905000000,-7.2602839,-78.323654,-74.039825,-25.400253,-76.284378,-36.125122,-31.109253,145.41537
3910000000,-3.3799138,1.1792085,-76.477348,-138.47217,-74.2593,-138.81599,-17.058453,70.502296
3915000000,-3.4095845,-62.890759,-75.548637,112.3232,-73.889465,101.74303,-18.266665,136.3349
3920000000,-9.1051254,-0.46066546,-73.74379,0.41106936,-75.059578,4.8932023,-26.089821,38.659161
3925000000,-1.8395888,-34.410515,-74.646851,-96.077171,-73.608025,-103.95387,-17.193003,95.852707
3930000000,-10.106787,-61.864864,-74.198715,154.24863,-74.136353,167.13239,-22.92363,126.87862
3935000000,-3.2936547,-20.637283,-72.865631,51.395672,-73.236855,53.155663,-23.754141,37.250683
3940000000,-4.8592811,-48.785336,-72.603096,-55.397053,-73.893303,-64.460167,-15.928639,87.410439
3945000000,-8.3387451,-19.994053,-73.104584,-156.66731,-73.082314,-157.00146,-27.863962,170.47975
3950000000,-1.4479722,-40.5536,-74.437126,97.030579,-72.970482,91.31147,-16.330622,52.16367
3955000000,-12.213788,-64.905266,-75.241806,-7.4084587,-73.969604,-11.498316,-18.641918,134.52637
3960000000,-2.2115965,-17.846735,-74.826881,-107.67126,-72.786095,-120.00391,-23.594543,35.906506
3965000000,-3.7634664,-64.908592,-75.080559,132.02455,-74.016975,142.95631,-19.125694,80.740891
3970000000,-6.7698011,-9.5157099,-75.517311,43.276043,-75.739426,38.619389,-23.200956,108.94782
3975000000,-1.3478425,-54.464775,-76.264847,-66.259613,-73.919426,-68.285019,-25.029936,8.449398
3980000000,-13.754616,-12.353137,-73.073906,-178.37659,-73.43486,-178.38567,-16.896935,77.705727
3985000000,-0.74313784,-33.509502,-72.31263,69.63623,-72.203796,82.436195,-31.557049,139.94411
3990000000,-5.9755759,-76.46608,-75.922447,-20.22999,-74.158234,-24.545246,-21.780476,43.12365
3995000000,-3.5735617,-14.006455,-73.987778,-126.52841,-74.459572,-129.16191,-19.099985,80.93084
4000000000,-3.4386916,-68.801605,-74.207222,113.06483,-74.92453,108.54086,-36.344715,-177.66058
END

