!CSV A.01.01
!Keysight Technologies,N5247A,US56070710,A.10.64.09
!Date: Friday, November 18, 2022 21:32:06
!Source: Standard

BEGIN CH1_DATA
Freq(Hz),S33(DB),S33(DEG),S34(DB),S34(DEG),S43(DB),S43(DEG),S44(DB),S44(DEG)
3000000000,-2.8403955,-73.852417,-82.689194,125.93428,-81.034088,112.86443,-14.830894,-126.66704
3005000000,-5.3717952,-88.959976,-85.397614,-61.516132,-83.465263,-59.968426,-17.5515,-143.06827
3010000000,-5.0728097,-69.858887,-81.057205,-174.51068,-82.351776,-168.88531,-14.842707,-149.0872
3015000000,-3.2345319,-87.274254,-77.839813,129.94084,-76.029007,115.97133,-15.425942,-136.44673
3020000000,-6.7825832,-72.012184,-72.098152,12.867955,-71.615334,20.531996,-17.328873,-152.47528
3025000000,-3.1091893,-78.8162,-76.98082,-64.386787,-75.789665,-74.752678,-13.442305,-151.58385
3030000000,-5.2431798,-89.688362,-77.925964,-82.007729,-76.543571,-81.152794,-16.494635,-141.0192
3035000000,-4.5598845,-67.653633,-97.382858,-124.44863,-89.523201,130.61824,-14.354733,-164.6407
3040000000,-3.7889261,-95.946632,-81.048409,-32.759853,-79.471794,-64.202927,-14.823804,-155.22639
3045000000,-5.8417544,-66.955864,-77.973015,-143.72719,-80.094086,-155.97916,-16.46731,-159.63448
3050000000,-2.9287357,-83.697723,-76.192909,123.46675,-76.262535,122.72845,-14.46917,-177.26953
3055000000,-6.845108,-94.972702,-73.252739,5.9746385,-72.797379,8.589819,-14.520884,-151.7197
3060000000,-3.1671233,-70.263916,-84.393814,-9.9175386,-80.263969,-31.531193,-15.806434,176.58391
3065000000,-5.0263205,-103.53773,-78.77021,-170.57208,-76.699203,-156.75093,-14.091587,-166.62862
3070000000,-4.5587111,-68.683571,-76.832191,-52.45961,-79.146629,-58.410999,-15.508039,-172.86507
3075000000,-3.6378574,-92.724007,-83.30999,-8.1218748,-83.560501,-12.300027,-16.77907,174.95502
3080000000,-7.5756235,-84.026535,-76.385704,-157.23802,-73.81237,-166.49071,-13.780397,-177.16161
3085000000,-2.4800918,-82.728981,-92.282661,153.44524,-81.838539,164.94127,-18.787779,-173.98805
3090000000,-6.9762983,-99.631256,-74.451164,41.078789,-75.428085,35.779106,-14.12683,168.04327
3095000000,-4.1287422,-75.963669,-78.509949,-110.0939,-77.189957,-112.7914,-15.711413,-174.04135
3100000000,-4.1967473,-96.685257,-79.184776,-165.0728,-78.797523,-158.56618,-16.640152,165.66316
3105000000,-7.0368247,-78.734848,-79.841125,28.629108,-76.769012,35.924107,-15.071071,169.43379
3110000000,-3.0191901,-91.792366,-95.571495,154.36203,-83.8228,-169.33,-16.538807,177.35275
3115000000,-6.7762394,-93.499519,-75.998871,-113.02194,-75.468391,-100.32339,-17.836073,160.83571
3120000000,-4.7291341,-79.554611,-78.927238,117.1386,-78.969383,101.12613,-14.595579,169.21324
3125000000,-4.1348228,-103.99174,-77.461273,25.49822,-79.365593,22.620199,-18.23086,172.83733
3130000000,-6.9511194,-70.136078,-73.409531,-104.64311,-71.750946,-111.58701,-15.987906,154.61887
3135000000,-2.8644032,-101.37877,-81.158005,168.1956,-82.924255,166.12076,-15.913935,167.29187
3140000000,-8.4795771,-92.533806,-79.959473,64.360992,-85.614326,49.343853,-19.853359,164.92722
3145000000,-3.4752002,-82.207832,-76.741425,-107.75603,-80.713341,-108.35031,-15.380487,148.94525
3150000000,-5.8403287,-117.75476,-80.371498,-165.37708,-81.357216,-174.43947,-17.357403,-179.02689
3155000000,-5.0267472,-71.60495,-77.766579,68.820732,-79.200432,58.824986,-18.045681,147.14967
3160000000,-4.0596161,-109.11769,-77.069267,-8.9247627,-77.632286,-9.0550261,-16.192839,156.70274
3165000000,-8.2989807,-86.283501,-75.524986,-73.830688,-75.712051,-68.267746,-18.251953,169.18335
3170000000,-3.4847093,-93.559639,-77.97229,-177.46867,-76.049072,171.7473,-18.49679,136.61098
3175000000,-8.3960047,-111.96921,-76.520546,93.292564,-77.845818,93.329193,-15.98146,165.24063
3180000000,-4.1635575,-83.630005,-81.595482,-33.950619,-82.043243,-24.126837,-19.879683,156.72169
3185000000,-6.3636508,-113.68475,-75.372383,120.42413,-77.830391,114.8699,-17.416162,152.45544
3190000000,-7.2295833,-85.694595,-77.333328,48.130993,-76.761383,59.212948,-16.188326,162.42323
3195000000,-3.8290007,-100.95654,-73.455299,-39.303162,-74.263466,-32.905827,-22.838217,158.989
3200000000,-10.195399,-108.5798,-73.404518,-101.30048,-73.34523,-92.228447,-15.46574,139.91434
3205000000,-4.5647111,-91.687019,-77.445335,-153.49815,-78.236313,-167.98183,-19.00794,-175.89589
3210000000,-6.7815084,-110.97223,-80.284523,83.649841,-81.479271,108.06907,-18.127558,129.71606
3215000000,-7.9515715,-84.696266,-84.375946,-126.28976,-80.362206,-136.86566,-16.551149,160.85571
3220000000,-4.373014,-110.90557,-89.213669,115.76881,-88.195526,58.121529,-18.545048,157.66945
3225000000,-11.651473,-95.321053,-78.333473,78.554207,-79.520828,77.728493,-19.000553,137.84955
3230000000,-4.3827548,-96.708595,-76.92997,-55.095779,-80.194649,-84.191544,-15.298161,157.76842
3235000000,-8.7389078,-129.24504,-84.604202,-121.29262,-85.015739,-129.10599,-24.305521,160.59854
3240000000,-5.9267383,-73.905838,-77.746979,132.07463,-79.017433,136.8712,-15.372185,142.20155
3245000000,-4.5840597,-132.19859,-79.198509,-44.493965,-78.621887,-39.229824,-18.208212,168.80542
3250000000,-11.095526,-68.988792,-86.670052,86.588402,-96.60714,139.60716,-19.427988,142.15082
3255000000,-4.657764,-108.08669,-77.068443,162.69916,-74.288513,172.33978,-16.004349,139.99242
3260000000,-11.668658,-121.60032,-82.988014,-2.493741,-80.677597,-0.049368646,-17.598433,167.00569
3265000000,-5.3776064,-89.692093,-85.635681,24.813917,-85.497375,-2.2652919,-18.657106,124.82952
3270000000,-8.9888124,-141.62999,-85.631119,-166.00371,-84.752335,173.45831,-15.383171,157.46271
3275000000,-7.7627406,-78.526772,-77.415451,31.755899,-78.180237,45.351524,-20.261812,149.32115
3280000000,-6.0966582,-120.56448,-81.186867,-77.003403,-81.311378,-76.349983,-16.204908,134.93143
3285000000,-15.323215,-110.54264,-76.293831,-131.65997,-76.778893,-114.54678,-16.143181,149.92839
3290000000,-5.0970349,-95.622673,-81.696426,149.99622,-80.757942,157.74673,-20.159079,140.87856
3295000000,-11.237951,-140.0211,-78.531578,40.169312,-77.907761,25.713932,-15.196415,129.3736
3300000000,-9.562808,-78.809593,-80.923508,-119.03072,-82.317223,-135.82904,-17.653154,155.89627
3305000000,-6.0601659,-121.17418,-86.289604,105.79291,-99.869232,144.52428,-17.719711,129.98721
3310000000,-21.827293,-82.412758,-78.630898,20.366871,-83.063934,36.036549,-15.51966,133.21526
3315000000,-5.5451102,-103.08105,-80.82711,-51.403538,-83.433022,-36.033813,-17.283968,151.41243
3320000000,-15.462192,-145.88121,-88.379044,-127.83662,-91.185303,-153.74007,-16.810015,105.72557
3325000000,-8.019268,-82.846344,-79.551628,101.91952,-81.429214,98.780289,-15.16373,146.52307
3330000000,-7.6131468,-141.66161,-84.002533,-79.776321,-81.628899,-89.342224,-18.201607,114.76604
3335000000,-12.272603,-36.551319,-89.957947,-167.7861,-83.466583,-167.73779,-17.14521,130.64172
3340000000,-6.0105023,-118.59722,-79.866753,141.12952,-80.438217,145.03697,-14.627633,125.77309
3345000000,-26.051624,-98.747162,-78.549652,-4.0573392,-80.127365,-15.694238,-21.575401,135.03664
3350000000,-7.9356766,-89.686897,-81.149597,-53.968445,-84.421341,-44.965691,-13.442745,109.69733
3355000000,-12.442698,-163.44815,-77.407501,-172.30331,-77.103798,-166.89487,-19.535099,145.45023
3360000000,-9.407445,-63.512489,-84.819489,72.240761,-84.222336,69.080353,-16.441311,102.76954
3365000000,-10.325114,-131.38017,-81.759491,-14.973207,-80.797981,-19.900169,-16.794182,116.42627
3370000000,-17.853548,-66.816162,-76.39299,-161.81299,-76.532913,-173.58739,-17.348904,124.53616
3375000000,-9.2331867,-97.148155,-73.742332,54.30484,-73.920341,55.353329,-17.301012,91.196022
3380000000,-17.869858,-168.50644,-75.491417,-38.083576,-76.858566,-19.44578,-14.741315,121.4807
3385000000,-9.4434242,-68.866661,-86.439919,-98.257751,-84.21785,-82.569305,-22.261368,90.707329
3390000000,-12.240423,-126.56831,-90.722855,125.66797,-83.208466,163.776,-15.433836,99.626915
3395000000,-18.11186,-31.283937,-83.803185,-111.13284,-82.288864,-115.42683,-18.656567,116.6357
3400000000,-8.4620333,-100.50481,-91.483688,-120.19627,-88.670303,-110.20673,-20.598198,95.404526
3405000000,-26.764841,68.21582,-78.799896,132.64775,-77.107498,121.32301,-15.670446,89.852417
3410000000,-8.9890852,-77.455307,-78.212509,11.04145,-80.46225,39.476295,-19.828497,124.30016
3415000000,-16.798891,-147.76921,-77.747833,-64.05748,-78.578781,-63.72197,-17.413441,67.736847
3420000000,-10.805643,-32.249302,-82.877029,-170.38284,-82.625015,-139.61409,-17.727409,108.20509
3425000000,-9.4171476,-124.04227,-82.961594,70.249313,-86.812454,47.339336,-22.024958,90.627113
3430000000,-12.820769,3.4664543,-82.481209,-87.366501,-80.360229,-91.252228,-19.100969,71.419823
3435000000,-8.8557119,-94.849709,-83.076141,179.95833,-82.284523,169.59326,-16.940435,111.43814
3440000000,-27.937853,81.419479,-75.52536,109.67271,-75.104767,121.81474,-25.482105,37.160099
3445000000,-8.1514511,-47.167393,-75.757347,-10.236849,-77.508553,-18.256212,-16.138639,85.280388
3450000000,-13.656115,-143.84956,-81.9254,-61.90118,-83.559158,-69.227547,-25.671732,96.656921
3455000000,-10.396915,-23.929581,-83.52256,166.25349,-84.491501,145.30107,-22.553394,68.576096
3460000000,-11.979639,-98.800842,-75.512527,-34.510857,-78.490219,-27.018206,-18.380888,74.983658
3465000000,-17.635756,1.2973577,-94.781067,176.09541,-86.116699,158.48727,-22.98991,144.96799
3470000000,-8.1348867,-59.942589,-74.284393,168.78543,-74.060066,169.2829,-18.341022,39.158871
3475000000,-23.712114,-141.71092,-78.23381,20.748711,-79.878685,48.403877,-19.29493,124.35955
3480000000,-9.5862274,-32.711842,-78.086502,-17.734146,-75.744133,-21.520849,-24.991238,18.734882
3485000000,-12.248897,-88.473984,-82.83503,-169.57007,-78.020638,169.89125,-21.887815,75.887169
3490000000,-15.270024,17.625898,-80.649391,19.359423,-78.173782,46.465237,-21.561642,106.92854
3495000000,-6.9255009,-64.525764,-78.331665,-43.854488,-79.503639,-34.52103,-31.170959,-30.258926
3500000000,-32.217651,113.16282,-80.887383,-103.81008,-80.15377,-91.674576,-16.88014,81.465454
3505000000,-7.7908635,-39.786308,-76.612534,163.51874,-77.172478,167.7103,-27.234587,-172.71808
3510000000,-13.718427,-110.78037,-83.901054,51.964073,-79.889885,43.852943,-21.915236,57.617939
3515000000,-8.08076,-0.98649949,-76.919769,-63.437595,-77.013824,-47.845375,-25.255661,105.08044
3520000000,-7.3447866,-93.678925,-76.769554,147.59494,-74.921265,144.39549,-27.553255,143.55144
3525000000,-13.242399,23.4004,-77.959633,34.433681,-77.663818,19.317955,-23.500412,34.388279
3530000000,-6.6734185,-55.184719,-82.773048,-40.378403,-81.879959,-36.33535,-18.375824,123.8502
3535000000,-24.535114,-108.61436,-77.612198,-168.06824,-78.928314,-164.14392,-32.267353,-53.236382
3540000000,-7.0894551,-30.002703,-84.939514,83.874191,-83.139961,83.293648,-19.842764,86.869781
3545000000,-13.241282,-95.229843,-80.602417,22.399448,-82.196831,12.823866,-25.325708,152.47792
3550000000,-9.673851,-13.2917,-79.29232,-111.82896,-78.984108,-101.91248,-35.39032,96.006699
3555000000,-8.3234987,-64.612572,-87.055283,-72.974846,-93.354767,34.570293,-21.715773,89.042892
3560000000,-21.750689,-31.617369,-91.659752,43.948864,-89.372154,-54.103146,-22.381388,163.51953
3565000000,-7.2316093,-40.590427,-88.06237,-147.43883,-91.127502,-144.73677,-24.219269,42.973896
3570000000,-14.016993,-68.400177,-81.029762,166.71501,-86.071587,-169.27147,-21.11133,120.34148
3575000000,-10.19949,-18.68548,-81.628067,133.27287,-87.509323,121.47272,-27.623545,128.60541
3580000000,-7.4984736,-70.141678,-80.93586,25.329784,-79.440247,33.726589,-29.317245,57.838985
3585000000,-15.880543,17.769621,-81.339668,-114.82776,-80.590057,-100.23354,-17.540258,117.9847
3590000000,-5.8851967,-55.117065,-99.65757,108.47424,-97.412781,-34.422768,-27.497797,-102.01129
3595000000,-19.898994,-63.082657,-80.655807,50.29702,-80.250389,45.546021,-17.45175,84.362259
3600000000,-7.2057776,-22.081043,-84.345917,-93.976646,-82.602669,-87.41787,-24.866175,156.68776
3605000000,-7.8307943,-86.421494,-84.548302,-125.5765,-81.798859,-120.08419,-28.867506,88.44902
3610000000,-9.8369493,11.474834,-86.993896,166.47792,-85.719261,140.96419,-21.227495,72.124451
3615000000,-6.2483959,-70.399513,-96.446945,-32.476242,-89.820564,23.753275,-19.902935,151.98865
3620000000,-17.307659,6.7981405,-103.07187,42.277687,-90.779243,-85.970406,-22.248709,24.474529
3625000000,-5.1772385,-38.991669,-85.81321,93.660019,-87.132904,119.88843,-17.261974,117.38467
3630000000,-13.632007,-110.24646,-80.034157,44.745831,-79.537109,69.705521,-42.386848,-135.15559
3635000000,-6.8324413,-19.923306,-80.160004,-77.894432,-80.672516,-64.372749,-21.664742,68.557266
3640000000,-9.4452591,-72.60788,-82.197205,-151.44708,-78.347214,-142.23003,-20.504648,119.01311
3645000000,-12.304474,-14.596194,-86.186897,3.6403987,-88.905571,9.6385632,-33.609375,-107.66822
3650000000,-6.11026,-46.990982,-89.066109,87.769112,-92.924004,78.936028,-18.342522,71.288872
3655000000,-16.491488,-74.39669,-82.799461,-143.82668,-79.84037,-145.18459,-23.919392,155.97888
3660000000,-6.9096775,-27.445236,-103.65985,-6.2187543,-93.952698,146.89972,-24.814096,40.507839
3665000000,-10.43541,-65.111847,-76.169075,37.902992,-74.703453,23.324455,-22.986008,83.664505
3670000000,-11.839029,-12.003911,-76.238762,-91.377609,-75.913193,-93.851646,-23.089672,139.31024
3675000000,-5.4645519,-54.36227,-77.445763,159.61639,-78.08728,154.33133,-23.885847,-4.5042539
3680000000,-24.840719,-29.470556,-79.531555,64.451843,-79.652878,79.171623,-17.704573,112.68459
3685000000,-4.9982495,-32.680862,-81.145462,-129.8698,-84.824615,-104.60276,-25.9681,-89.784843
3690000000,-11.639915,-84.639458,-86.05394,167.74524,-85.075089,139.43877,-20.440996,59.673191
3695000000,-7.379395,-3.658433,-76.260597,63.568913,-78.584526,86.374428,-26.540804,122.51126
3700000000,-6.4713979,-76.161613,-85.422874,-45.569687,-104.90038,-115.49471,-34.473415,-109.07111
3705000000,-10.903083,12.846328,-78.871773,-87.161301,-78.282745,-88.135017,-20.337729,51.913002
3710000000,-5.0176868,-52.367584,-82.215614,65.195877,-89.237732,49.844707,-21.151033,164.99677
3715000000,-17.888519,-61.671925,-86.493576,59.99374,-92.937668,125.73783,-23.627556,-0.49930093
3720000000,-5.3776784,-21.216106,-80.25589,-78.735924,-78.741272,-72.730652,-21.391937,115.12099
3725000000,-11.088304,-83.2938,-85.601868,68.536484,-83.085274,123.8267,-32.043568,-144.04224
3730000000,-6.4756474,-11.151794,-90.262764,11.832494,-81.280861,15.673133,-28.106752,-1.6498703
3735000000,-7.0441966,-62.996483,-82.425804,-50.83242,-83.921623,-114.82969,-19.91485,115.32382
3740000000,-15.414512,-13.855483,-84.356148,-148.52557,-87.499649,-140.91054,-23.159328,-119.09496
3745000000,-4.7963696,-30.619543,-81.403694,16.527988,-83.687988,50.929783,-22.454945,61.047657
3750000000,-12.225702,-68.278755,-88.205002,61.997879,-87.583069,42.03817,-23.634623,161.15875
3755000000,-7.7264323,-17.790258,-89.029449,-116.60764,-84.014214,-171.15808,-32.504089,-127.48083
3760000000,-6.1561227,-53.262283,-77.746681,40.653534,-80.388199,31.626808,-24.465624,66.456665
3765000000,-14.7703,-6.7481933,-82.789894,-170.81081,-95.641273,-53.272903,-19.446548,-178.20741
3770000000,-4.2873635,-38.278435,-85.974266,-158.63908,-84.072418,-168.61943,-26.703314,-16.23947
3775000000,-14.092435,-52.608704,-84.445473,102.73533,-91.715546,77.986244,-20.06538,121.92306
3780000000,-5.6012783,-20.704393,-87.439049,3.1512041,-82.515923,12.76812,-23.970594,-162.55531
3785000000,-7.3013763,-70.793159,-89.338379,157.69331,-103.90195,-25.409239,-29.922745,19.193926
3790000000,-7.3402538,8.3369503,-95.799637,126.56985,-90.902115,-130.40005,-18.132042,129.56586
3795000000,-4.024826,-59.846519,-80.034569,-27.319189,-80.411385,-43.609425,-22.050875,-128.96902
3800000000,-12.83467,-3.1862209,-86.78833,168.16748,-80.090698,-172.3279,-22.508932,83.624123
3805000000,-4.2614894,-34.415825,-79.948486,147.80949,-84.823921,127.28727,-19.581045,161.58876
3810000000,-11.757892,-68.378616,-78.079361,26.575394,-77.524292,31.708878,-36.318645,165.14351
3815000000,-3.8004191,-14.080264,-86.334473,-132.4588,-88.992058,-88.208328,-23.299686,103.23788
3820000000,-6.9860163,-71.204315,-81.618057,-98.015373,-80.151871,-101.94394,-18.730633,158.77148
3825000000,-7.8108888,-9.6074438,-92.997887,-170.6839,-88.157166,121.47431,-33.658802,-29.917353
3830000000,-4.8235865,-39.959473,-79.592667,-93.673561,-82.337486,-98.892288,-15.596551,119.61731
3835000000,-11.051308,-46.730667,-83.966751,-175.43883,-85.11232,-119.08604,-19.948614,-153.7569
3840000000,-3.8015697,-26.503632,-78.751541,105.7449,-80.847031,134.31773,-23.060925,86.737213
3845000000,-8.0552797,-65.034355,-82.523338,-16.178766,-82.861404,-25.959908,-19.651184,124.13649
3850000000,-6.4863424,-10.763925,-81.730545,-94.67524,-82.192764,-99.694046,-21.888502,-172.61195
3855000000,-3.6722679,-49.799469,-79.741226,-171.54698,-79.692039,-163.97482,-19.858459,63.494553
3860000000,-12.182676,-21.923071,-79.461021,32.393082,-80.434662,23.299965,-16.134794,151.15776
3865000000,-2.693491,-34.642162,-94.033455,-66.380692,-87.77729,-133.77876,-31.97192,49.316559
3870000000,-9.0601559,-68.311783,-77.240952,-172.90775,-76.488052,-167.64922,-18.357613,110.84585
3875000000,-4.1726246,-12.363506,-79.06765,73.029251,-78.553825,57.845741,-19.015951,140.59038
3880000000,-4.1712322,-64.706024,-80.030914,-11.652398,-79.56292,-13.02671,-34.776855,37.090309
3885000000,-7.4728727,0.71928084,-80.007347,-158.35214,-82.075119,-155.47223,-15.806041,104.70398
3890000000,-1.899191,-53.690132,-75.713463,138.18639,-78.490044,135.46509,-21.064131,-174.8623
3895000000,-13.90019,-42.72702,-75.653069,10.358397,-77.075409,7.0782099,-19.53175,59.019379
3900000000,-1.8414373,-25.865164,-81.292496,-53.095047,-78.502472,-78.078499,-16.410194,119.68431
3905000000,-6.1103711,-74.095459,-87.461662,-156.03169,-85.104584,-144.63278,-28.173738,179.35625
3910000000,-4.3709555,-10.450884,-81.402756,26.161314,-80.564369,61.063271,-16.686295,66.883209
3915000000,-3.1009068,-61.935673,-84.07106,-28.639681,-83.984993,22.05468,-17.062708,142.24591
3920000000,-8.9731913,-22.303493,-82.475578,-138.43056,-80.647484,-148.45273,-26.337975,23.220272
3925000000,-2.0477648,-36.706741,-79.990776,83.342438,-77.638786,91.519585,-16.789385,97.492722
3930000000,-7.3272672,-67.308998,-75.890358,1.9531893,-77.008636,5.7666068,-21.606991,132.97543
3935000000,-4.1300697,-23.514664,-76.354919,-100.61074,-76.055824,-113.84192,-24.833921,26.192184
3940000000,-3.4167078,-54.717194,-82.547272,-176.81068,-82.649345,-162.23799,-14.963943,90.251297
3945000000,-9.0137749,-31.916866,-79.594902,75.560165,-79.07962,82.938667,-25.092018,-167.00945
3950000000,-0.94707751,-43.341946,-87.098709,166.25475,-90.40802,105.06908,-16.093557,52.080418
3955000000,-9.7974272,-77.268097,-83.205627,-154.16154,-82.496323,-162.77872,-18.399372,133.68248
3960000000,-2.3938651,-22.277191,-75.275696,63.734394,-77.079514,74.006142,-27.17745,46.192753
3965000000,-2.7736068,-69.290733,-82.429977,-48.496025,-83.475899,-33.306343,-18.690128,68.995056
3970000000,-6.834125,-15.60944,-73.140152,-83.402306,-72.338409,-82.480347,-20.363441,124.58913
3975000000,-0.92765254,-61.100529,-77.995605,135.93887,-81.251122,129.50165,-23.4807,-7.6645832
3980000000,-11.760951,-28.903362,-79.390778,109.02936,-78.789696,122.78124,-16.132633,81.967949
3985000000,-0.94893461,-38.661678,-77.675789,-44.36219,-77.651482,-55.745468,-29.271732,156.8963
3990000000,-4.9264283,-77.1035,-83.805977,163.79222,-83.532356,132.41318,-22.378353,35.779163
3995000000,-3.9971101,-23.885727,-89.447441,71.875595,-82.609421,39.25724,-17.8592,82.587646
4000000000,-2.9703836,-68.930763,-78.706268,-31.957579,-76.630791,-33.121014,-29.359831,-160.53745
END

