!CSV A.01.01
!Keysight Technologies,N5247A,US56070710,A.10.64.09
!Date: Sunday, November 20, 2022 00:06:01
!Source: Standard

BEGIN CH1_DATA
Freq(Hz),S33(DB),S33(DEG),S34(DB),S34(DEG),S43(DB),S43(DEG),S44(DB),S44(DEG)
3000000000,-11.411222,175.55197,-56.987408,177.94716,-57.045528,178.89403,-18.239847,-162.50478
3005000000,-12.16815,57.860256,-75.625587,-7.0141163,-73.446365,-22.226841,-17.362431,-155.4874
3010000000,-10.630783,101.90388,-54.607044,-110.12202,-54.572044,-110.30637,-15.540004,-169.64728
3015000000,-10.232449,164.68755,-52.877209,-166.49771,-52.812935,-166.04927,-15.882065,-155.95563
3020000000,-10.833004,28.377438,-55.906868,122.63199,-55.767639,122.46435,-16.464815,-177.52634
3025000000,-6.6564875,129.59332,-62.226048,-66.414917,-62.792934,-68.679924,-14.653868,-162.46742
3030000000,-26.082458,59.118622,-55.09024,-153.88657,-55.594547,-153.62546,-18.576765,177.40184
3035000000,-9.7767525,53.608818,-52.958393,111.91544,-52.932957,110.04169,-14.0668,-174.11491
3040000000,-6.6439629,136.04814,-52.721432,33.618256,-52.803707,32.508583,-18.384127,173.38889
3045000000,-18.513685,-25.85334,-61.225498,-25.230438,-61.201866,-25.01376,-15.689284,174.00253
3050000000,-7.5974631,82.665367,-62.130615,98.616592,-62.096413,100.39016,-14.342898,165.65282
3055000000,-8.1808834,125.06668,-53.210724,31.59301,-53.372929,31.451935,-16.163986,-176.06401
3060000000,-10.801845,-9.3998585,-53.384537,-39.414143,-53.629105,-40.198845,-14.862425,157.22975
3065000000,-4.9707737,103.37341,-56.754307,-111.02345,-56.623657,-110.47335,-15.696094,-176.12537
3070000000,-20.557234,178.83852,-58.862106,113.80173,-59.227196,115.55859,-16.865908,152.54218
3075000000,-9.2456884,56.206451,-59.349796,-2.4960809,-59.24535,-2.3466692,-16.228577,162.98759
3080000000,-4.6402278,99.302345,-58.415318,-94.894958,-58.26965,-96.810707,-16.45727,154.6487
3085000000,-14.40217,-100.23139,-56.486359,156.42064,-56.616379,155.04953,-17.000729,151.85358
3090000000,-4.5417681,68.927376,-56.977802,56.828537,-57.034588,54.574753,-13.918783,147.52498
3095000000,-13.112312,139.42125,-59.503227,-54.781578,-59.250618,-56.263844,-17.9095,168.84805
3100000000,-15.33234,76.310081,-55.968338,-170.85905,-56.308117,-172.6319,-14.590263,139.15253
3105000000,-5.2865109,61.708019,-54.913979,102.56086,-54.89571,101.94935,-16.875698,169.05719
3110000000,-9.0153131,147.91931,-56.1679,23.244772,-56.181896,22.604898,-17.177172,131.52014
3115000000,-7.5869241,13.126299,-59.419849,-88.812073,-59.651932,-90.216904,-17.285688,153.79926
3120000000,-6.0098252,95.3367,-60.27145,94.050415,-60.998512,92.842354,-16.631958,130.33406
3125000000,-15.590858,154.46275,-53.027775,14.660645,-52.953999,13.518983,-17.480614,145.86177
3130000000,-5.034997,35.92548,-52.161221,-63.335052,-52.255035,-65.79023,-15.616122,127.65087
3135000000,-7.2444115,107.05475,-54.947964,-135.15677,-54.801773,-134.23207,-17.508953,159.24098
3140000000,-17.113127,34.440712,-63.731304,87.837479,-63.513443,88.394478,-16.121235,119.48553
3145000000,-6.9435711,34.812157,-57.069363,-56.383793,-56.994308,-56.244602,-17.182955,151.54433
3150000000,-5.3980427,122.95367,-52.382244,-122.14285,-52.520271,-123.61072,-18.349386,136.90077
3155000000,-8.1996889,11.34764,-58.384567,165.23566,-58.673874,166.81905,-19.179211,123.74784
3160000000,-6.3707414,71.209686,-59.132717,13.686687,-59.376751,14.116246,-16.465965,136.37143
3165000000,-12.4622,84.71154,-52.096321,-97.405167,-52.309566,-97.725792,-19.355036,116.22258
3170000000,-12.398009,9.9446688,-53.700096,-170.87178,-53.939911,-171.76344,-15.405059,134.56616
3175000000,-5.2489352,83.4254,-56.343052,97.368187,-56.418304,96.521881,-18.236269,137.25537
3180000000,-19.381733,-10.664783,-62.861511,-43.739536,-62.906303,-45.209557,-17.949532,127.64514
3185000000,-4.8163919,41.613968,-56.360943,-150.08725,-56.273895,-149.90079,-16.974831,147.96349
3190000000,-9.5867653,78.173851,-52.553764,115.22758,-52.752182,115.89429,-20.556713,136.39499
3195000000,-16.884256,-14.40302,-55.363598,27.526493,-55.275661,28.577896,-21.785597,118.9511
3200000000,-3.9728098,48.074223,-55.447475,-101.21638,-55.712601,-104.16399,-15.926499,123.36815
3205000000,-10.24132,116.29234,-53.326866,154.20836,-53.712769,153.54454,-25.032932,132.46182
3210000000,-7.1274614,0.42731762,-56.29303,65.164963,-56.280006,62.84977,-14.077892,114.9499
3215000000,-5.6937628,57.59296,-57.002697,-60.31641,-57.002464,-57.676125,-21.707527,140.60568
3220000000,-20.152857,78.105835,-57.102478,-169.90196,-56.848782,-167.61804,-15.598897,126.68465
3225000000,-6.6840391,7.665978,-53.700401,92.070541,-53.781406,91.869606,-18.888783,129.56137
3230000000,-6.506166,74.421562,-55.162754,-6.7428966,-55.47728,-6.5178051,-18.127886,142.99651
3235000000,-17.324169,36.801628,-54.475319,-120.36324,-54.561604,-120.68362,-20.45256,110.54955
3240000000,-2.5653074,17.11717,-53.586681,142.91562,-53.771393,140.69896,-16.65242,126.96593
3245000000,-10.625036,123.68684,-54.56068,48.821259,-54.631084,49.334385,-20.265284,134.99907
3250000000,-8.5026178,-1.0530835,-57.108162,-66.52124,-57.755558,-65.962807,-17.375252,103.39513
3255000000,-6.3163395,39.614925,-54.902542,156.55638,-55.124451,155.75139,-17.456554,136.38417
3260000000,-11.32428,79.534546,-52.679916,68.827438,-52.965511,71.299988,-16.126648,109.70271
3265000000,-4.920373,-13.922153,-53.694912,-20.200237,-53.594074,-19.9037,-18.528725,135.40829
3270000000,-4.8026967,63.416122,-56.677418,-145.83691,-57.045494,-145.23866,-16.645916,123.6033
3275000000,-14.280744,-55.782379,-52.57761,105.9828,-52.607574,106.58635,-20.695467,107.15813
3280000000,-7.692369,29.562576,-51.205063,19.302614,-51.104378,20.032961,-14.711168,118.3861
3285000000,-5.7696152,53.093819,-55.873951,-82.465714,-56.138008,-78.023247,-20.710726,120.2011
3290000000,-9.1077576,-62.684036,-55.333794,143.57794,-55.317261,142.4718,-15.790918,108.68229
3295000000,-4.249166,21.963575,-51.352894,35.233627,-51.631893,35.015503,-15.625972,115.24706
3300000000,-11.204976,72.895615,-50.81358,-51.669216,-51.044533,-51.572193,-17.846991,123.07561
3305000000,-7.7739882,-38.176727,-53.18541,-143.87891,-53.151638,-141.29169,-16.407188,111.76903
3310000000,-4.4831738,39.597645,-53.543728,78.00518,-53.777355,77.956306,-16.789997,122.52099
3315000000,-24.792858,30.714064,-51.228737,-20.199209,-51.482548,-20.166069,-20.398989,96.937775
3320000000,-6.4668117,-13.95248,-51.216728,-119.53234,-51.137924,-118.06802,-15.050139,106.34018
3325000000,-6.9273686,26.934896,-53.089451,122.52956,-53.272697,123.88868,-19.440329,101.75728
3330000000,-12.538586,-117.36582,-51.323593,16.921881,-51.498318,17.989866,-14.013042,98.559654
3335000000,-2.1138625,6.465786,-50.635014,-86.056007,-50.610142,-87.838165,-18.349413,105.32874
3340000000,-13.932823,64.43174,-50.66217,166.08664,-50.922245,166.52818,-14.499738,109.60744
3345000000,-9.3551455,-31.287683,-51.599743,64.238976,-51.627445,64.214569,-19.083044,89.752556
3350000000,-4.0148287,-6.7823572,-51.519257,-46.573936,-51.741055,-47.09137,-15.284052,109.28091
3355000000,-12.626952,108.27051,-51.156834,-152.92075,-51.32132,-154.11604,-21.832546,80.849197
3360000000,-5.4687433,-43.594341,-50.731373,93.879478,-50.81292,91.632568,-14.897517,92.881233
3365000000,-4.6168094,29.418589,-49.221462,-14.152639,-49.279922,-14.288107,-19.118479,71.15374
3370000000,-13.300251,-40.663219,-49.013542,-113.25085,-49.207787,-113.04595,-15.074858,90.009033
3375000000,-4.6518803,-25.791346,-51.009689,139.35477,-51.151497,140.65427,-16.741146,85.740746
3380000000,-10.655174,50.707752,-51.081642,18.26746,-51.233673,19.480686,-17.124603,93.28096
3385000000,-18.225353,-62.479477,-48.859322,-84.150047,-48.92104,-82.705078,-18.355907,72.931526
3390000000,-2.4775186,-12.886846,-49.551964,178.5611,-49.763546,178.38751,-16.909395,88.336578
3395000000,-15.050098,88.369019,-49.768597,68.085587,-49.83007,67.4767,-18.286299,72.704155
3400000000,-4.7726002,-55.772778,-49.03883,-50.32056,-49.063084,-50.070541,-17.530361,71.698875
3405000000,-7.8373985,-4.6559272,-48.039955,-148.40886,-48.05788,-148.29575,-19.265718,71.312859
3410000000,-14.546249,49.105026,-49.531868,112.78229,-49.663105,112.42236,-15.518108,70.147835
3415000000,-3.6967199,-45.439903,-51.085064,-9.2978382,-51.139751,-8.3537292,-18.880016,68.236893
3420000000,-6.3872757,26.533033,-48.900696,-121.66071,-49.095474,-122.27531,-17.44639,86.398529
3425000000,-12.37529,-99.049332,-47.82515,140.62622,-47.794765,141.56628,-20.830498,52.808102
3430000000,-4.4899182,-25.346157,-48.546787,38.144463,-48.639668,38.244362,-17.560472,78.675865
3435000000,-16.673332,39.536053,-49.539322,-75.456421,-49.727551,-73.484329,-22.512585,42.050941
3440000000,-9.4626751,-60.829407,-48.652092,179.14807,-48.537575,178.68391,-20.654999,60.013069
3445000000,-4.3550377,-21.72756,-49.15884,71.214302,-49.260628,71.193649,-16.638563,52.651421
3450000000,-15.866607,47.515045,-49.221298,-34.313972,-49.150497,-34.97369,-22.56369,62.81004
3455000000,-5.1078157,-70.923943,-48.810673,-144.24423,-48.8167,-144.9334,-18.837074,58.193253
3460000000,-7.7324305,12.21758,-48.666245,112.14063,-48.855709,112.85445,-19.520012,72.099564
3465000000,-14.213026,-68.908226,-48.88987,-1.6510894,-48.933765,-1.0953678,-25.076981,55.446617
3470000000,-6.2965579,-53.115021,-48.668262,-99.974709,-48.688934,-100.47101,-19.300339,60.876984
3475000000,-6.9339948,14.055224,-48.249218,155.02661,-48.514526,154.5656,-31.038103,100.78586
3480000000,-7.3506384,-106.78545,-49.473869,46.108803,-49.556797,45.250046,-19.83297,39.824051
3485000000,-3.5105572,-24.390522,-49.537994,-65.026627,-49.699879,-65.387222,-22.159189,37.52417
3490000000,-19.746113,122.11735,-47.269447,-176.34038,-47.273632,-176.22435,-22.36277,104.94789
3495000000,-8.6381483,-58.656437,-47.761585,91.101456,-47.770561,91.899467,-17.874025,18.255581
3500000000,-4.4699149,-26.596806,-49.075832,-12.035959,-49.236122,-11.096978,-18.746456,107.76302
3505000000,-20.601587,166.97055,-49.657993,-132.23822,-49.372017,-132.75157,-25.467764,16.886087
3510000000,-4.013093,-74.374153,-48.782764,123.39649,-48.917793,123.35995,-21.661402,97.661591
3515000000,-7.09167,18.738026,-47.36657,24.028009,-47.570911,24.009247,-27.937698,40.461555
3520000000,-12.48263,-120.63554,-48.670902,-82.907715,-48.698753,-82.869759,-28.141823,27.089727
3525000000,-5.1916142,-49.580269,-49.28904,163.32881,-49.346142,164.85846,-20.595398,61.787796
3530000000,-10.694551,-12.812155,-46.912846,55.894955,-47.075451,55.50687,-22.089022,86.206093
3535000000,-8.2234335,-122.3837,-47.61618,-38.567509,-47.67223,-37.489178,-27.350946,35.402737
3540000000,-5.1940484,-35.54734,-49.772881,-141.34119,-49.719948,-140.21619,-17.858234,99.836823
3545000000,-13.800793,58.505005,-49.391315,99.596428,-49.281898,100.89918,-43.777805,-109.11777
3550000000,-4.0072045,-77.463448,-48.271469,-10.684054,-48.268398,-9.1559315,-19.774473,82.637642
3555000000,-10.985178,3.3547208,-47.468979,-110.59619,-47.589252,-110.06796,-43.125542,-178.51637
3560000000,-13.330066,-85.19223,-48.768997,146.64455,-48.704563,146.5883,-22.310276,88.148849
3565000000,-7.7168903,-105.94001,-48.307625,40.773716,-48.275661,41.313942,-24.572746,36.602356
3570000000,-4.1574531,2.5132995,-49.483971,-63.837627,-49.538696,-63.02652,-23.220604,92.093681
3575000000,-6.9349141,-143.59181,-49.542194,-173.60298,-49.460415,-173.04671,-22.30892,68.002625
3580000000,-4.751555,-45.386108,-48.148369,76.628174,-48.357853,77.881905,-21.618031,91.735474
3585000000,-16.50519,-27.175735,-48.45789,-23.030375,-48.640659,-23.057074,-23.790619,96.285431
3590000000,-8.5048475,-141.81903,-48.203831,-128.30803,-48.261456,-128.94933,-31.742344,75.180084
3595000000,-3.5961175,-32.950043,-48.295761,122.26736,-48.444595,122.71335,-19.342474,83.455887
3600000000,-18.26907,163.90776,-48.065899,22.33741,-48.082928,22.909132,-37.099033,103.73558
3605000000,-5.0350642,-78.716675,-48.752007,-81.289398,-48.729984,-81.249138,-21.818056,54.519409
3610000000,-8.8880539,-24.041023,-49.687332,166.84488,-49.882774,168.89221,-21.64637,83.125374
3615000000,-14.011042,176.28314,-49.842117,51.164654,-49.687618,50.63205,-23.319279,74.498634
3620000000,-5.5769086,-71.693863,-47.456112,-49.493916,-47.366371,-48.79501,-22.566742,66.412262
3625000000,-11.0657,-21.176844,-48.161243,-148.35812,-48.287945,-147.12459,-21.633099,99.315422
3630000000,-15.036849,-177.31483,-49.314846,106.87424,-48.953995,106.94927,-27.876635,80.542809
3635000000,-2.0710223,-74.789375,-49.239128,-3.0562315,-49.039989,-2.7080517,-20.616528,53.456051
3640000000,-12.762947,77.756027,-49.567188,-108.33648,-49.579006,-109.74945,-22.945253,147.08517
3645000000,-4.9201546,-94.614212,-49.576233,149.48833,-49.82589,147.55905,-18.530375,13.991605
3650000000,-12.164783,-35.969242,-50.186989,36.004543,-49.999352,36.03447,-19.901674,104.74914
3655000000,-10.490937,-18.217545,-49.510132,-71.01651,-49.580555,-71.407509,-22.708321,15.879861
3660000000,-2.7077177,-112.23244,-48.57333,-169.58829,-48.692448,-169.31395,-21.803585,93.799675
3665000000,-5.2066712,15.759529,-50.284225,89.540291,-50.417721,89.120667,-21.797529,58.199619
3670000000,-6.7485824,-136.71593,-51.112988,-17.292318,-51.047592,-17.640736,-29.79493,123.24383
3675000000,-8.8361244,-56.996315,-51.505192,-126.57279,-51.491947,-127.56029,-23.247524,47.261883
3680000000,-8.8427734,-39.654079,-51.25489,128.55905,-51.467426,128.48682,-24.696386,121.348
3685000000,-7.8578601,-143.46504,-51.247692,17.858124,-51.233318,17.833342,-23.11853,-29.840082
3690000000,-4.3988323,-50.268112,-51.069122,-81.97863,-50.990227,-81.794815,-20.468899,69.794174
3695000000,-27.556606,109.75746,-49.562965,174.87657,-49.526997,175.25508,-30.97414,-9.9445333
3700000000,-6.9875016,-113.77247,-52.450237,74.277374,-52.233486,73.898186,-22.318068,68.12439
3705000000,-4.3111119,-32.947563,-52.431358,-33.776669,-52.645729,-32.573799,-23.83391,31.435642
3710000000,-8.5275717,-176.14452,-51.477272,-141.05432,-51.508926,-143.25484,-23.185701,137.54735
3715000000,-4.5557942,-69.582481,-52.855289,118.554,-52.885643,117.90219,-19.943918,23.635731
3720000000,-10.369275,-56.030869,-52.976742,13.185802,-52.891533,13.748178,-21.35187,157.77174
3725000000,-10.770059,165.93213,-52.028767,-102.55805,-51.779922,-103.16523,-22.36529,1.0676212
3730000000,-1.5170138,-65.262489,-52.24374,157.62567,-52.442848,157.51456,-27.136131,94.144478
3735000000,-15.822776,102.21877,-51.744793,67.920074,-51.751976,67.887169,-24.304281,79.616798
3740000000,-7.1622672,-97.265907,-54.533897,-37.248028,-54.616783,-37.103279,-54.306229,41.364876
3745000000,-4.9723206,-85.500893,-54.342449,-159.55003,-54.242165,-159.36461,-22.56391,91.171982
3750000000,-10.116635,58.280304,-52.223438,100.75333,-52.381069,101.4154,-29.609226,160.162
3755000000,-1.5478343,-123.32263,-52.669117,3.9888306,-52.467579,0.83614415,-29.204447,35.290398
3760000000,-4.9077468,-5.941855,-54.393009,-103.28817,-54.552231,-103.03162,-21.985998,137.2505
3765000000,-4.9704275,-114.86752,-53.938313,145.04427,-54.005211,145.1657,-26.31168,-35.966782
3770000000,-6.1775608,-129.9465,-52.097183,50.695915,-52.277969,52.950253,-22.568281,100.06942
3775000000,-5.1695752,-11.144267,-53.582302,-49.181103,-53.571121,-48.649052,-26.522858,57.767471
3780000000,-5.032548,-155.96648,-57.324131,-158.63995,-56.969433,-159.91379,-23.911251,149.77223
3785000000,-3.6780686,-60.54641,-54.639431,85.91745,-54.685123,84.636703,-18.902834,54.653759
3790000000,-13.047937,-86.477791,-53.689587,-23.409918,-53.817852,-21.94931,-17.653782,159.86783
3795000000,-4.1217003,-151.85136,-55.31884,-111.89975,-55.093781,-115.83286,-25.675505,39.765873
3800000000,-5.2387872,-35.853443,-53.501564,145.5229,-53.615231,143.04886,-20.167353,138.81065
3805000000,-13.294797,-120.27918,-54.457989,37.683407,-54.135494,40.196793,-40.147022,40.344223
3810000000,-6.4325204,-125.54367,-56.390549,-62.952488,-56.360966,-59.937035,-22.367933,92.888977
3815000000,-2.8652408,-66.46843,-56.988647,-172.10281,-57.109566,-172.4355,-23.849947,104.72142
3820000000,-3.7882402,146.28114,-55.641987,71.530907,-55.556705,73.409912,-23.184519,113.86429
3825000000,-0.89236015,-67.913467,-55.712971,-23.611254,-55.858665,-24.677668,-21.575401,65.793137
3830000000,-12.853662,-157.9646,-55.773476,-124.45518,-55.728668,-124.64341,-15.614076,129.20775
3835000000,-12.852297,-120.49274,-55.917049,127.09882,-55.90736,126.6545,-44.416721,-43.332153
3840000000,-1.9729648,-105.36694,-56.277321,19.065115,-56.268028,19.10644,-18.709803,111.27341
3845000000,-9.5921059,72.35183,-55.980022,-68.055244,-56.430424,-67.523994,-29.818205,99.196243
3850000000,-1.426702,-112.40315,-58.793922,-178.32524,-58.989777,-177.41928,-23.852919,106.52006
3855000000,-9.8581285,-108.10599,-57.745834,56.516506,-57.822113,59.020485,-19.142738,67.846245
3860000000,-22.616579,-120.20548,-54.028816,-42.163479,-54.323338,-41.599426,-22.111517,135.86148
3865000000,-3.0473175,-122.71708,-55.333248,-129.75728,-55.301991,-129.4931,-16.407763,60.889633
3870000000,-9.3601217,-40.304569,-58.243061,130.5107,-58.07011,134.67787,-17.660118,140.13042
3875000000,-5.1819472,-141.3307,-59.846809,9.2630482,-59.633892,8.7534208,-20.547867,61.053093
3880000000,-4.9185801,-133.23242,-59.435921,-95.868225,-59.880005,-94.793579,-21.7957,122.55515
3885000000,-9.4544964,-3.3979964,-57.612804,172.1011,-57.43478,174.62181,-19.135592,80.309296
3890000000,-1.3819546,-138.72864,-59.997387,57.149349,-60.548187,59.038128,-34.676929,166.99565
3895000000,-8.6746988,-85.222023,-57.514458,-59.665684,-57.281105,-60.274315,-15.349652,54.872955
3900000000,-8.2151022,-116.09042,-55.452869,-148.31956,-55.366356,-149.15169,-19.68025,126.88042
3905000000,-4.0989985,-163.95096,-56.499039,124.30473,-56.898777,123.64372,-18.256975,38.800526
3910000000,-4.0674024,-40.323124,-60.652184,19.029682,-60.581692,19.944273,-16.539124,105.78075
3915000000,-2.8885639,-162.89301,-61.033165,-97.417122,-60.848827,-99.454575,-23.948114,49.603001
3920000000,-6.1803889,-94.336601,-57.991432,135.63686,-58.100391,137.67775,-19.930222,94.717644
3925000000,-7.4815893,-125.56568,-59.748138,38.461308,-59.480389,39.241741,-19.671267,57.764439
3930000000,-7.0949469,139.94521,-59.381977,-56.87233,-59.136761,-55.247692,-25.489277,146.20857
3935000000,-0.20000745,-97.867844,-58.141628,-148.61227,-58.060699,-147.30887,-14.662827,31.84321
3940000000,-13.756682,106.62434,-60.12608,108.70473,-59.776077,107.34287,-19.053457,121.58249
3945000000,-1.5040064,-144.32387,-60.570557,-6.1196127,-61.183052,-2.8441725,-17.630833,26.571335
3950000000,-8.5821123,-95.101608,-59.309223,-125.41349,-59.923241,-124.07397,-17.298178,86.212593
3955000000,-12.666065,161.0264,-62.182804,131.83205,-61.672081,135.46442,-27.219154,90.622162
3960000000,-3.7742455,-135.01712,-61.236809,32.84634,-61.62291,34.220039,-18.899864,36.937798
3965000000,-10.413802,-102.63955,-61.320351,-80.363853,-61.206665,-74.80825,-20.507341,99.413452
3970000000,-6.5945096,169.64746,-59.074127,-166.34143,-58.827297,-166.15395,-25.16634,10.435336
3975000000,-1.7807193,-132.01042,-58.849022,109.18903,-59.300659,111.41412,-18.247715,36.448738
3980000000,-19.714643,-1.123367,-64.619835,12.492851,-64.120193,17.073486,-20.221531,94.850449
3985000000,-3.1183398,-160.70749,-70.332535,166.97032,-68.417519,-178.76822,-19.839172,8.454525
3990000000,-8.7839375,-134.0451,-58.526016,103.94704,-58.558872,102.76649,-19.37508,85.823837
3995000000,-16.996946,-94.738541,-60.31208,23.29245,-60.462921,22.911829,-23.692966,41.717579
4000000000,0.049278378,-175.64091,-58.167496,-60.964848,-58.000401,-62.011501,-32.265339,17.252523
END

