!CSV A.01.01
!Keysight Technologies,N5247A,US56070710,A.10.64.09
!Date: Thursday, November 10, 2022 01:22:10
!Source: Standard

BEGIN CH1_DATA
Freq(Hz),S33(DB),S33(DEG),S34(DB),S34(DEG),S43(DB),S43(DEG),S44(DB),S44(DEG)
3000000000,6.1360288,23.701334,-56.436047,-101.25196,-55.307709,-108.51746,-16.056608,-137.39079
3005000000,5.5770569,-74.969498,-55.333885,138.2135,-55.47805,138.96518,-15.663528,-137.11275
3010000000,6.8054404,177.74849,-59.715988,6.4970222,-59.83733,4.7603683,-15.76381,-139.8642
3015000000,7.3587141,103.58897,-56.051685,-66.981598,-54.966892,-57.343719,-15.881707,-143.94748
3020000000,5.727962,-8.8076811,-54.859982,-177.2493,-54.427155,173.70036,-15.608762,-144.34111
3025000000,6.2296424,-105.86983,-55.805412,87.735893,-55.943619,89.274277,-15.364427,-145.54523
3030000000,6.5714145,156.95552,-55.292416,-9.6788559,-56.451504,-7.8699479,-15.31586,-150.21022
3035000000,8.566309,66.676338,-58.85857,-145.60036,-55.941132,-143.43861,-15.427677,-154.6134
3040000000,3.9492469,-32.679348,-61.330444,123.5435,-61.338131,120.43102,-15.440434,-159.10677
3045000000,6.9140291,-139.5526,-55.651463,5.7796779,-55.569447,0.84595084,-15.117563,-163.01508
3050000000,7.432919,134.70831,-54.852875,-93.30024,-54.579247,-82.787766,-15.066291,-162.30533
3055000000,6.9693933,41.901142,-55.239731,175.29489,-53.856232,172.45535,-15.455079,-162.24785
3060000000,5.1273355,-59.434837,-59.488148,70.563568,-60.128613,71.390816,-15.347529,-167.8745
3065000000,6.8534617,-169.82881,-58.298058,-57.823944,-58.509293,-58.286102,-14.876436,-171.75006
3070000000,7.5075011,114.03242,-57.156082,-177.95193,-56.668098,-166.77533,-15.226423,-170.77095
3075000000,6.1661081,6.1915002,-57.883083,86.295128,-57.120728,76.838692,-15.916244,-173.25558
3080000000,4.7009716,-92.423416,-56.729053,-1.3204701,-56.836937,2.3750265,-15.988937,-177.12498
3085000000,6.0427914,165.78888,-57.459209,-109.69261,-58.365208,-113.39673,-15.789669,-177.12212
3090000000,8.4232655,85.797379,-59.37534,141.22232,-57.413544,149.00015,-16.007683,-177.29488
3095000000,4.4799056,-15.857741,-56.16647,39.265911,-56.545498,33.783642,-16.004299,177.73198
3100000000,6.0287638,-124.83984,-57.232685,-78.599472,-57.093437,-81.930992,-15.957024,174.0208
3105000000,7.1501641,140.73987,-56.338688,168.44597,-56.605911,178.34476,-16.160984,173.35477
3110000000,7.6900663,55.15712,-56.562397,84.859161,-54.62978,81.389336,-16.500776,172.30727
3115000000,4.6572652,-42.3755,-59.063202,-28.594067,-59.20673,-31.166096,-16.503077,171.92964
3120000000,6.6126642,-157.68379,-58.323723,-120.93307,-58.437153,-121.4222,-16.484943,172.76566
3125000000,7.1469784,123.45865,-57.81435,105.90294,-57.965015,115.01906,-16.544407,171.65291
3130000000,7.7131128,21.564453,-57.570347,6.7385731,-56.113503,2.1541324,-16.924362,167.79878
3135000000,4.4715118,-73.919289,-54.939682,-101.79277,-55.191017,-99.185738,-17.396198,164.22682
3140000000,6.0755105,175.88545,-54.914661,155.20511,-55.52256,149.98782,-17.681459,162.64958
3145000000,8.7341366,97.247307,-56.527267,74.057465,-55.000938,83.791519,-17.618301,162.70337
3150000000,5.7606521,0.4807823,-59.987804,-51.398369,-59.707775,-56.724163,-17.425507,163.39355
3155000000,5.7553549,-103.41032,-57.901531,-174.21103,-57.606392,-172.60252,-17.206562,163.26996
3160000000,6.7234993,151.19174,-55.280521,97.062363,-55.658047,99.072533,-17.184147,160.88699
3165000000,8.5829716,71.844223,-55.685688,-19.198368,-53.737244,-14.960785,-17.610167,159.32353
3170000000,4.822506,-25.62355,-56.537907,-107.65975,-56.844193,-111.89848,-18.012022,159.9567
3175000000,5.5623651,-140.19995,-54.767796,159.33348,-54.347355,157.35918,-18.044558,161.67326
3180000000,7.0667186,132.39827,-60.180134,40.084484,-60.46347,49.052402,-18.042847,162.6989
3185000000,9.2348175,34.262764,-60.60643,-74.443001,-58.418854,-80.154762,-18.136776,164.45265
3190000000,4.44029,-53.684544,-55.529694,160.88472,-56.137444,161.0027,-18.303915,161.40755
3195000000,5.7175922,-172.87895,-52.971478,52.361992,-53.110474,47.988003,-18.61772,155.23444
3200000000,8.3162336,104.85593,-54.922688,-26.448965,-53.433842,-16.203365,-18.467297,152.84651
3205000000,6.5130715,7.4499369,-58.064987,-103.58786,-57.577202,-114.79869,-18.608437,158.60989
3210000000,6.8757935,-80.926834,-59.98531,114.9819,-59.844021,117.73842,-18.794874,158.54007
3215000000,7.9133601,160.1602,-60.378544,-15.264679,-60.726509,-12.00659,-18.460043,154.14316
3220000000,11.270688,83.277115,-57.304619,-112.5789,-54.686764,-104.54375,-17.459688,155.22554
3225000000,7.4636302,-19.335079,-55.518105,153.60471,-56.529552,142.70439,-17.633423,158.16368
3230000000,7.6860762,-123.26291,-56.053707,47.031212,-55.359348,48.269619,-18.565397,154.96178
3235000000,7.2610593,138.12903,-59.247246,-58.76009,-60.372215,-52.796707,-18.560211,153.41002
3240000000,11.335977,42.533661,-60.199867,-175.53806,-57.080002,-178.96832,-17.878401,157.32758
3245000000,6.6429729,-39.892494,-56.636536,64.765411,-57.614311,63.839607,-18.018097,158.38493
3250000000,7.5460935,-159.79974,-57.176014,-32.444111,-57.396885,-40.788246,-18.241035,155.39009
3255000000,9.1959877,121.3998,-58.156887,-131.64749,-57.525688,-114.44589,-17.955132,152.66861
3260000000,9.6229258,11.67271,-59.090961,125.14707,-57.5662,108.4877,-17.858452,149.13283
3265000000,7.4825869,-68.337158,-60.251778,11.481094,-60.506104,8.6410313,-17.857,147.78792
3270000000,7.5698524,168.38339,-59.799835,-106.51828,-60.895477,-104.42905,-17.611938,152.07436
3275000000,11.41761,91.037331,-58.949574,141.77119,-55.943401,153.93015,-17.589043,152.65707
3280000000,8.3765354,-13.471189,-58.316898,50.457451,-58.69532,32.945705,-17.647903,147.71461
3285000000,7.5353713,-98.56781,-56.651894,-50.625408,-56.898232,-44.667213,-17.16367,145.77798
3290000000,6.8984046,147.16867,-59.003922,-158.10869,-60.044697,-155.02277,-17.008245,146.41893
3295000000,12.293578,46.665001,-63.646454,75.730629,-59.408463,63.295444,-17.520746,142.95033
3300000000,7.4275341,-32.628441,-61.528267,-26.171152,-62.590168,-28.355951,-17.677492,142.51645
3305000000,8.5469475,-146.17805,-57.71489,-147.42551,-57.320583,-153.02177,-17.319517,144.62894
3310000000,9.1665945,124.62156,-61.559052,114.91441,-61.086861,133.55388,-17.369026,139.7674
3315000000,10.771242,17.460026,-59.014477,26.118595,-57.412552,7.811017,-17.053255,134.70108
3320000000,7.8526845,-53.040741,-59.982697,-86.217079,-60.786705,-86.395012,-16.857418,137.23575
3325000000,7.3739753,178.33009,-63.092621,155.41121,-63.803417,149.52266,-17.390524,134.58936
3330000000,10.44084,100.09673,-64.131935,34.187153,-62.389786,44.311108,-17.536793,126.94788
3335000000,9.0956345,-6.1107845,-62.022076,-80.930588,-62.308685,-93.404068,-16.762568,130.56726
3340000000,8.5954914,-85.340271,-61.048378,-179.50043,-60.598568,-174.2271,-16.65836,133.98251
3345000000,6.5394039,158.03389,-60.922447,86.175941,-62.778488,88.61898,-17.306643,126.84248
3350000000,12.941849,59.459221,-66.602203,-6.1464534,-62.854156,-15.473459,-17.12396,121.74998
3355000000,7.8746328,-23.99856,-72.685089,-146.78419,-73.595207,-155.10019,-16.748535,124.25655
3360000000,8.8413153,-125.91904,-66.246056,105.02995,-65.795792,94.68158,-17.414551,121.61678
3365000000,8.0653505,134.3094,-65.634354,-12.703864,-65.586685,-0.11182203,-18.005388,117.56116
3370000000,11.367032,26.834766,-68.436752,-110.01829,-65.670319,-125.27612,-17.63257,118.00381
3375000000,9.048646,-46.232784,-65.297058,131.6449,-65.841507,134.11745,-17.257879,114.49186
3380000000,7.583149,-164.74396,-80.528175,136.68237,-82.188225,137.58632,-17.484293,109.21956
3385000000,9.3510237,110.21514,-70.55806,-131.88751,-69.653458,-112.39281,-17.817228,110.19794
3390000000,9.493,-1.0819845,-68.24382,122.41378,-68.256584,104.5656,-17.882532,107.94796
3395000000,8.3055725,-70.152931,-71.984184,9.0780792,-72.311188,18.555246,-18.13492,104.21499
3400000000,6.5357709,167.82191,-74.049599,-90.613121,-76.103615,-88.371284,-18.495079,107.25676
3405000000,12.22602,73.305069,-67.333031,114.47593,-64.411591,114.03806,-18.667143,108.74962
3410000000,8.7744484,-19.676319,-65.445747,-27.205006,-67.230209,-33.300575,-18.810379,99.462257
3415000000,10.47901,-112.67014,-67.387917,-75.754051,-65.768776,-81.241432,-19.37925,95.665451
3420000000,7.3739972,139.64111,-68.825317,147.49219,-69.385078,160.60226,-19.879387,99.533539
3425000000,11.661278,37.789932,-72.555557,-1.1336286,-69.462845,-7.4538865,-20.256773,93.495499
3430000000,8.9624825,-41.547226,-68.117004,-140.84662,-69.122803,-142.5462,-20.343529,86.020081
3435000000,8.9193029,-153.25745,-63.472076,129.66002,-63.030964,124.22621,-20.281029,92.373108
3440000000,8.5618544,119.23112,-64.825569,15.828593,-64.63797,30.289034,-20.054159,92.901772
3445000000,10.701662,3.6909492,-63.873158,-61.643421,-62.805847,-81.075348,-20.735447,82.309898
3450000000,9.0872097,-64.01548,-65.236336,-179.02209,-66.258141,-177.75502,-21.280365,83.518951
3455000000,7.0804458,175.13179,-67.69133,55.643906,-68.642982,51.491711,-21.127312,92.685516
3460000000,10.803078,83.274826,-65.888962,-68.368881,-63.34256,-61.204227,-22.261086,90.254745
3465000000,9.2679634,-16.065012,-63.871204,-170.70235,-65.129814,178.89478,-24.370373,86.455788
3470000000,10.452996,-98.493935,-62.837002,84.403214,-62.448277,82.961731,-23.523941,90.563942
3475000000,7.1078777,149.19279,-61.645382,-4.1559625,-62.646469,0.056821473,-23.129757,84.638031
3480000000,11.467622,46.994781,-65.905952,-118.70809,-64.345741,-127.59445,-25.406145,73.803429
3485000000,9.3009062,-38.035427,-66.367928,140.69174,-66.920952,136.55228,-25.442942,80.728012
3490000000,8.9972544,-135.68384,-65.959549,13.831037,-65.1241,11.642088,-23.535191,88.95211
3495000000,7.2153449,127.84368,-66.841377,-101.69292,-67.467987,-90.944847,-25.510715,90.51754
3500000000,10.912628,10.864401,-63.529831,-176.09583,-62.103943,164.92712,-27.343855,98.735138
3505000000,8.6819839,-57.359364,-61.611721,76.938728,-63.182796,80.748764,-24.893484,93.581085
3510000000,8.0385914,-172.42717,-68.394737,-34.75642,-68.937141,-39.800564,-25.517553,88.087219
3515000000,9.2918406,96.263046,-69.334885,-148.46933,-68.803864,-130.03934,-28.139872,103.77536
3520000000,9.0944881,-7.8562937,-67.29882,60.025635,-67.240578,45.426167,-26.21825,116.65672
3525000000,9.7999525,-83.704918,-65.829895,-0.37682313,-65.025078,-2.4749475,-27.104176,109.51044
3530000000,6.4958553,161.05833,-65.316566,-104.90569,-67.122086,-106.66352,-31.629339,111.08636
3535000000,11.00445,62.454369,-70.232727,156.02077,-67.79464,157.14166,-27.707041,107.8287
3540000000,8.7683325,-31.38339,-67.7677,61.101452,-70.001266,50.68364,-25.302895,100.34979
3545000000,9.7954216,-116.73167,-68.107811,-95.000633,-67.328079,-96.720497,-29.175734,105.05427
3550000000,6.3659811,138.35588,-66.603996,144.25502,-67.875084,153.4151,-28.792562,119.87194
3555000000,10.340955,25.257334,-66.564789,86.938934,-64.259262,74.328972,-24.844318,109.69419
3560000000,7.9628725,-50.157623,-68.529419,-3.7000532,-70.094353,-7.5049515,-26.314981,108.46864
3565000000,8.4223423,-160.55173,-66.580254,-61.216618,-66.537933,-67.416191,-27.100321,117.90369
3570000000,8.0631485,107.96475,-72.995598,-124.96426,-71.473412,-112.06893,-23.498703,108.68554
3575000000,9.255167,-3.4988246,-76.453163,0.20297007,-72.475235,-25.739304,-23.844261,112.33677
3580000000,8.9585266,-73.285294,-71.363197,-107.59187,-71.470871,-110.67109,-26.577412,140.46352
3585000000,6.7019558,172.6382,-65.595901,178.76186,-65.995522,179.18207,-26.032755,129.36719
3590000000,8.9691525,81.073448,-67.883118,111.81898,-66.74971,120.89576,-24.890194,106.10805
3595000000,8.7079077,-24.388615,-64.642456,44.28019,-65.437088,28.159184,-26.876898,117.09933
3600000000,9.5097685,-102.9901,-66.925278,-74.505775,-66.818291,-69.303047,-26.740816,115.25394
3605000000,6.0757847,147.36353,-67.532875,152.13509,-68.845711,160.43962,-24.265062,94.683197
3610000000,10.27516,43.635078,-67.250801,32.369831,-65.123436,26.437227,-25.03083,99.172272
3615000000,8.0419874,-44.317158,-63.942188,-65.54377,-65.180473,-65.574295,-25.267721,118.93913
3620000000,9.36901,-142.4794,-63.447296,-147.33907,-62.715763,-152.17526,-23.65782,107.61507
3625000000,6.9695911,121.58276,-64.063232,108.02957,-64.957657,119.81013,-24.146885,102.83308
3630000000,9.9529915,13.952963,-63.563938,11.768057,-62.423759,1.7270576,-26.171789,113.21855
3635000000,8.6224279,-59.388836,-62.911995,-122.09821,-64.716179,-119.03274,-25.794094,106.09947
3640000000,7.4985962,-172.15111,-63.862324,114.84694,-64.320511,110.03336,-25.145985,93.142891
3645000000,7.7963729,99.009117,-61.334274,23.238697,-60.812214,34.023045,-26.870182,105.07932
3650000000,9.1890011,-14.652122,-60.763863,-75.810745,-60.777267,-92.477608,-26.313375,113.35716
3655000000,9.3589926,-84.881973,-60.408161,-168.22696,-60.731026,-164.98497,-25.715542,97.431404
3660000000,6.7721033,161.93143,-61.236004,94.330566,-62.431156,90.734184,-27.52737,86.993576
3665000000,9.5885916,61.189003,-64.681076,-41.703938,-62.945614,-37.820217,-27.998981,91.443855
3670000000,7.8443241,-35.04858,-63.96574,-141.12273,-65.401733,-142.97841,-25.930285,90.004692
3675000000,9.8773642,-121.59119,-59.235378,87.426743,-58.41687,87.038857,-27.030508,92.611145
3680000000,6.5315938,135.22342,-58.527836,-2.6394811,-59.573166,1.8577421,-29.18104,109.72825
3685000000,10.427911,29.42605,-59.007195,-98.11554,-57.068123,-102.37468,-28.04702,104.3744
3690000000,8.9660168,-55.873856,-59.579746,169.88069,-60.447823,170.43306,-27.718683,91.93689
3695000000,8.3122873,-156.02184,-60.058075,44.009682,-59.539856,41.512894,-31.525915,99.36306
3700000000,6.7363825,111.97006,-62.062069,-69.902489,-62.160484,-60.616604,-33.794415,109.30656
3705000000,9.9396544,-5.1058459,-59.395645,-174.45644,-58.158802,172.47794,-32.379616,82.770065
3710000000,8.3768768,-72.68943,-57.449993,86.176743,-58.809647,88.860268,-32.654594,86.831642
3715000000,7.2206316,174.70706,-60.752975,-26.67827,-61.100388,-35.610241,-32.476734,112.7492
3720000000,8.4330015,77.654785,-61.819801,-121.74532,-60.670776,-115.11142,-31.387329,108.17492
3725000000,8.344985,-26.781296,-58.491108,121.55368,-59.767715,111.42325,-32.737003,92.612099
3730000000,9.9230433,-104.68197,-57.861393,5.5003109,-57.388336,7.9743133,-34.596458,116.67005
3735000000,6.0888839,149.46835,-58.38805,-94.232483,-59.353485,-94.28949,-32.784645,128.04285
3740000000,9.2923412,50.00391,-57.787334,171.73445,-56.276958,170.71463,-31.480097,124.54775
3745000000,8.7668066,-44.769119,-58.407722,53.772446,-59.429222,50.207962,-30.153273,141.1097
3750000000,9.5299807,-135.65085,-60.091053,-60.617172,-59.380966,-62.006752,-29.181339,158.35271
3755000000,6.0017219,126.96957,-60.195557,-172.1573,-61.437599,-167.31921,-32.195938,152.44263
3760000000,10.238171,9.6331272,-57.798222,89.971512,-56.449253,74.365036,-33.89669,144.39676
3765000000,8.2658911,-63.443211,-58.516567,-16.519085,-60.056267,-17.048016,-30.846235,156.89302
3770000000,8.4855957,-169.84271,-58.308472,-113.40185,-58.04776,-120.95486,-29.84734,157.55322
3775000000,7.5678468,95.901787,-59.974121,125.33624,-59.347366,133.73141,-29.948761,144.17889
3780000000,9.484251,-18.523464,-59.347889,17.25746,-59.477074,1.720975,-27.62788,145.83578
3785000000,9.9854984,-83.656364,-57.939728,-89.162247,-58.059807,-82.330803,-26.105625,151.16397
3790000000,7.4391646,164.62523,-58.692207,158.55858,-58.761497,154.19977,-26.626339,151.5329
3795000000,8.5200481,72.742195,-58.947731,66.922089,-58.028046,72.836426,-26.501999,155.78537
3800000000,8.9826784,-39.747974,-59.14296,-36.76984,-60.203632,-44.050304,-25.563749,161.55292
3805000000,9.9814463,-116.54975,-60.951794,-159.03502,-60.498363,-149.03111,-25.317554,155.46312
3810000000,6.4454079,137.14578,-60.622257,102.38838,-62.008648,102.77317,-24.773787,150.85484
3815000000,10.699407,26.196529,-59.464054,-5.3926435,-57.533413,-17.758905,-24.769594,157.27708
3820000000,8.4234486,-56.693584,-57.457684,-115.71996,-59.847191,-115.9435,-26.612587,152.85832
3825000000,9.9798346,-154.45972,-59.484818,148.73892,-58.152668,142.89297,-25.762917,133.2861
3830000000,5.944406,110.55705,-60.452816,46.481655,-61.013027,55.809807,-23.554174,138.71793
3835000000,9.9363756,-6.1570392,-61.959141,-62.292625,-60.929405,-72.409927,-23.236128,149.01199
3840000000,9.5250139,-77.745598,-61.502663,-172.13469,-62.447464,-169.60201,-24.144243,139.30626
3845000000,8.6138096,175.72054,-59.804211,64.698441,-59.548809,62.698711,-23.235268,130.7442
3850000000,8.137948,87.287529,-60.036915,-19.536728,-59.714214,-10.616099,-22.732901,135.74776
3855000000,9.3102922,-30.90344,-59.928398,-121.10953,-60.433533,-133.64499,-23.252293,135.96602
3860000000,10.328575,-99.368156,-60.951256,132.0325,-60.776012,137.75638,-23.086046,128.62025
3865000000,6.7180834,150.84352,-64.990952,11.593767,-66.024605,7.4788294,-22.440292,131.24147
3870000000,9.233655,50.75132,-61.416809,-92.071495,-59.603756,-92.377457,-22.368639,132.73685
3875000000,8.5079165,-51.946571,-58.99688,159.34924,-60.869602,151.36234,-22.392843,125.98977
3880000000,11.082564,-134.84769,-59.964493,51.314453,-58.856056,52.809593,-22.659771,121.50764
3885000000,6.364224,126.47691,-62.228325,-38.246471,-63.49197,-35.30608,-23.198835,119.44573
3890000000,10.330576,13.869646,-63.211281,-138.49506,-61.598278,-146.62404,-22.267134,112.55947
3895000000,8.7637682,-68.421555,-63.694714,89.847885,-65.503731,91.710541,-21.032249,113.79902
3900000000,9.8693485,-166.54581,-61.266384,-24.584526,-60.262634,-23.1863,-21.25227,120.06306
3905000000,7.3470249,99.036423,-61.461502,-117.04301,-61.176895,-112.21039,-21.92491,119.21361
3910000000,9.8576174,-20.781563,-59.039577,142.47652,-58.869576,133.1714,-21.98736,111.5764
3915000000,10.500845,-90.014824,-62.249016,43.083069,-62.43589,48.706635,-22.521147,109.99274
3920000000,8.0467377,161.23184,-64.685196,-63.163445,-64.56366,-71.432404,-23.073641,110.44182
3925000000,8.585041,70.999352,-64.202812,161.57489,-62.836052,174.60832,-22.954676,106.17868
3930000000,8.6485662,-45.230701,-62.024406,64.028641,-63.079918,50.687969,-23.084139,100.45953
3935000000,11.224774,-123.37345,-61.48579,-31.435482,-60.911861,-28.891977,-23.212862,92.911728
3940000000,6.9321194,139.25681,-61.192543,-141.74388,-61.776001,-141.75465,-21.937962,90.125778
3945000000,10.1082,32.319496,-62.642605,133.88571,-61.046219,124.74088,-21.327394,92.457924
3950000000,9.5745792,-61.803425,-61.028515,32.961243,-62.486588,29.751892,-22.760878,97.305557
3955000000,10.662805,-154.27138,-64.239319,-100.49892,-62.818089,-105.0043,-24.023354,95.101486
3960000000,6.3158889,116.67235,-65.88308,155.57024,-67.522636,159.08171,-23.063015,88.651192
3965000000,9.4655437,-10.044001,-62.099857,59.645878,-61.675835,43.204128,-22.785315,87.200531
3970000000,9.0081749,-80.698395,-60.851227,-71.378143,-62.367447,-63.192493,-24.136131,86.986794
3975000000,9.1168385,173.2336,-63.963108,-153.92506,-64.712578,-165.73889,-24.353474,79.129929
3980000000,7.9231944,87.847603,-62.775169,99.893951,-61.552273,110.0369,-23.771404,75.098068
3985000000,8.3280611,-34.037971,-65.999107,-2.4855168,-67.513435,-11.214907,-24.637764,77.341713
3990000000,10.345854,-107.7989,-66.567368,-126.86235,-66.427002,-121.05245,-24.996763,77.423279
3995000000,6.9498291,149.80731,-68.558655,133.90694,-68.683891,136.37971,-23.557987,73.347534
4000000000,6.6151428,52.326897,-60.85891,28.897072,-59.636421,31.874546,-23.553986,74.599281
END

