!CSV A.01.01
!Keysight Technologies,N5247A,US56070710,A.10.64.09
!Date: Saturday, November 19, 2022 02:47:23
!Source: Standard

BEGIN CH1_DATA
Freq(Hz),S33(DB),S33(DEG),S34(DB),S34(DEG),S43(DB),S43(DEG),S44(DB),S44(DEG)
3000000000,-14.643848,-151.34381,-73.814163,111.92253,-73.352448,102.7515,-12.003002,-159.50194
3005000000,-10.878905,107.75795,-76.37722,39.985649,-76.543175,26.50127,-23.390888,-145.78169
3010000000,-15.204666,135.17574,-71.993668,-30.500612,-71.644608,-38.195538,-12.655622,153.81894
3015000000,-11.841824,150.53922,-74.520691,-75.695236,-72.907387,-84.148521,-12.526709,-154.07089
3020000000,-13.628306,81.907761,-75.518028,-172.42424,-74.930435,-173.86081,-25.78916,162.0555
3025000000,-11.926268,139.23901,-68.133293,124.59955,-67.317307,124.21484,-10.406838,162.92873
3030000000,-18.10309,109.90177,-68.192329,24.80006,-69.255188,21.299805,-17.231438,-146.15569
3035000000,-16.698637,97.763687,-75.026131,-56.68898,-74.236183,-53.692799,-17.590813,138.55334
3040000000,-6.9792418,146.30023,-77.346603,-144.43379,-76.618126,-127.84886,-11.485781,163.66808
3045000000,-11.942587,56.41396,-81.639244,106.2666,-77.908348,99.1185,-21.63504,-169.02977
3050000000,-14.187049,124.64651,-78.969742,60.891582,-78.77874,54.68161,-11.911626,129.2168
3055000000,-11.104398,122.12032,-74.714325,127.65421,-75.080719,123.5205,-12.667886,-175.61842
3060000000,-23.810143,77.316574,-69.653397,50.745098,-69.851112,41.493114,-17.497227,145.71126
3065000000,-6.037693,117.91588,-66.866425,-53.896378,-66.332451,-59.257744,-13.532236,135.09854
3070000000,-23.592438,51.869743,-70.045334,-126.62077,-71.840721,-130.30516,-13.989186,-168.61711
3075000000,-9.1964216,107.12195,-66.415741,162.18068,-66.550186,160.94717,-16.095226,99.67186
3080000000,-9.5937891,95.734665,-68.956429,66.767143,-68.2033,67.215546,-11.644176,149.2233
3085000000,-15.760953,-157.83572,-69.027649,-31.062757,-68.985535,-30.973139,-19.991617,166.84251
3090000000,-5.5780683,93.201859,-72.938881,-162.49487,-75.716866,-170.80719,-14.65793,111.1324
3095000000,-18.756224,140.71809,-82.592072,-143.6465,-80.946541,-156.657,-11.083423,155.57285
3100000000,-9.6105194,99.433685,-73.268402,33.656345,-76.178139,30.17635,-24.313875,102.62627
3105000000,-9.6296062,74.091583,-68.917435,-178.22772,-68.351433,-178.92204,-13.903738,131.90768
3110000000,-11.191072,154.0824,-72.6996,88.873749,-71.636124,82.103455,-14.148183,148.0013
3115000000,-9.6907921,67.841507,-65.037949,5.8433266,-65.741241,4.6423059,-25.074013,80.110039
3120000000,-9.4744549,109.01478,-65.370102,-106.46529,-64.727615,-107.04874,-11.182529,116.25732
3125000000,-11.895764,119.49524,-68.529457,-174.6951,-71.226524,-174.63647,-18.341057,177.32278
3130000000,-7.0602551,52.528519,-68.297325,120.20396,-67.799301,118.60767,-14.082997,96.512321
3135000000,-10.4584,134.62006,-72.453873,3.5035927,-72.80658,1.1812268,-13.428329,131.11206
3140000000,-10.798968,79.207153,-69.474945,-55.87133,-69.557312,-48.10313,-21.799192,175.05577
3145000000,-13.122481,79.230759,-76.003601,127.62434,-76.514847,129.86137,-12.802587,100.78627
3150000000,-5.8279915,108.47025,-77.289604,-62.832714,-77.244972,-97.000984,-15.591384,153.15781
3155000000,-10.430313,27.674599,-77.668686,-103.11911,-76.804611,-105.84357,-24.09638,89.400841
3160000000,-8.6769781,101.04147,-73.726013,151.3313,-74.263176,157.03711,-13.488422,105.61946
3165000000,-12.386721,67.469391,-67.808678,39.671844,-69.360039,41.594814,-15.366306,148.20934
3170000000,-11.850366,112.36436,-66.346069,-27.108273,-67.211662,-33.276237,-17.780216,74.755051
3175000000,-5.9284458,77.633949,-70.062737,-113.87963,-70.454033,-119.00222,-13.41408,128.12161
3180000000,-18.810085,43.941341,-70.053452,174.04344,-69.293251,171.77246,-16.316484,150.50381
3185000000,-6.3964748,67.402565,-69.782547,67.739975,-71.145348,69.811684,-18.461565,67.699196
3190000000,-14.288487,72.044525,-70.398605,-45.290257,-69.63028,-35.136261,-12.753629,141.22295
3195000000,-13.86008,103.90102,-75.880569,-96.286438,-77.048088,-116.53443,-34.070869,-23.539961
3200000000,-4.7609806,67.729401,-72.944374,93.528969,-74.578506,87.93988,-12.29329,97.662506
3205000000,-12.289805,87.633545,-82.24427,-56.280361,-77.689644,-56.719318,-18.560749,144.73277
3210000000,-9.170619,38.597084,-74.045555,-130.28165,-72.873932,-107.42153,-22.626816,88.827209
3215000000,-12.372689,66.867928,-73.093987,142.8233,-70.53891,133.93803,-12.266977,104.8271
3220000000,-10.796623,102.94473,-66.798241,44.201038,-67.029205,29.021017,-18.294338,158.22501
3225000000,-5.7876778,52.343182,-67.952522,-52.90432,-67.519455,-60.742069,-19.111557,80.37291
3230000000,-11.761759,59.738937,-65.749107,-138.61275,-66.769829,-148.32127,-13.723471,125.0002
3235000000,-9.4054337,65.391579,-66.474243,124.06488,-66.601952,132.78575,-23.828577,141.106
3240000000,-8.0279179,29.161917,-68.940186,42.810856,-69.829674,33.298794,-15.20318,78.053802
3245000000,-9.3598127,109.11537,-69.913177,-70.199593,-69.100426,-75.61515,-14.193507,143.48453
3250000000,-8.504941,30.648268,-78.212372,147.84445,-76.058594,141.56055,-20.833603,79.948822
3255000000,-7.5358329,79.44725,-76.111313,42.996025,-73.522018,61.567974,-14.238598,93.771904
3260000000,-6.4116254,35.795227,-72.25721,-86.953232,-73.317955,-76.235466,-14.50519,139.58537
3265000000,-13.947515,-3.8736701,-67.245522,178.4016,-67.490021,171.26642,-22.606592,79.444756
3270000000,-6.119935,78.729469,-67.132324,82.796844,-68.027725,69.708099,-12.703304,106.26199
3275000000,-13.5043,26.078627,-63.886379,-8.1589451,-64.154335,-10.406568,-24.169666,138.00923
3280000000,-6.7047949,61.982651,-67.907707,-105.9917,-66.899742,-102.55184,-16.068956,88.55159
3285000000,-7.4975376,34.629612,-66.701866,-172.25491,-65.466118,177.67905,-13.23617,104.18772
3290000000,-15.940644,-12.868923,-65.263969,79.939613,-65.176224,85.217072,-22.333233,125.50539
3295000000,-6.7230306,46.337193,-68.244125,-14.907361,-68.257988,-22.940594,-14.092224,85.39566
3300000000,-12.770512,57.0597,-75.221848,-134.07767,-72.789223,-133.30298,-13.938515,119.19939
3305000000,-9.4634485,40.375824,-79.357162,79.721733,-81.829391,60.107208,-21.158636,108.32317
3310000000,-5.3142977,36.353588,-78.746559,0.86403346,-80.879242,-3.513624,-13.783275,81.998726
3315000000,-18.733604,18.204453,-72.957405,-117.44022,-75.307259,-118.95761,-15.801294,148.18837
3320000000,-7.6696138,27.226385,-67.795219,127.59613,-67.515427,140.51035,-14.214008,56.987583
3325000000,-14.648396,24.409067,-66.649689,54.633789,-66.791779,44.17107,-15.968543,97.612877
3330000000,-10.30759,66.603645,-65.984894,-54.129276,-66.114449,-56.229378,-13.930156,106.88844
3335000000,-3.2794745,12.184425,-65.723564,-131.14244,-65.314354,-132.14586,-18.07761,51.329674
3340000000,-15.630142,53.238468,-66.852104,139.33098,-66.555695,142.81136,-10.535642,104.46082
3345000000,-7.9160776,5.2925806,-66.292053,47.690598,-68.126823,50.879398,-50.303356,65.786667
3350000000,-12.83239,18.373007,-68.745529,-44.676006,-68.034752,-51.915119,-12.909281,78.951622
3355000000,-7.2139049,63.997147,-72.925117,-172.36362,-74.584663,-176.51184,-16.485783,100.91953
3360000000,-6.286386,-12.806435,-87.015579,86.677002,-83.258369,97.19426,-21.632313,27.753517
3365000000,-6.781074,39.239471,-73.575066,-79.538277,-73.436333,-58.822472,-11.479855,74.069527
3370000000,-8.9487791,-23.92934,-69.404404,-166.06023,-72.344833,-170.16711,-18.081282,99.016655
3375000000,-12.379226,36.196449,-64.647896,106.32538,-64.827393,97.233704,-17.012663,56.030209
3380000000,-7.0914931,39.53693,-65.815002,12.062493,-65.31057,13.546897,-12.829719,82.794205
3385000000,-12.216011,0.14640066,-65.041168,-92.097168,-63.410629,-91.172905,-25.659452,130.37997
3390000000,-5.3473473,7.9935541,-64.70443,-172.1718,-64.220062,-167.30421,-12.736602,47.48904
3395000000,-14.195701,9.3826132,-64.890686,97.958992,-64.088509,90.858376,-16.545139,98.557083
3400000000,-12.664702,-24.114302,-66.068741,11.67394,-66.245697,-0.84531599,-23.953068,56.636734
3405000000,-7.7388692,23.496817,-69.906113,-104.07977,-69.0448,-101.29963,-12.296276,41.13287
3410000000,-11.496942,14.356443,-73.338966,129.26563,-75.850609,107.78097,-16.247051,111.45928
3415000000,-5.8954873,-1.8026632,-76.275314,-20.844938,-81.784721,-38.859032,-16.158482,24.885015
3420000000,-7.8186288,-6.292645,-68.90905,-107.76747,-67.523079,-114.93191,-14.97883,72.396179
3425000000,-42.377983,132.23967,-66.427666,144.57396,-66.388428,144.76819,-19.930534,94.898476
3430000000,-5.4472127,6.6581192,-64.445404,45.879787,-64.084816,44.851334,-17.098454,8.7907553
3435000000,-16.993116,4.4840188,-63.997292,-42.979603,-63.916458,-44.694874,-14.719193,87.882332
3440000000,-6.2652445,1.0746996,-65.644997,-135.14417,-66.029419,-129.6207,-21.376587,-15.135853
3445000000,-7.5105405,-29.306112,-64.69725,138.16188,-65.260483,138.91302,-15.613272,46.53764
3450000000,-11.490869,32.863987,-65.829933,39.598839,-65.641006,37.977753,-17.042265,71.970634
3455000000,-8.9252529,-43.415058,-68.881783,-37.819248,-70.652946,-45.510098,-29.18084,-12.030698
3460000000,-8.6981211,43.382652,-74.897163,-149.99742,-71.791168,-172.15251,-13.341996,51.35878
3465000000,-5.5287743,-17.396574,-80.756615,21.506142,-82.225502,3.6696305,-22.001326,145.63188
3470000000,-11.016591,-44.721336,-74.612404,-75.870941,-78.17057,-81.486549,-19.017735,10.581091
3475000000,-9.2104826,11.301356,-67.976456,-177.33539,-68.119888,-176.26016,-19.164248,71.392906
3480000000,-11.483876,-44.888996,-66.455109,97.197876,-67.584061,91.201225,-35.433949,9.1927433
3485000000,-7.6805444,5.2963996,-64.989693,2.9777415,-66.64241,7.4609957,-16.994349,21.399561
3490000000,-11.39369,1.2997936,-65.398888,-78.320107,-65.474327,-76.483292,-18.786921,85.877365
3495000000,-8.8555851,-39.054348,-66.179001,-178.80609,-64.757225,-175.25639,-26.887018,5.0757976
3500000000,-8.622139,-2.7672093,-66.19088,90.412781,-66.576744,85.914398,-16.501486,48.926922
3505000000,-14.556117,-42.011024,-68.413872,13.633338,-67.942062,8.4216413,-19.474874,125.97533
3510000000,-10.851401,-20.840115,-69.530098,-75.867767,-68.597672,-81.132973,-24.460869,-18.126783
3515000000,-7.2200618,1.4673237,-71.577629,-160.91861,-72.541458,177.75882,-20.121666,69.979973
3520000000,-15.960427,-73.945206,-80.907417,5.465323,-82.119133,-34.935471,-33.635998,77.932945
3525000000,-6.1190929,-14.832552,-73.943916,-121.90725,-74.226425,-124.22696,-21.611822,6.5496082
3530000000,-13.179964,-57.598125,-68.27552,132.59288,-68.951805,145.57706,-15.343884,72.472481
3535000000,-11.656714,-9.0820045,-67.921272,66.503502,-68.054977,52.018929,-26.483454,-175.72415
3540000000,-7.9675775,-43.371666,-66.789856,-38.419262,-66.409744,-43.048477,-17.365221,50.935452
3545000000,-11.132519,50.607269,-66.571281,-108.58643,-66.181625,-113.20226,-21.788494,122.31548
3550000000,-3.8152003,-37.635582,-64.836433,162.50652,-65.48127,152.36699,-28.88446,116.0623
3555000000,-20.283615,-42.234287,-65.954422,55.680901,-66.436218,52.689251,-21.040329,27.436882
3560000000,-11.733447,-34.0256,-66.091049,-40.720577,-66.261696,-36.508244,-20.106806,118.07387
3565000000,-16.342556,-53.024044,-70.141602,-124.59001,-68.820297,-121.78246,-24.902706,-1.2709119
3570000000,-6.1941905,6.6061473,-71.100456,136.87442,-70.976906,138.21576,-18.115881,55.937256
3575000000,-10.494217,-62.689697,-76.934792,2.6135595,-77.40136,26.977915,-18.128902,111.85618
3580000000,-8.5214081,-48.146381,-74.407501,-118.01662,-72.789116,-117.68341,-22.527275,-10.334354
3585000000,-14.391446,-16.416872,-68.339348,123.12988,-69.064247,109.4775,-14.224812,101.5567
3590000000,-15.344198,-98.167419,-69.643822,34.486126,-69.743385,19.181252,-26.824026,-75.201775
3595000000,-5.9587054,2.774801,-66.273552,-80.894073,-66.180817,-75.860336,-20.781975,59.790218
3600000000,-8.5164747,-43.743908,-64.856041,-159.63753,-64.724525,-160.8031,-19.517792,84.417671
3605000000,-8.5832777,-70.909538,-66.101601,118.49384,-66.472122,120.51783,-30.83926,-86.314362
3610000000,-12.245908,-19.735416,-67.003319,9.8449669,-67.955612,13.3345,-14.956406,43.752472
3615000000,-26.342117,158.35902,-68.835342,-73.888039,-68.361366,-70.093033,-20.205469,119.37472
3620000000,-5.6024661,-8.0026808,-70.959618,170.24895,-70.60038,164.84836,-25.136486,38.650547
3625000000,-5.8342695,-60.690762,-74.04422,65.717567,-73.887215,63.172031,-16.235319,64.405418
3630000000,-27.658346,119.29092,-70.884865,-41.578262,-71.635315,-44.484291,-22.292147,179.36102
3635000000,-5.9519114,-65.063644,-75.088394,178.55537,-72.323494,172.48016,-17.189444,42.450005
3640000000,-13.372681,51.255367,-68.210098,89.444427,-69.597801,74.124298,-23.629707,108.54013
3645000000,-4.9353228,-44.697849,-67.072433,-8.4929428,-68.130722,-18.597717,-45.749817,91.500885
3650000000,-16.847816,-82.501778,-68.962761,-122.80843,-68.199333,-122.37243,-17.720863,16.795162
3655000000,-6.006176,-10.36678,-67.897324,173.39052,-67.347198,169.92233,-18.212383,102.23218
3660000000,-5.7914968,-92.963058,-68.418381,72.796379,-68.964378,72.728043,-22.831427,-0.9355368
3665000000,-11.240685,40.430595,-73.062645,-8.2247496,-73.530777,-14.080002,-21.991627,50.453568
3670000000,-10.675476,-42.655197,-71.381561,-107.32103,-70.351501,-101.73786,-16.550381,103.64899
3675000000,-8.9953566,-45.342129,-74.457726,97.110764,-73.481148,95.692375,-19.151146,-54.348251
3680000000,-9.0689831,-39.005085,-88.626991,-42.648617,-78.684433,-59.682781,-16.365599,89.086952
3685000000,-8.9061804,-87.507614,-72.659393,-101.0357,-72.90387,-79.913773,-23.293974,-84.636711
3690000000,-16.528351,-4.608109,-74.465698,133.57675,-74.826149,128.67734,-20.283545,34.034824
3695000000,-7.04285,-16.508587,-71.159554,36.813526,-70.565247,41.197388,-19.256021,49.021084
3700000000,-9.5589218,-93.83419,-69.274971,-54.7551,-68.96331,-56.977566,-23.243423,-167.48494
3705000000,-5.4878006,-21.189079,-71.745651,-148.26381,-71.463188,-151.77429,-15.559575,34.407017
3710000000,-9.8983374,-126.39114,-69.288055,136.64648,-68.798637,130.40347,-23.320528,144.11595
3715000000,-7.7298417,-15.420035,-68.638191,32.803036,-68.222038,34.096634,-30.191542,19.097351
3720000000,-7.9239655,-66.103294,-73.572678,-58.86121,-73.697189,-57.744026,-24.475357,69.615265
3725000000,-21.855276,54.465725,-72.821747,-153.99968,-72.530388,-161.50664,-30.193703,107.77201
3730000000,-2.7374854,-47.269375,-82.755112,47.560822,-80.491043,58.421185,-22.928015,-5.0271578
3735000000,-18.955006,-142.12009,-78.313278,-49.710396,-75.38562,-34.638741,-19.484501,95.875214
3740000000,-8.1451111,-47.364758,-74.356285,-173.87749,-73.096451,167.96539,-27.998264,128.13412
3745000000,-9.8508577,-68.357689,-72.543144,95.244629,-77.46257,110.46535,-24.003386,0.068786785
3750000000,-11.928638,12.735953,-71.787758,1.9364455,-70.988411,3.9595397,-18.691504,113.53414
3755000000,-5.5975418,-77.297699,-70.566154,-99.349785,-69.899872,-108.53181,-34.484608,-152.76717
3760000000,-10.804304,-40.030308,-72.019096,-164.44943,-73.433723,-153.57237,-24.14328,62.011303
3765000000,-8.7053804,-66.753967,-72.358871,95.907509,-73.497971,86.953232,-28.350325,131.94638
3770000000,-10.268727,-95.313263,-72.34642,53.690002,-73.612778,45.643837,-47.640545,-109.45334
3775000000,-7.6284695,3.8116982,-76.717194,-77.027809,-76.224365,-61.528511,-16.367006,63.836548
3780000000,-5.5811038,-76.049416,-74.441841,-137.87109,-76.894005,-147.65857,-21.981871,-179.20358
3785000000,-10.835045,-74.224129,-76.493286,116.09509,-83.524429,113.41129,-21.464489,55.46632
3790000000,-8.6135111,-40.432545,-85.518066,-15.627505,-77.079292,-29.582554,-18.625084,105.63427
3795000000,-7.6450438,-117.38976,-83.40451,-165.51518,-83.335831,130.18741,-22.54496,147.93864
3800000000,-6.5761356,-7.0615125,-74.22226,111.78787,-75.683388,118.85887,-27.18026,20.897808
3805000000,-5.6840835,-79.305359,-69.629822,-21.36409,-74.525276,-19.496258,-17.827898,123.90154
3810000000,-16.238079,-85.5812,-70.5634,-80.439545,-72.605484,-82.514221,-25.992165,47.822788
3815000000,-3.2247972,-61.078121,-70.098381,-178.30418,-70.46312,169.2256,-27.222563,60.607487
3820000000,-11.87102,169.05051,-70.384712,89.673714,-72.311249,80.21994,-15.577348,102.25481
3825000000,-3.6591778,-43.641636,-70.781212,5.6371856,-70.792122,11.932723,-32.56979,19.764233
3830000000,-10.116026,-99.608398,-70.875473,-105.82936,-70.213181,-95.628799,-13.347333,97.454285
3835000000,-9.8571615,-54.367161,-75.725357,178.91757,-74.80088,176.60803,-21.495852,-160.41824
3840000000,-5.0309525,-88.391449,-70.755043,82.471375,-72.601837,86.402779,-22.272388,98.418251
3845000000,-24.154518,-32.562801,-74.388786,-48.627735,-75.783043,-77.038269,-18.359501,59.568287
3850000000,-5.3686061,-75.06797,-79.391518,176.06738,-75.921974,-159.32806,-21.362833,-179.27365
3855000000,-10.878087,-89.066025,-76.403786,78.98716,-78.768524,78.871361,-16.567684,38.577839
3860000000,-8.0179243,-58.528397,-72.228043,-50.779366,-72.245346,-28.799543,-17.49159,94.13459
3865000000,-5.779654,-93.300438,-71.892654,-114.96735,-73.087456,-99.899796,-21.946249,79.366508
3870000000,-14.195602,-77.111961,-70.551315,146.66147,-69.794144,155.27193,-17.922897,70.357933
3875000000,-7.0908704,-70.624832,-68.6931,42.726341,-70.073761,35.192764,-16.352076,126.75883
3880000000,-8.6157713,-119.60649,-69.789848,-51.259209,-70.41832,-58.051167,-21.057892,34.399158
3885000000,-5.9645801,-36.663391,-72.634773,-149.98386,-71.166351,-128.03,-20.794342,85.523407
3890000000,-2.6886322,-115.27011,-70.244789,124.03828,-70.043327,115.78833,-19.309954,125.92073
3895000000,-20.73485,-37.446693,-74.772621,14.301303,-75.60363,11.052154,-15.276032,2.1011808
3900000000,-3.6988218,-73.845123,-72.709946,-102.74717,-73.237366,-100.55683,-13.56593,97.444397
3905000000,-9.7263689,-128.46249,-69.369637,145.5892,-68.70874,146.45523,-24.740494,-9.0050936
3910000000,-5.8423162,-52.429317,-72.097618,11.865795,-71.693245,22.082722,-15.637126,74.98951
3915000000,-5.6860385,-129.36781,-71.370415,-49.502186,-70.710739,-39.923759,-17.712757,74.154938
3920000000,-7.0691652,-49.45718,-66.991508,-148.82507,-69.682327,-156.56308,-38.351276,-62.767464
3925000000,-5.3016939,-109.50168,-68.788246,109.20506,-69.042404,100.30775,-14.905403,71.953011
3930000000,-21.267799,-113.07207,-68.724991,13.768063,-67.189819,2.3654854,-32.716972,48.124283
3935000000,-3.4480669,-88.617332,-70.653206,-91.034561,-69.883141,-95.002281,-20.273211,21.783928
3940000000,-16.762817,-125.76534,-72.962212,163.16341,-72.568756,177.9664,-14.888479,57.687088
3945000000,-5.6943483,-94.288429,-69.461151,66.931236,-68.821678,68.293617,-24.669386,131.52567
3950000000,-6.2838044,-101.98142,-71.233047,-43.354378,-73.194946,-41.772476,-13.300083,37.526688
3955000000,-14.069247,-125.89387,-70.426605,-134.84946,-68.977699,-156.82162,-22.221716,150.14929
3960000000,-6.5984559,-90.584915,-69.638374,110.18824,-68.865738,92.89962,-17.71801,50.272976
3965000000,-9.6031981,-123.09599,-68.394402,11.167488,-67.584061,10.87106,-23.544188,43.178024
3970000000,-8.7405968,-81.605499,-70.594437,-99.393555,-70.082161,-94.877869,-24.085766,70.721466
3975000000,-1.8949012,-124.36429,-67.828239,171.26321,-67.587578,165.07178,-22.14493,-2.2771721
3980000000,-21.645346,44.163513,-69.013229,92.488068,-68.885811,93.363548,-17.201963,52.807617
3985000000,-4.2063928,-103.94186,-67.500999,-29.119061,-68.042938,-22.839653,-21.714212,53.452248
3990000000,-11.417523,-127.65067,-71.518883,-125.72302,-71.26384,-134.4558,-27.069485,-9.5708275
3995000000,-6.155879,-87.844299,-71.386192,145.65907,-69.985947,140.70865,-16.807098,68.6035
4000000000,-3.1417031,-153.123,-71.064713,-0.94777191,-69.828743,-9.131074,-27.152899,-9.1629896
END

