!CSV A.01.01
!Keysight Technologies,N5247A,US56070710,A.10.64.09
!Date: Sunday, November 20, 2022 22:10:36
!Source: Standard

BEGIN CH1_DATA
Freq(Hz),S33(DB),S33(DEG),S34(DB),S34(DEG),S43(DB),S43(DEG),S44(DB),S44(DEG)
3000000000,-4.7232938,-105.72591,-48.303703,69.455147,-48.855129,68.813087,-18.654181,-160.09477
3005000000,-6.0878839,-115.39906,-52.325706,35.555527,-51.383892,41.792885,-17.73177,-179.61987
3010000000,-3.7256711,-101.79261,-47.980118,24.082321,-48.809593,27.039118,-17.711765,-175.70555
3015000000,-6.0075264,-111.86333,-51.112278,8.3605919,-50.359985,11.007173,-16.045792,178.78455
3020000000,-4.1778636,-110.64155,-50.48362,-43.620136,-50.17318,-40.60157,-18.033075,173.16533
3025000000,-5.2530489,-104.38663,-51.626923,-80.079597,-52.702755,-57.993374,-16.417685,175.75774
3030000000,-5.8588347,-112.13668,-61.631248,-104.85553,-62.108749,-115.4233,-16.071066,168.20346
3035000000,-3.7913156,-106.97488,-58.044609,-75.588379,-54.349369,-88.062401,-17.733297,174.42848
3040000000,-5.4454188,-115.50246,-55.23246,-58.258892,-56.267868,-53.983509,-15.153131,161.67476
3045000000,-5.252727,-112.01839,-54.079548,-104.92811,-54.022118,-103.89622,-17.6973,152.6778
3050000000,-3.8636093,-109.41282,-54.113564,-109.75505,-54.106541,-108.60614,-14.047741,158.27858
3055000000,-7.1997633,-111.60278,-50.929131,-116.02366,-51.241104,-121.35471,-16.872255,145.26753
3060000000,-3.4277287,-110.79599,-48.363518,-149.90433,-50.024246,-150.88251,-15.05918,164.05789
3065000000,-5.8067751,-117.66962,-51.98772,153.86005,-52.509247,153.9409,-16.023544,143.18414
3070000000,-5.4314442,-109.2169,-53.449459,113.33791,-54.275986,132.35341,-16.085329,157.75186
3075000000,-4.6506467,-122.4339,-58.263859,108.3957,-54.352406,119.38998,-15.29983,140.39664
3080000000,-5.9946036,-103.40425,-55.445496,106.70998,-57.507187,114.70736,-16.283302,138.05507
3085000000,-3.7872853,-124.75099,-62.136475,109.36959,-61.425552,108.71997,-15.270257,143.65932
3090000000,-5.8187613,-114.10088,-61.85989,86.566956,-67.057205,126.17682,-16.197968,126.84877
3095000000,-4.8901067,-111.0053,-56.994671,128.37054,-55.000763,127.92025,-15.426325,145.83257
3100000000,-5.5733843,-128.34369,-52.160069,82.596642,-51.602638,77.762482,-14.665871,131.37122
3105000000,-4.6217208,-111.38747,-49.644142,52.792442,-50.874767,57.114349,-17.322912,141.04472
3110000000,-6.1763597,-124.51627,-54.801315,4.0244002,-53.576935,17.161791,-14.389808,126.76611
3115000000,-5.0006471,-120.12524,-53.835354,-15.985847,-53.389202,-14.888562,-17.765902,127.92879
3120000000,-5.4942408,-114.89949,-59.641876,-14.165629,-58.519623,-12.559051,-15.494944,122.59564
3125000000,-5.4197874,-132.06941,-62.723385,-60.025589,-61.282097,-70.769844,-15.694657,124.80389
3130000000,-5.9740429,-120.11613,-62.27916,-86.181435,-64.971748,-71.33036,-17.24868,129.93776
3135000000,-5.2517624,-119.60929,-67.663292,49.120472,-64.488998,76.400253,-14.205177,118.8277
3140000000,-6.4767327,-135.28194,-58.00349,-8.5810804,-57.115086,-13.767596,-17.628143,127.12972
3145000000,-3.9572468,-117.62521,-56.679012,-69.601715,-57.044708,-69.962936,-14.745352,119.10917
3150000000,-7.8604078,-137.91203,-55.411388,-94.111908,-54.049007,-96.003319,-17.599182,120.14059
3155000000,-5.1290226,-123.08718,-57.959633,-99.118416,-55.344128,-90.928772,-16.776121,124.64146
3160000000,-5.5212636,-129.01443,-53.306213,-150.64032,-53.857643,-160.19923,-16.750013,107.8987
3165000000,-8.2490005,-123.5059,-53.834705,178.22995,-52.535278,-177.20322,-15.911963,121.61088
3170000000,-3.7700377,-137.05551,-59.632351,119.82243,-61.070915,119.32925,-15.504573,116.20144
3175000000,-7.6579289,-112.6144,-65.64962,39.623146,-63.808819,89.197495,-17.352413,109.91856
3180000000,-5.876174,-136.83748,-59.576103,-155.09015,-58.457939,-157.72791,-14.789986,126.60905
3185000000,-6.8402376,-131.91901,-56.279701,164.81375,-59.689606,164.77275,-19.713596,109.31635
3190000000,-6.900835,-123.20152,-53.571518,140.30341,-54.893734,154.50919,-16.09263,128.16815
3195000000,-6.4370065,-147.26497,-56.018787,137.03604,-54.585293,139.9417,-18.552649,102.85384
3200000000,-6.4887447,-126.09484,-54.230629,93.81208,-53.647175,99.948669,-16.801323,116.44859
3205000000,-7.8365006,-140.47549,-54.015205,35.736546,-54.06097,51.064903,-15.8044,101.33626
3210000000,-5.9751892,-139.6658,-59.686901,23.16453,-58.507015,23.434288,-18.26622,113.18353
3215000000,-7.2082615,-124.51648,-77.982933,-69.37394,-81.087242,94.626419,-15.219137,107.43637
3220000000,-8.5761595,-148.48117,-60.566563,32.586147,-66.899239,124.57793,-16.82151,113.51236
3225000000,-6.3275065,-133.60207,-62.22776,-1.4616648,-64.676994,7.6823912,-16.244959,123.52416
3230000000,-7.7971878,-130.38257,-58.388313,66.011391,-59.524364,41.783577,-16.784019,100.86064
3235000000,-8.5808249,-163.44263,-54.069904,31.630278,-55.786854,41.898262,-16.329607,121.5721
3240000000,-6.6123195,-121.61029,-54.35442,-19.259253,-54.374905,-25.679239,-16.77969,100.8055
3245000000,-8.7430191,-151.72952,-54.114006,-66.912598,-52.626183,-61.827023,-17.03627,112.56826
3250000000,-8.7663612,-141.45943,-65.774902,-131.8492,-62.430248,-119.08823,-16.105164,110.69775
3255000000,-6.5434589,-140.46605,-68.574333,-89.680901,-60.655823,-135.04781,-16.256424,99.171455
3260000000,-15.085881,-139.43907,-61.180752,-77.800873,-62.489262,-47.091957,-14.873957,118.67186
3265000000,-5.5734282,-141.86052,-60.19194,-160.56335,-61.363338,-147.29161,-15.663256,103.08165
3270000000,-12.631934,-146.01006,-74.641472,-137.55437,-63.072586,-56.096786,-17.449923,115.59363
3275000000,-9.965065,-144.00444,-54.652664,-83.005096,-56.377991,-88.692833,-14.446553,99.888252
3280000000,-7.4810867,-151.94151,-51.380817,-138.99725,-52.846249,-132.12068,-18.755093,113.87159
3285000000,-11.86355,-128.2363,-53.238411,178.5408,-54.57819,-171.33186,-13.523921,101.31685
3290000000,-9.27882,-158.49599,-56.525433,144.65634,-54.662815,152.53648,-17.089531,104.23929
3295000000,-9.7737112,-135.79716,-58.250648,165.66039,-57.651268,151.31601,-14.504507,103.63272
3300000000,-14.245861,-145.85713,-61.600506,129.92659,-59.373268,123.36362,-14.25586,97.371384
3305000000,-8.4928617,-156.65527,-56.625443,67.640289,-57.560562,59.271446,-16.191263,115.70932
3310000000,-12.022359,-130.91011,-63.810825,-15.779883,-66.132164,19.255636,-14.662528,95.209305
3315000000,-11.949332,-164.01138,-56.824661,164.70006,-61.099442,175.65273,-16.754646,105.42281
3320000000,-11.136329,-160.16055,-56.769424,101.08128,-56.485622,100.76394,-14.119841,98.610191
3325000000,-9.6902208,-109.11702,-52.034294,46.749573,-55.257015,37.472721,-15.781881,80.559174
3330000000,-10.763709,173.46844,-64.537994,48.432079,-64.155334,54.671429,-13.325216,105.15942
3335000000,-11.828019,-118.54612,-56.848423,31.029181,-59.047043,37.408428,-15.679722,82.232048
3340000000,-14.217057,-157.4153,-54.993816,11.233656,-52.230984,3.4765139,-14.003566,97.263977
3345000000,-17.133108,-163.74641,-56.308445,-48.00351,-54.902828,-59.283291,-15.435815,97.60495
3350000000,-9.7252178,-130.98917,-56.56794,-134.8166,-55.313385,-122.48257,-16.015839,80.826096
3355000000,-24.293716,170.39322,-62.752365,45.650429,-59.368298,41.891094,-13.559669,95.763245
3360000000,-9.5350971,-146.0495,-53.325245,-20.907063,-54.651943,-23.105816,-17.168411,66.329117
3365000000,-21.956656,-103.79486,-56.581573,-97.944466,-57.557739,-101.50745,-13.844804,84.209
3370000000,-21.878429,-131.96899,-61.354382,-98.072342,-68.224876,-21.721563,-13.676849,77.814255
3375000000,-12.631743,-156.57938,-54.876835,-53.021606,-54.596954,-52.314808,-16.483686,90.000618
3380000000,-15.466832,-103.44239,-52.916428,-114.70841,-49.912663,-119.99329,-13.675589,77.184799
3385000000,-16.648735,167.9102,-52.605274,172.8898,-51.170555,171.50047,-16.673487,88.511574
3390000000,-12.694552,-121.11549,-59.296745,111.99984,-57.097851,93.512329,-14.481854,66.322037
3395000000,-25.405491,-55.827473,-65.484558,-47.994339,-65.078766,-57.799683,-14.656052,74.304878
3400000000,-13.800715,-141.2876,-52.655914,177.12726,-51.562862,162.3654,-17.728193,82.938683
3405000000,-16.05946,-110.70782,-59.765015,91.307129,-54.40789,97.741463,-13.638602,56.7939
3410000000,-24.577671,-46.289951,-63.572773,-74.846619,-62.442051,-111.97921,-16.270065,79.563126
3415000000,-16.20784,-140.35561,-55.682724,-178.28369,-52.047382,-168.66133,-14.976243,70.420212
3420000000,-13.307836,-73.658203,-49.386883,110.30309,-49.268078,111.31573,-15.975762,62.745937
3425000000,-18.55555,144.91776,-54.967796,34.244335,-53.916573,36.272995,-15.379528,79.557907
3430000000,-13.532504,-85.660294,-60.33445,-3.5988915,-65.181229,-41.483582,-18.246786,44.878113
3435000000,-15.305785,-99.575172,-57.091927,110.05907,-57.402985,101.48432,-15.916507,77.867012
3440000000,-27.675537,22.505054,-51.79052,14.916176,-51.824776,29.016878,-16.92728,47.533588
3445000000,-11.309531,-106.63603,-55.497467,-91.87439,-52.684872,-75.505669,-17.821291,59.27401
3450000000,-15.520803,-0.15846017,-61.258057,147.10559,-63.229527,168.11145,-14.228945,66.39814
3455000000,-13.913754,-117.8763,-54.387127,27.63431,-51.334759,30.404707,-21.070486,56.005779
3460000000,-15.316907,-83.7836,-52.860588,-47.919025,-52.122372,-43.326523,-14.783133,60.121189
3465000000,-16.761972,-28.529337,-54.128834,-110.88629,-53.658997,-94.502571,-20.89061,72.120354
3470000000,-14.591599,-124.8896,-59.320736,21.557318,-60.366692,-14.201382,-18.553728,65.614059
3475000000,-11.948794,-52.72945,-53.911991,-92.01001,-54.16114,-87.695831,-17.74592,52.591286
3480000000,-19.789993,-37.147682,-50.168633,-116.6151,-51.721123,-125.83015,-22.030266,70.93338
3485000000,-11.60074,-98.914299,-58.15852,130.767,-57.514675,142.87752,-16.647472,48.860603
3490000000,-16.553713,-35.633446,-68.491539,91.763206,-68.242111,-37.657612,-19.16153,60.25808
3495000000,-20.154608,-72.649216,-55.746593,-115.86681,-56.852943,-151.23369,-19.514431,64.500305
3500000000,-12.06097,-78.888802,-55.711864,156.21526,-57.398365,155.56589,-18.432583,52.604027
3505000000,-12.246999,-45.763885,-59.56292,121.32697,-67.94397,133.9111,-17.886665,92.452591
3510000000,-15.992573,-129.51292,-56.663769,-157.8837,-56.043549,-166.51273,-20.433226,48.651054
3515000000,-10.230665,-53.383553,-53.334183,142.72502,-51.880264,149.6916,-23.033817,75.538406
3520000000,-19.227472,-69.959435,-53.538067,93.38028,-53.190063,99.703583,-17.822107,62.96278
3525000000,-13.296684,-74.899902,-56.854244,54.000599,-56.726696,50.196968,-22.434258,41.207092
3530000000,-9.380415,-72.599167,-59.4496,88.550026,-61.653446,101.7328,-16.626329,77.056297
3535000000,-19.892387,-13.685062,-59.196957,65.548248,-58.213589,37.363094,-21.84255,72.144608
3540000000,-9.2996597,-92.535774,-53.433273,-5.4992895,-54.54224,2.2528207,-18.452524,82.623611
3545000000,-11.75659,-30.476015,-66.478569,-20.979763,-69.301163,23.163605,-18.607157,65.282349
3550000000,-13.602106,-84.01181,-61.000797,56.873253,-61.820953,75.201462,-22.980072,110.08953
3555000000,-12.801792,-89.713654,-56.876328,5.8534245,-55.037567,18.928244,-17.61813,62.305122
3560000000,-9.791419,-42.89621,-58.752399,-36.439201,-61.31525,-7.0873275,-23.590305,73.397491
3565000000,-14.05588,-117.51776,-65.80497,6.5432596,-63.874428,-55.703415,-19.471386,87.139893
3570000000,-8.5062571,-63.122089,-57.709801,-46.20327,-56.489819,-29.73501,-19.106396,44.786968
3575000000,-16.474756,-47.918213,-55.614433,-94.665047,-53.030968,-96.078812,-16.015974,94.021896
3580000000,-10.788786,-92.564217,-56.974216,-160.79086,-57.418617,-159.20146,-21.315088,44.374626
3585000000,-9.1199999,-50.635311,-66.593712,-143.80132,-66.434731,-172.10411,-17.630535,95.12899
3590000000,-15.36038,-83.631737,-63.6049,-118.33241,-59.209579,-95.76738,-20.839182,69.606094
3595000000,-10.270907,-88.801399,-58.317749,-162.3824,-64.776421,-177.96359,-20.396519,55.800938
3600000000,-9.3514242,-42.201801,-66.058365,-148.97194,-66.909828,63.969032,-17.455343,92.174904
3605000000,-14.178997,-93.797981,-61.446289,-64.231369,-61.848461,-98.882317,-20.754114,51.961033
3610000000,-8.3872299,-69.075935,-54.994656,176.90131,-57.10527,171.05119,-17.968487,65.048126
3615000000,-13.457668,-64.051811,-54.358994,117.4287,-54.079098,98.170547,-17.532022,73.394951
3620000000,-14.437635,-74.914139,-62.267857,91.390518,-68.223564,111.07333,-23.449324,84.868904
3625000000,-6.5766544,-76.994759,-57.063328,141.49937,-56.404613,141.34154,-15.32635,67.784096
3630000000,-16.610518,-7.3426542,-56.146603,60.267662,-53.405018,52.23222,-27.258202,96.855049
3635000000,-6.9455252,-93.960785,-55.786716,-6.2988153,-55.863701,0.28781617,-16.866539,66.605141
3640000000,-9.1817865,-49.421215,-62.636265,116.58485,-66.298721,120.89231,-20.402765,65.853645
3645000000,-12.73557,-67.246628,-55.84153,93.648773,-57.566391,104.55327,-21.974115,69.323822
3650000000,-10.097535,-91.1008,-54.447529,17.388638,-57.148964,36.241802,-18.455439,45.269226
3655000000,-7.3616724,-39.419262,-61.155487,-40.134415,-61.616322,-24.146202,-19.181643,78.889359
3660000000,-12.481449,-98.463684,-68.956314,69.309372,-63.010841,50.871658,-18.914146,59.843258
3665000000,-8.2806177,-70.329391,-56.689041,14.499466,-54.867249,-6.2025275,-20.98077,50.739086
3670000000,-13.032157,-44.879581,-54.522415,-88.647751,-54.874783,-69.018013,-16.746668,83.964684
3675000000,-10.895842,-85.065048,-54.689236,-165.10277,-65.284439,-179.02901,-22.830704,29.093864
3680000000,-7.5997152,-71.233276,-65.504662,81.611717,-57.469913,45.45359,-19.545563,76.92746
3685000000,-12.07891,-42.176033,-57.499027,-71.179291,-62.641895,-57.711205,-22.174898,49.508984
3690000000,-10.082396,-95.69593,-60.154831,-167.38231,-61.808079,-158.17259,-22.870094,60.364719
3695000000,-6.6213908,-44.550159,-63.260921,8.6717796,-61.829193,-16.482801,-16.275818,55.226006
3700000000,-13.983707,-104.82465,-56.679405,-86.007156,-57.446831,-95.342087,-29.881887,89.698677
3705000000,-8.3355665,-68.075127,-53.297554,-143.3728,-52.38335,-132.97038,-16.569798,57.535801
3710000000,-9.553381,-55.360355,-56.831207,163.84624,-54.269268,155.89774,-25.440092,66.992653
3715000000,-12.7023,-58.800472,-62.27018,61.519768,-72.130379,67.267181,-20.120405,78.08992
3720000000,-5.2457128,-81.469063,-63.05286,-157.5788,-66.047546,-177.1748,-23.860954,63.066483
3725000000,-14.232118,-7.9929352,-60.210884,119.90773,-62.007904,160.88635,-22.896917,73.622284
3730000000,-7.5152006,-80.557068,-60.656727,15.445648,-57.19075,43.431164,-20.512516,51.515911
3735000000,-8.8207798,-60.826477,-58.21986,-117.63599,-64.20266,-122.95208,-21.966572,67.02887
3740000000,-9.7978945,-48.557079,-56.387028,-173.35378,-56.467827,-175.03236,-20.050474,99.218819
3745000000,-7.6059656,-96.134819,-53.420902,93.108871,-56.468277,95.614868,-23.049992,21.773073
3750000000,-7.7183461,-39.492218,-55.879768,56.52552,-58.008049,66.335228,-18.204935,106.28742
3755000000,-12.885767,-81.627274,-63.702454,21.57563,-63.249805,49.927677,-23.012985,46.73262
3760000000,-5.4695525,-72.695114,-58.725574,10.472065,-60.215508,60.279369,-21.981426,107.86185
3765000000,-9.0531254,-48.167763,-55.848137,2.2365041,-59.086994,-11.700381,-20.337786,53.381783
3770000000,-10.616545,-82.672722,-58.492718,-96.046494,-56.539932,-54.324898,-27.603468,89.972412
3775000000,-6.8219271,-66.350281,-59.713215,-152.14766,-66.748901,-144.62357,-17.331671,74.723503
3780000000,-8.9854956,-38.447765,-61.349693,32.290367,-66.360764,65.106056,-24.367653,95.333313
3785000000,-8.0506325,-93.559937,-64.222374,-17.062357,-63.463551,-15.098577,-20.075253,87.905434
3790000000,-5.7257681,-51.993786,-61.447151,-48.700611,-66.120628,-72.05587,-17.779911,78.428932
3795000000,-11.942059,-77.924576,-63.549274,-27.266354,-67.692795,-37.342129,-21.380089,131.13792
3800000000,-7.6747103,-65.449905,-56.229012,-55.625065,-61.747723,-57.344624,-19.434956,66.775566
3805000000,-4.9256182,-61.642963,-57.086559,-104.36863,-56.414986,-127.52196,-24.237751,102.11711
3810000000,-17.839157,-77.284996,-58.297596,170.83388,-60.034054,166.03183,-17.19232,88.55793
3815000000,-3.7128212,-71.239838,-62.395729,91.277115,-72.372826,45.140953,-23.1996,70.145744
3820000000,-11.371299,-42.406113,-65.81427,-90.536316,-76.134285,-13.916652,-17.39045,97.306557
3825000000,-6.6372514,-72.328377,-62.551075,-172.19548,-63.344227,-172.76418,-17.927937,67.311638
3830000000,-6.3220696,-76.861542,-64.388298,172.63799,-61.226978,108.47025,-17.353262,112.45329
3835000000,-7.93817,-43.464851,-61.225426,-138.9418,-61.203472,176.09901,-18.695175,91.926933
3840000000,-6.9550972,-94.051704,-60.291351,151.39122,-58.859932,-179.22563,-27.563292,108.27071
3845000000,-4.6283927,-52.6716,-55.880772,111.26626,-62.130535,133.21017,-15.201667,80.53978
3850000000,-9.1100731,-69.941093,-59.067448,81.662346,-57.318474,56.824619,-24.829315,91.538979
3855000000,-5.458962,-88.703728,-59.992157,-24.141048,-63.080238,14.927588,-16.438021,74.288139
3860000000,-6.1880903,-47.32375,-61.502922,25.750729,-63.677864,61.21402,-18.421904,74.385368
3865000000,-7.8870234,-72.109825,-63.058285,31.456907,-77.211639,65.576172,-17.213104,80.001678
3870000000,-4.6623626,-81.423653,-61.565651,-24.676241,-74.547516,-129.48392,-16.198412,89.12191
3875000000,-5.814177,-49.097122,-70.756561,-62.198353,-63.546242,-22.953035,-19.795481,79.280502
3880000000,-7.8494334,-106.60915,-59.090492,78.481361,-60.312702,69.792397,-16.306416,94.451363
3885000000,-3.5027528,-55.724873,-57.876926,4.8263454,-61.998875,-13.245756,-18.429451,49.098427
3890000000,-6.8243327,-79.156166,-67.031693,-5.8763971,-56.491234,-45.63485,-16.300385,103.79679
3895000000,-7.7341709,-77.838425,-65.565392,-57.384647,-74.812675,-173.1304,-16.709728,30.063576
3900000000,-1.896343,-69.362152,-57.204567,-99.804802,-61.404949,-59.419914,-14.51648,92.741058
3905000000,-17.026472,-78.280327,-63.326611,-92.903099,-63.486572,-114.86552,-18.364477,56.342041
3910000000,-3.0395305,-72.519646,-67.925011,-106.21989,-66.177727,-167.33328,-16.40868,78.30545
3915000000,-5.8786826,-66.642395,-78.557114,49.085278,-70.517708,87.518021,-16.686296,74.657379
3920000000,-6.9307966,-76.438904,-65.63308,21.90089,-63.086544,-29.665922,-17.943405,61.650177
3925000000,-4.110209,-85.477066,-58.55077,-85.583977,-58.766262,-87.57296,-17.704634,80.004257
3930000000,-6.5340476,-47.329319,-66.538712,-117.20921,-61.01379,-135.81381,-17.149765,53.435932
3935000000,-5.1790609,-91.466209,-60.228165,-178.94124,-61.834629,-162.12283,-20.630869,76.60981
3940000000,-3.2053852,-69.665741,-56.280212,178.29327,-58.104801,-179.54121,-13.558871,51.178596
3945000000,-8.9013224,-75.660728,-56.351372,112.12917,-64.702637,92.759445,-20.189787,89.42662
3950000000,-3.8472958,-86.609734,-68.013313,110.78793,-59.143764,75.79274,-14.397861,53.263371
3955000000,-4.9998789,-65.448006,-59.440823,-22.742599,-61.257019,14.628898,-20.961998,72.502861
3960000000,-6.789577,-70.898354,-72.230827,31.90407,-74.690231,99.913231,-16.502213,59.770691
3965000000,-3.1819966,-101.04755,-63.43718,126.32944,-63.533176,-165.82193,-18.481024,62.093456
3970000000,-4.5308332,-46.455685,-69.473434,128.54147,-67.262764,75.465797,-20.767641,59.662045
3975000000,-4.007462,-109.23268,-59.034519,105.70999,-58.194061,86.363235,-15.256692,51.359367
3980000000,-4.1618147,-67.297699,-64.947815,47.021622,-63.281525,31.33658,-22.207739,45.53701
3985000000,-4.3746638,-74.945656,-58.685966,-3.5890484,-60.831947,16.529984,-14.262265,60.792938
3990000000,-7.2615037,-107.50233,-63.542709,-47.161209,-57.934608,-28.113836,-24.498775,29.439062
3995000000,-1.6095842,-72.265335,-63.681278,-82.119675,-63.224136,-71.466583,-15.741837,65.685974
4000000000,-9.0399971,-101.44465,-60.766785,-126.99799,-59.490532,-117.34068,-21.002674,41.793732
END

