!CSV A.01.01
!Keysight Technologies,N5247A,US56070710,A.10.64.09
!Date: Saturday, November 19, 2022 01:10:53
!Source: Standard

BEGIN CH1_DATA
Freq(Hz),S33(DB),S33(DEG),S34(DB),S34(DEG),S43(DB),S43(DEG),S44(DB),S44(DEG)
3000000000,-13.298447,-149.88074,-58.868324,-101.0134,-58.7798,-106.38245,-14.218791,-145.9689
3005000000,-10.895376,121.43389,-64.408226,155.09647,-64.936668,152.82837,-16.76511,-156.67809
3010000000,-16.325029,153.52745,-63.921661,7.8802943,-63.703835,-0.22346623,-16.89867,171.7305
3015000000,-10.55158,157.49794,-61.119629,-87.37252,-61.170509,-91.511162,-12.451066,-153.89795
3020000000,-15.332911,83.324677,-63.93499,-157.04414,-63.704056,-155.50212,-21.834972,-169.68391
3025000000,-11.06084,161.80737,-62.537998,87.393448,-62.782394,83.688911,-12.444163,-176.99847
3030000000,-16.733839,118.56223,-61.229259,-9.2515001,-61.251572,-10.15772,-16.469845,-169.18443
3035000000,-18.14583,131.18323,-70.297577,-112.42897,-69.76886,-119.29758,-19.33511,-168.99564
3040000000,-7.2287884,149.01889,-64.185768,119.24927,-65.125282,110.88571,-11.96954,169.7988
3045000000,-15.944313,65.707405,-59.394512,18.216766,-59.766193,15.903382,-19.837173,-169.86954
3050000000,-12.505107,141.96457,-61.224625,-66.346207,-60.681503,-67.937141,-13.627827,159.14427
3055000000,-11.909497,126.17902,-66.132462,177.7309,-66.107735,168.91064,-14.581314,176.77225
3060000000,-22.251665,152.56602,-59.69706,81.484764,-59.115128,80.104332,-15.369687,-179.30153
3065000000,-6.553411,125.83701,-64.826492,-13.926902,-64.700027,-31.133694,-14.587773,143.58406
3070000000,-27.309477,87.973206,-61.725742,-155.90573,-61.971584,-159.73482,-15.089272,-164.06227
3075000000,-9.7124863,123.45813,-60.117313,121.74491,-60.449551,119.91444,-15.66853,142.69193
3080000000,-9.9931173,108.18388,-61.215206,4.5263844,-60.989231,4.0749531,-14.796649,152.00383
3085000000,-15.06278,-157.56195,-59.063347,-105.79352,-59.609138,-109.64388,-15.689716,175.99237
3090000000,-6.2338147,102.53024,-59.397522,164.44164,-59.263824,158.08195,-16.432156,127.95889
3095000000,-17.658272,165.44223,-61.370098,61.302521,-61.685638,62.588486,-12.771064,166.51494
3100000000,-9.0453472,117.50727,-59.814842,-38.798653,-59.532162,-38.391594,-18.105921,135.38864
3105000000,-10.652397,81.361687,-61.205978,-154.13341,-61.254623,-156.05959,-17.586939,154.92125
3110000000,-10.594523,159.50668,-62.416973,93.824806,-62.309578,90.691574,-12.915096,151.59155
3115000000,-11.751583,77.073257,-58.808357,-17.016441,-58.888554,-21.941576,-25.535563,125.14951
3120000000,-9.2555799,127.66553,-58.784344,-99.661171,-58.535545,-103.08665,-13.381223,135.43745
3125000000,-10.315609,120.88509,-59.744316,144.35611,-60.387234,140.03984,-17.699535,155.81456
3130000000,-9.006155,58.195099,-60.067219,34.772839,-59.315922,32.781857,-17.128555,133.56236
3135000000,-9.9666204,142.93233,-61.166145,-59.182102,-60.776615,-64.910316,-14.080399,129.96161
3140000000,-12.341875,96.295731,-60.396839,-175.24382,-60.094208,-175.03691,-20.083214,178.68513
3145000000,-12.06546,104.78542,-57.7005,77.615227,-57.470726,75.04908,-14.087276,125.96249
3150000000,-6.4937167,112.20312,-60.081062,-13.297902,-59.821842,-14.098408,-18.110487,140.07191
3155000000,-11.861255,38.984863,-60.338387,-131.59224,-60.322865,-135.50647,-19.537622,154.10132
3160000000,-9.3717537,117.55436,-60.47266,139.65533,-60.325188,139.17732,-15.457332,110.96596
3165000000,-11.938593,89.7901,-59.790218,30.345625,-60.014149,29.552715,-15.759147,156.79977
3170000000,-11.667983,122.79369,-62.541054,-83.094398,-61.563534,-82.939438,-17.344421,107.97579
3175000000,-6.1488619,85.259987,-57.940521,-178.77545,-58.094429,175.21431,-17.638439,142.07529
3180000000,-23.016705,79.179344,-60.311398,77.459641,-59.621601,75.101059,-14.027665,148.08479
3185000000,-6.837842,80.555153,-59.490234,-32.476452,-59.81741,-36.024349,-22.424807,83.215538
3190000000,-15.350224,85.193062,-58.362156,-134.23804,-58.520386,-136.07799,-14.025142,151.17491
3195000000,-11.27562,119.6949,-60.800838,131.95294,-60.91156,132.82149,-24.975677,114.10567
3200000000,-5.6614141,74.3573,-59.159321,3.2437456,-59.611111,-0.50451016,-16.020607,123.58723
3205000000,-12.508724,105.69056,-56.836075,-83.649269,-57.150558,-85.417511,-17.242764,129.19966
3210000000,-9.3006697,51.629757,-59.446503,162.12985,-58.970436,162.05901,-24.170815,143.82237
3215000000,-14.805677,91.010834,-58.980385,61.911293,-59.09375,61.046967,-13.437908,121.13253
3220000000,-8.8816662,108.88249,-58.811848,-45.40295,-58.96595,-47.947842,-20.469643,139.71082
3225000000,-7.4865818,58.709747,-59.963009,-143.22833,-59.860912,-149.07353,-19.256649,139.51962
3230000000,-10.827921,77.149193,-60.174412,112.74339,-59.941486,108.29279,-15.492621,119.6218
3235000000,-10.019801,72.869576,-59.209576,-0.48331746,-59.035919,-5.0344129,-20.078075,158.9258
3240000000,-10.19948,38.466625,-60.200768,-100.26981,-60.090336,-107.30659,-15.895526,101.77504
3245000000,-8.6823702,115.78176,-59.962505,150.54193,-59.002052,147.90118,-18.026554,153.67906
3250000000,-8.8464613,50.954239,-59.848133,43.367695,-60.134552,44.939388,-16.467152,122.69905
3255000000,-8.257061,80.675049,-60.032703,-58.079369,-60.161514,-56.715595,-18.083616,94.409561
3260000000,-7.5712857,45.679249,-59.360947,-163.4473,-59.532589,-162.40878,-14.166952,149.11189
3265000000,-18.528519,8.4670725,-59.238556,95.801659,-59.034763,96.095528,-19.417589,102.84173
3270000000,-5.8175421,88.638542,-59.461021,-10.020617,-59.487904,-12.256185,-16.091099,128.98328
3275000000,-12.178141,37.199139,-58.598755,-118.15472,-58.540649,-117.62155,-17.940907,118.87463
3280000000,-7.4573636,76.345375,-59.370781,133.43953,-59.420982,129.57626,-20.326134,120.15792
3285000000,-7.1550899,39.937065,-60.3834,33.161663,-59.606049,30.841549,-13.195833,115.38342
3290000000,-23.771755,-22.196747,-59.679108,-69.437508,-59.847939,-70.323807,-21.223406,116.38559
3295000000,-6.616344,62.65276,-59.219158,-167.41273,-59.034561,-176.39444,-16.056137,122.57092
3300000000,-11.835456,65.892143,-59.318871,73.259132,-60.043804,70.912834,-14.352006,108.93687
3305000000,-8.976738,49.847485,-59.899033,-24.342701,-60.052319,-27.408276,-19.048626,144.0822
3310000000,-7.1948795,40.654293,-58.204739,-126.56799,-58.531918,-131.12054,-14.47871,96.554466
3315000000,-18.627113,55.941891,-59.929153,123.77641,-59.274055,115.53625,-18.159945,147.00513
3320000000,-8.1151457,42.90081,-59.16568,15.961908,-59.871342,14.192222,-14.8734,96.753616
3325000000,-13.861782,49.080994,-60.694614,-93.036736,-60.715488,-93.945496,-18.572247,86.693863
3330000000,-9.5864201,62.905613,-59.237064,162.26064,-59.813694,160.97426,-13.43813,124.36333
3335000000,-5.148736,18.878225,-59.973473,59.909515,-60.090885,58.881832,-17.341593,77.260887
3340000000,-15.034197,71.583519,-59.296844,-49.719337,-59.380291,-49.945744,-13.7752,115.54123
3345000000,-8.7251987,23.388617,-61.037842,-153.2775,-61.343723,-156.45676,-19.195818,109.73466
3350000000,-12.181767,36.822052,-60.115498,95.179893,-60.344448,91.072014,-17.393202,90.069458
3355000000,-7.4570103,65.830147,-60.396,-3.1762319,-60.386646,-5.8917494,-14.488376,107.94128
3360000000,-7.9396257,-8.9472485,-60.308369,-104.25375,-60.435791,-104.78548,-21.423702,54.549877
3365000000,-7.4392095,54.266834,-62.491516,141.04196,-63.090816,139.69476,-14.078551,96.736855
3370000000,-9.4240227,-8.9640789,-63.007767,36.065865,-63.312077,29.883799,-15.357246,87.668495
3375000000,-12.072775,48.766052,-61.761009,-79.714432,-62.071774,-77.423622,-21.224348,95.138763
3380000000,-7.4447327,42.279484,-61.682049,177.80316,-61.800484,173.06772,-13.003966,87.246307
3385000000,-13.44173,18.215399,-63.188126,67.374779,-63.096352,65.75322,-24.116982,112.21801
3390000000,-6.0217075,15.845678,-65.801537,-38.911556,-65.447906,-30.044937,-14.91349,76.700867
3395000000,-14.920395,18.746731,-65.150955,-135.99417,-65.082199,-143.72455,-17.637501,77.305275
3400000000,-13.740172,9.1836214,-65.980553,110.03976,-65.241913,107.48165,-20.180506,113.50956
3405000000,-7.6350293,22.519724,-66.610252,15.221307,-66.520546,12.318807,-13.384002,49.831348
3410000000,-11.17318,35.692684,-70.257164,-89.418571,-73.272385,-84.986031,-18.532785,116.30489
3415000000,-6.7537799,2.7189755,-66.732651,152.02353,-66.128067,140.3877,-15.965639,62.769543
3420000000,-9.5735073,8.3852358,-71.005142,41.779377,-72.485191,30.918755,-19.655823,63.984699
3425000000,-21.889824,44.417904,-68.689384,-41.617706,-67.881615,-44.228878,-16.110212,101.4258
3430000000,-6.305408,15.210942,-73.083336,-114.22871,-72.514656,-112.62828,-18.41958,17.741907
3435000000,-14.330041,17.630129,-74.259171,151.25183,-72.417236,161.14517,-16.626953,101.81503
3440000000,-7.1380157,9.7330561,-83.227119,66.066139,-86.997047,28.085566,-18.86282,32.762871
3445000000,-9.6990042,-24.11318,-80.229324,-28.867651,-81.428947,-73.831238,-21.63937,66.852615
3450000000,-10.208319,47.276218,-73.507431,155.04137,-73.243637,161.65152,-15.558143,71.112389
3455000000,-8.7476702,-26.011192,-71.384918,150.61298,-72.312813,140.34619,-32.304256,-2.8664494
3460000000,-10.421812,43.681267,-72.058502,-0.099573344,-74.642616,-3.0392797,-15.111656,70.58371
3465000000,-6.3921609,-7.2466164,-70.197853,-63.633499,-70.139091,-69.115425,-27.182394,79.21685
3470000000,-14.05796,-37.368176,-72.313347,-179.37921,-71.653671,171.69984,-26.173637,65.482529
3475000000,-7.9527588,26.071581,-67.098412,63.323395,-68.809296,70.121269,-18.500957,59.606045
3480000000,-10.535586,-39.790863,-68.773277,-33.600975,-67.655907,-45.421227,-49.47958,1.0581014
3485000000,-8.832799,14.184398,-69.290634,-133.34544,-70.721451,-126.84941,-17.555281,53.229485
3490000000,-11.597815,-0.23643896,-67.217377,105.7475,-68.410683,106.47772,-26.558466,59.269356
3495000000,-11.302585,-11.477553,-67.591049,-8.3589287,-68.679359,-11.983705,-21.668362,89.519402
3500000000,-7.9660578,-1.9824799,-65.40625,-92.842682,-66.975494,-95.80397,-19.112835,32.809696
3505000000,-15.571222,-32.460472,-65.340607,150.44095,-65.612091,148.09491,-19.241602,137.23524
3510000000,-10.327176,-11.026139,-65.437012,47.152245,-64.973076,42.726883,-21.688955,30.523067
3515000000,-9.3562593,8.9001265,-65.525658,-63.603897,-65.622047,-60.351677,-31.29347,122.27145
3520000000,-16.427868,-21.787806,-66.846313,-178.16054,-66.051399,-178.68097,-20.736208,72.948257
3525000000,-6.3218522,-11.370971,-64.793076,85.395576,-64.433975,85.146988,-27.248314,-21.089346
3530000000,-14.540496,-46.739635,-64.174301,-21.414564,-63.70966,-19.890253,-16.483967,87.761009
3535000000,-12.878529,-2.5724573,-64.175537,-123.26213,-64.396164,-124.23333,-35.050114,16.294308
3540000000,-9.1912127,-24.823454,-62.142586,123.91431,-62.602604,120.01437,-20.592882,105.6139
3545000000,-11.498391,41.453945,-64.611443,25.60323,-64.422897,20.482803,-22.501499,69.087822
3550000000,-4.6661935,-32.454147,-61.392197,-86.498665,-61.85038,-89.34494,-24.998573,165.4494
3555000000,-25.641979,-15.033539,-64.228889,165.02715,-64.140388,162.13666,-20.397142,62.792313
3560000000,-10.615579,-18.399233,-62.840439,46.693832,-62.650345,39.63269,-32.695145,124.27275
3565000000,-17.500353,-48.732365,-62.316307,-63.384819,-62.694862,-64.763634,-22.275419,94.947021
3570000000,-6.1465249,13.447989,-63.160069,-168.05986,-63.670845,-166.32925,-21.239843,30.594341
3575000000,-9.8728247,-59.105213,-62.940639,89.776718,-62.993172,84.809692,-17.099072,124.1687
3580000000,-10.932412,-30.88953,-63.618603,-24.885799,-63.291508,-30.436289,-22.599817,22.031754
3585000000,-12.971177,-12.78732,-62.452557,-125.39039,-62.812538,-128.00003,-18.874674,124.77789
3590000000,-18.879959,-80.359657,-61.285496,119.13464,-61.415924,116.99275,-24.410917,69.428604
3595000000,-6.2673659,4.7059231,-62.135456,15.106401,-62.978462,11.47072,-31.620029,56.418762
3600000000,-9.7442646,-41.110703,-61.632641,-97.49913,-61.313229,-98.201569,-18.706772,101.61611
3605000000,-10.441764,-56.941582,-61.278492,149.98225,-61.610538,143.96506,-27.653229,2.2679391
3610000000,-11.718266,-11.848961,-59.769791,39.609257,-60.490063,32.675922,-20.441891,80.241592
3615000000,-42.773865,-4.3688631,-59.425472,-71.861603,-59.642288,-74.027817,-19.745728,77.533501
3620000000,-6.5626817,-3.3419161,-60.436329,-172.6198,-61.212135,-178.76727,-30.174158,153.92073
3625000000,-7.1998444,-54.368675,-61.693184,78.400452,-60.496773,74.702614,-15.632015,70.912247
3630000000,-20.668278,39.820797,-61.390213,-31.597931,-61.477295,-32.564571,-26.563887,-140.8821
3635000000,-6.4575782,-59.474857,-60.525284,-142.9296,-60.570339,-140.60365,-17.295954,85.246033
3640000000,-14.173473,57.834465,-60.429836,113.87228,-60.523384,111.56882,-28.1306,26.150888
3645000000,-5.9891429,-32.187244,-60.499908,1.9853958,-61.058994,-1.1194097,-24.218565,134.98564
3650000000,-15.912983,-60.608612,-60.705677,-104.06321,-60.040031,-105.52153,-18.248585,28.656845
3655000000,-6.7387981,-6.7530522,-59.702175,141.86378,-59.901997,141.7438,-22.702017,127.78921
3660000000,-6.8903961,-88.882469,-59.968781,43.630352,-59.918182,35.834831,-19.559675,52.798653
3665000000,-10.200753,50.199486,-59.700542,-67.803825,-59.571762,-68.512558,-31.527409,-17.985344
3670000000,-8.5559874,-36.366249,-61.358746,-177.26741,-60.978241,-178.17101,-15.302908,105.41245
3675000000,-11.310237,-36.24519,-60.234936,74.397171,-60.455311,70.224281,-19.8099,-38.676727
3680000000,-8.5002737,-36.007259,-59.712566,-25.419321,-60.298714,-27.159506,-18.468504,117.1889
3685000000,-11.949765,-84.026009,-60.20945,-136.17381,-59.899761,-135.74792,-23.593712,-6.8988333
3690000000,-12.683646,5.6210942,-60.773083,121.49643,-60.695168,117.99545,-31.069603,91.276131
3695000000,-8.0043592,-21.112494,-60.564674,9.254344,-59.946281,8.0642185,-17.928148,52.94907
3700000000,-12.200067,-74.773384,-60.074013,-98.940392,-60.926338,-101.71923,-24.677542,-136.87088
3705000000,-6.5391846,-19.677004,-60.673405,159.43127,-60.057228,156.93671,-17.316174,69.045464
3710000000,-11.811441,-113.3805,-59.660912,54.243896,-59.743198,53.339069,-34.322403,-17.636112
3715000000,-8.2359304,-3.6942744,-60.57103,-60.814358,-60.899136,-61.75935,-24.86644,135.33536
3720000000,-7.6585445,-55.4879,-60.919739,-153.75905,-60.681675,-159.21771,-23.18644,43.796364
3725000000,-25.108421,40.964088,-60.287899,97.911018,-60.425407,93.100967,-28.903072,171.79568
3730000000,-3.8920491,-37.20026,-60.092617,-9.3017187,-60.186821,-15.911481,-21.979017,44.191376
3735000000,-18.836426,-128.91145,-60.449512,-117.56091,-60.048229,-117.71237,-31.8267,146.7028
3740000000,-7.8572888,-26.983702,-61.010277,148.05638,-60.779713,148.23259,-20.294924,114.44599
3745000000,-9.1539898,-70.150383,-60.399551,30.378687,-60.949135,33.119423,-22.271587,-19.757565
3750000000,-12.018062,22.500948,-59.989319,-66.031876,-60.170368,-68.999992,-18.277092,141.55649
3755000000,-6.2302599,-66.429558,-60.110588,-174.92606,-59.766148,176.75533,-26.10918,40.102245
3760000000,-11.432128,-23.740837,-60.005848,74.836372,-59.903828,72.561897,-25.682909,176.2975
3765000000,-7.7289963,-59.516918,-59.790192,-22.229214,-59.407749,-24.696676,-23.445255,75.325516
3770000000,-13.060788,-92.615494,-60.859226,-130.11237,-60.401176,-129.59433,-26.121603,-127.92282
3775000000,-7.1716595,2.1857677,-59.673916,126.17335,-59.652653,128.60214,-16.578257,87.720367
3780000000,-6.9054179,-70.462074,-59.689903,24.135088,-60.186813,17.117203,-28.649477,-109.1108
3785000000,-10.881551,-51.027412,-59.885796,-82.133072,-59.906281,-83.877281,-20.41893,124.28596
3790000000,-8.8627691,-43.368713,-59.47776,176.14069,-59.877335,175.55545,-21.486109,80.348625
3795000000,-9.7523012,-104.65531,-59.92371,67.93261,-59.569553,66.212448,-20.809959,172.74358
3800000000,-7.0855017,-1.8248383,-59.959373,-41.575775,-60.157116,-44.815125,-22.792059,74.599396
3805000000,-6.1268444,-66.6315,-60.034771,-147.77896,-60.549477,-147.97365,-23.28581,173.42004
3810000000,-15.290527,-71.774864,-59.388844,114.47994,-59.455681,108.25543,-18.973305,96.211266
3815000000,-4.1954751,-53.858757,-60.825237,9.1658783,-60.75293,7.7474613,-29.404398,-26.955975
3820000000,-14.06228,173.55531,-60.229996,-95.32692,-59.648682,-95.048782,-15.616983,124.58432
3825000000,-3.4165659,-33.593189,-61.123371,159.48683,-60.182758,159.24995,-23.049303,47.861855
3830000000,-9.9707766,-99.044037,-59.882107,58.933933,-59.769226,59.059616,-16.509527,132.59171
3835000000,-9.5884066,-35.946499,-60.853554,-57.527603,-59.451008,-55.013508,-25.592201,123.21416
3840000000,-5.3523731,-82.242744,-59.448608,-156.84006,-58.702702,-156.49266,-25.473906,160.89606
3845000000,-22.093725,2.5054512,-59.937931,98.41478,-59.021202,96.036171,-17.269552,88.076164
3850000000,-4.8238077,-62.605186,-58.848835,-1.33042,-59.193321,-3.7031238,-30.249783,-131.65724
3855000000,-11.426404,-87.247894,-59.815247,-107.82944,-59.496151,-108.48928,-18.949461,98.37661
3860000000,-7.9221482,-45.676659,-60.753159,153.76529,-59.832485,151.43454,-18.673338,70.403328
3865000000,-6.6932716,-86.023109,-60.198868,41.456722,-59.800373,41.220139,-21.723776,128.12434
3870000000,-12.79916,-51.921856,-60.346256,-64.991074,-59.676552,-63.493786,-17.165062,82.80471
3875000000,-6.550477,-68.106125,-59.676422,-162.62001,-59.645054,-166.70291,-21.15204,144.36508
3880000000,-10.974715,-108.33541,-59.103584,87.808022,-58.888985,83.186096,-17.882582,88.372314
3885000000,-6.279983,-33.44841,-59.572556,-13.195477,-59.470966,-14.043357,-27.376091,47.175869
3890000000,-3.9578829,-103.33746,-60.160465,-120.26847,-59.43129,-124.91866,-16.402897,138.35217
3895000000,-15.466434,-37.284054,-60.766857,133.60696,-60.247875,132.76343,-15.142438,20.992212
3900000000,-4.2178507,-71.885498,-58.882748,35.522747,-59.970242,37.556252,-16.519573,127.01427
3905000000,-12.604197,-117.01537,-59.75375,-72.628868,-59.806847,-74.045311,-19.352995,50.63213
3910000000,-5.5807204,-43.232132,-60.794872,-176.90665,-61.088436,-175.96165,-21.936066,97.865669
3915000000,-5.7587943,-113.81624,-60.332119,79.336899,-60.2467,74.178955,-15.274624,86.951408
3920000000,-8.1477232,-41.598354,-60.134975,-22.874514,-59.73098,-31.245472,-28.135105,-32.206741
3925000000,-5.1351333,-99.166245,-59.703407,-133.79292,-58.616093,-130.8105,-15.273221,104.65485
3930000000,-24.34564,-90.934616,-59.773613,128.82059,-59.699722,123.87223,-20.516565,27.6271
3935000000,-3.5759964,-74.060844,-61.018436,23.532387,-59.831856,21.807907,-27.802002,94.389511
3940000000,-14.2102,-116.35002,-60.165779,-84.693924,-60.556995,-83.093613,-14.58898,62.317909
3945000000,-5.141223,-78.178993,-59.374733,171.8894,-59.567383,169.77124,-28.365662,161.75783
3950000000,-7.4243059,-105.88221,-60.628876,72.81192,-60.238613,66.837959,-13.750453,63.018257
3955000000,-14.133224,-83.93808,-60.068882,-38.006393,-59.764225,-34.390293,-36.469345,-126.06971
3960000000,-6.5195036,-80.076927,-61.074501,-138.22563,-60.936012,-138.57539,-17.143749,89.000694
3965000000,-9.12432,-103.31223,-59.869324,115.24151,-60.281246,111.6908,-19.956413,36.36375
3970000000,-7.8440976,-79.903114,-60.305988,9.7710533,-60.638542,9.4632702,-29.040743,137.47066
3975000000,-3.6006007,-117.80187,-60.873924,-86.264442,-60.000286,-93.294212,-18.093233,43.579407
3980000000,-18.08836,-10.26779,-60.273571,165.10712,-60.636417,167.72266,-26.485565,50.410042
3985000000,-4.359592,-93.20652,-61.24535,61.729599,-61.032654,56.676876,-17.266926,70.825569
3990000000,-10.897096,-107.80489,-60.53326,-41.478271,-60.544441,-43.457024,-23.814798,-22.380148
3995000000,-6.0347428,-85.180153,-60.769726,-154.97386,-60.33308,-148.616,-17.400578,101.65277
4000000000,-4.6236205,-142.01704,-57.851139,103.63877,-58.075745,100.7724,-18.457664,13.334596
END

