!CSV A.01.01
!Keysight Technologies,N5247A,US56070710,A.10.64.09
!Date: Sunday, November 20, 2022 00:36:15
!Source: Standard

BEGIN CH1_DATA
Freq(Hz),S33(DB),S33(DEG),S34(DB),S34(DEG),S43(DB),S43(DEG),S44(DB),S44(DEG)
3000000000,-11.061477,176.79784,-74.974579,-92.244591,-75.192238,-104.47281,-18.70348,-149.10719
3005000000,-16.354143,95.098579,-74.386002,-93.50985,-72.527603,-89.73243,-16.855505,-149.79594
3010000000,-13.969342,135.96179,-70.443405,-23.447344,-73.010155,-25.484545,-15.653325,-157.34094
3015000000,-10.290982,163.01518,-70.004585,141.7865,-71.424797,136.33403,-16.065517,-149.12856
3020000000,-23.017618,63.875587,-74.650253,-63.037373,-74.558739,-58.82835,-16.244188,-168.30774
3025000000,-7.8853006,138.33963,-64.849457,20.970205,-65.035515,21.415167,-14.48032,-154.05325
3030000000,-19.794029,146.89944,-66.67775,-21.384645,-65.665062,-22.684574,-18.761108,-174.01218
3035000000,-16.219088,83.861374,-66.352303,-151.77951,-66.176231,-140.63136,-13.500241,-166.41061
3040000000,-7.9559169,146.15875,-74.505859,-44.234051,-73.574142,-43.97086,-18.678528,-172.33589
3045000000,-23.00988,-163.02635,-65.879738,131.54025,-66.428444,128.95317,-15.243345,-177.99738
3050000000,-9.9172068,107.18421,-80.8834,91.965363,-79.867767,88.637215,-14.628966,177.48816
3055000000,-8.8676853,130.82352,-65.968536,-80.147362,-66.648781,-77.752975,-16.184748,-166.3949
3060000000,-21.420107,-38.557438,-79.247192,-55.191994,-78.313156,-89.909782,-14.990005,163.23695
3065000000,-6.6687346,119.59765,-74.663223,-124.21757,-77.544846,-140.651,-15.099606,-166.27902
3070000000,-15.279476,171.59013,-73.013443,-145.35886,-72.344643,-152.47011,-17.28363,158.86485
3075000000,-11.914433,98.847542,-68.681656,143.03688,-67.623283,142.69366,-15.459854,173.19101
3080000000,-6.817945,109.43037,-70.348778,87.34063,-70.796898,89.069107,-16.730383,165.6431
3085000000,-14.158387,-148.98141,-64.738472,-15.752711,-65.206429,-22.821053,-16.948303,161.51401
3090000000,-7.584362,85.769821,-73.0709,-29.83132,-73.436493,-8.1630535,-13.894833,157.35654
3095000000,-11.256901,155.34233,-82.286362,-130.97133,-81.07061,-125.93064,-17.932013,-179.53979
3100000000,-12.490697,123.89741,-69.240601,-17.817467,-69.660477,-22.429819,-14.735033,145.16576
3105000000,-8.3251381,80.580017,-71.537331,-155.87785,-69.949646,-163.02348,-16.030716,177.82484
3110000000,-8.6337852,148.48976,-66.154488,-135.25751,-66.290543,-140.18459,-17.968708,141.44092
3115000000,-15.166885,37.492638,-69.468971,85.567825,-69.308876,85.901825,-16.309977,159.4041
3120000000,-7.5382714,113.26514,-74.362907,-105.99693,-74.689552,-99.200012,-17.278456,147.0116
3125000000,-10.92318,153.24701,-75.520538,-13.126343,-75.746155,2.9392979,-17.603809,152.88271
3130000000,-8.4027185,58.012096,-69.148987,76.141403,-69.859596,65.174309,-15.700345,138.66862
3135000000,-8.0539637,119.557,-114.77689,-146.40216,-90.633698,67.797012,-17.641718,170.75313
3140000000,-15.713941,105.91782,-65.474731,-112.36308,-65.461067,-108.16425,-16.314268,125.45106
3145000000,-12.558813,60.417042,-65.783928,126.29942,-66.127632,119.12063,-16.647377,162.3781
3150000000,-5.2228718,127.252,-70.929123,9.3759966,-71.16658,-0.15357661,-18.74366,143.86771
3155000000,-13.451644,47.271194,-68.240921,-68.596817,-68.685127,-67.062645,-18.821684,135.47371
3160000000,-7.6387367,90.598831,-85.943802,-140.59091,-83.353157,-106.05744,-16.302168,148.28288
3165000000,-11.729776,102.18822,-85.001869,-45.346149,-82.075211,-46.947536,-20.372974,127.08076
3170000000,-18.886526,101.97717,-69.420319,-89.28418,-68.830627,-97.301033,-15.291524,140.90056
3175000000,-6.1522064,96.384956,-66.622017,-144.35838,-67.417946,-138.97101,-18.284878,154.22766
3180000000,-17.828678,103.77478,-63.022869,123.99669,-63.127514,120.7007,-18.774933,128.55925
3185000000,-7.2804074,62.598137,-70.999466,64.436035,-71.428719,49.865482,-15.914531,155.45334
3190000000,-10.023048,95.314629,-65.002457,-61.714024,-65.662811,-67.498802,-21.937567,146.87347
3195000000,-16.910484,106.2604,-75.840332,-173.40486,-75.363113,166.11084,-19.921782,131.74094
3200000000,-6.6131835,65.17765,-77.354225,-109.0512,-75.47139,-103.86583,-16.404928,134.66884
3205000000,-7.9908042,120.74414,-71.244072,-62.487194,-70.842125,-67.98893,-24.645889,149.71893
3210000000,-10.975055,37.088848,-65.339653,-172.54095,-64.181564,-174.45142,-14.261592,122.17207
3215000000,-7.476038,73.332817,-63.642895,124.35307,-64.254463,122.10046,-20.791924,160.35864
3220000000,-13.227681,106.70548,-67.456078,18.227375,-67.72509,14.896672,-16.383484,130.52539
3225000000,-11.439119,43.091034,-71.671394,-57.657528,-69.393517,-65.166428,-18.277397,140.39276
3230000000,-6.4201355,88.726494,-71.207153,144.94902,-71.423119,132.9843,-18.007366,153.72369
3235000000,-11.700418,85.779381,-64.230247,62.249363,-64.949059,60.270634,-20.627489,118.9268
3240000000,-5.6996226,29.284395,-68.511192,-34.911175,-69.401367,-35.663162,-16.388121,137.39429
3245000000,-8.2696924,122.19513,-68.101486,-149.44496,-68.410423,-154.41901,-20.390347,150.45131
3250000000,-11.4734,40.681564,-73.062622,99.63221,-71.823166,99.791885,-17.345106,111.8822
3255000000,-8.0659628,65.239372,-67.477348,18.924006,-67.059456,19.216839,-17.387241,150.12845
3260000000,-8.1471939,85.218323,-66.597168,-93.51857,-65.412529,-92.564568,-16.994272,115.48996
3265000000,-9.8843479,10.010199,-69.250008,177.21144,-69.496742,-176.25192,-17.660038,142.87198
3270000000,-5.3521242,73.736794,-73.630241,61.692135,-72.182594,60.90844,-16.750675,133.11389
3275000000,-27.176487,52.547836,-68.544373,-64.876038,-67.440636,-63.541286,-21.276045,120.66373
3280000000,-8.4011726,63.154442,-67.343971,-151.01434,-66.631363,-150.02292,-14.405842,127.0102
3285000000,-5.9563179,64.144722,-65.960342,78.532135,-65.568085,76.325836,-20.887522,140.1013
3290000000,-19.216127,-8.7397146,-69.051498,-2.5878396,-67.953049,-8.3358192,-16.233507,113.58276
3295000000,-6.546411,37.985008,-72.025406,-105.98186,-70.435165,-108.46362,-15.44258,127.80274
3300000000,-8.7247477,84.577042,-67.486473,159.07385,-67.192818,159.43112,-18.488832,135.04886
3305000000,-14.104593,5.4915395,-71.653702,-6.6908731,-71.210533,13.541409,-16.30258,114.43547
3310000000,-5.4208002,54.400497,-74.539871,-127.9687,-73.432129,-124.28144,-16.479769,136.61116
3315000000,-13.515828,71.110847,-66.113792,158.28897,-65.750473,160.46976,-20.475199,105.69017
3320000000,-9.3350964,16.738411,-68.709129,52.464867,-69.30043,46.686069,-14.832022,114.64219
3325000000,-7.727807,41.387218,-70.385078,-13.512111,-70.047562,-30.744045,-19.335949,121.66018
3330000000,-19.852226,133.62279,-72.290756,159.98718,-72.378876,165.99274,-15.265857,104.05148
3335000000,-4.25069,23.625568,-86.907761,17.196947,-86.177864,-2.2744818,-16.467676,115.73484
3340000000,-9.6918621,73.132683,-75.326744,42.839916,-76.256294,20.731724,-16.241043,120.08411
3345000000,-10.375312,11.078752,-79.443138,-121.76546,-82.533813,-160.15822,-17.80216,95.511391
3350000000,-7.4444728,9.1917181,-71.132019,51.929195,-71.463928,42.383118,-14.884943,121.64508
3355000000,-9.1118593,89.084839,-69.885017,-42.850273,-71.832428,-49.453804,-22.419962,89.089081
3360000000,-10.330297,-15.186138,-79.42189,139.53624,-74.421532,150.22667,-14.571152,100.67789
3365000000,-4.3121681,42.315746,-68.582741,-62.539829,-69.480759,-56.937897,-20.093235,97.33387
3370000000,-13.285369,8.6234674,-77.717064,-115.25311,-74.584511,-113.25566,-15.818518,93.040421
3375000000,-8.5295477,-2.1007569,-71.309418,175.38312,-70.721497,173.86215,-16.327715,94.118622
3380000000,-9.0414104,59.133442,-70.180008,59.16116,-68.920288,47.939102,-17.916901,109.5562
3385000000,-14.937252,50.87254,-71.891594,-33.760983,-69.20903,-32.883724,-17.559948,75.819542
3390000000,-4.171258,2.2281642,-69.222435,-175.07848,-69.968826,-179.65475,-16.357487,100.8282
3395000000,-11.390389,72.137962,-76.751381,152.89203,-77.941643,139.71452,-19.966604,82.828468
3400000000,-8.8411875,-26.071751,-73.210526,-60.224113,-75.862289,-48.734409,-16.538364,79.879181
3405000000,-8.7851067,19.639036,-68.130981,-169.36964,-68.010376,-163.50085,-19.493454,91.089737
3410000000,-9.9402599,53.13739,-69.714745,136.71506,-69.291695,140.65385,-16.604052,72.359947
3415000000,-6.9836059,-19.317007,-70.94117,42.82972,-70.63549,38.054604,-18.346405,82.200912
3420000000,-6.3517804,35.430748,-72.938263,-45.469425,-72.508095,-36.078022,-17.496855,96.871918
3425000000,-20.061989,-2.4080942,-76.155121,-163.97171,-74.397339,-148.0179,-21.093472,47.764523
3430000000,-6.8062501,-9.6191463,-82.993034,112.99899,-79.240143,58.41188,-16.559828,92.570938
3435000000,-11.250073,51.054077,-69.802399,-57.086716,-69.937294,-58.460743,-23.818863,49.250355
3440000000,-11.597477,-8.1696672,-70.410225,-131.88754,-68.917358,-137.22478,-19.77524,67.535568
3445000000,-6.1891093,-3.8955486,-65.109314,116.27281,-65.181541,121.51219,-17.463993,64.440979
3450000000,-10.461717,39.807629,-66.32122,34.547676,-66.587807,38.160912,-24.455923,79.213837
3455000000,-9.5543013,-47.619461,-70.983505,-94.434441,-70.074364,-81.758179,-17.576925,60.006718
3460000000,-7.6659622,28.418127,-74.832039,162.54817,-78.324699,151.53761,-21.149904,90.399422
3465000000,-13.997295,-1.4326437,-69.177376,70.187492,-69.339706,69.998009,-24.288425,53.047771
3470000000,-8.9383974,-21.821079,-69.242249,-38.293041,-70.051765,-38.988178,-18.431503,72.012054
3475000000,-6.4082451,18.329451,-71.356453,-158.55019,-71.943497,-158.68803,-31.368401,115.64697
3480000000,-14.717997,-80.506996,-66.859024,98.33223,-67.271271,100.05423,-20.573427,47.606506
3485000000,-5.2622905,-6.8666229,-73.095612,30.303572,-74.95211,43.329765,-22.156677,58.360847
3490000000,-15.067941,60.936436,-67.19957,-97.461273,-68.863823,-100.96798,-24.028091,114.36344
3495000000,-10.18412,-16.25506,-70.299438,158.75385,-70.390045,159.21526,-18.361885,23.171804
3500000000,-5.6984973,-12.889771,-72.992874,85.329727,-73.311089,70.583145,-18.402027,119.22123
3505000000,-19.453438,43.261017,-68.691139,-0.95443785,-69.356903,-8.5531826,-24.414427,12.216884
3510000000,-7.8926105,-50.03558,-71.270309,-134.55833,-71.064209,-135.04131,-21.490772,97.054634
3515000000,-6.9864693,25.703379,-74.168755,129.41019,-73.481705,106.65603,-28.502916,78.715622
3520000000,-22.583723,-32.151226,-74.50779,22.73275,-73.147026,37.495235,-28.796534,30.18454
3525000000,-6.0082006,-26.292107,-71.703331,-80.781776,-70.004364,-87.273949,-20.208712,70.213356
3530000000,-10.802669,-4.9931817,-70.415947,168.27078,-70.449722,171.57982,-24.055559,112.02795
3535000000,-18.639853,-68.224426,-64.549942,70.840942,-64.094322,72.071373,-26.768826,38.893955
3540000000,-7.3063583,-23.516899,-73.116234,-23.40449,-73.897133,-18.200752,-18.244461,103.18192
3545000000,-8.858181,42.842873,-71.434166,-122.84142,-70.366631,-130.14281,-34.439842,-124.84406
3550000000,-6.2219625,-56.931179,-73.062286,162.41585,-72.125946,165.82623,-19.637781,83.124649
3555000000,-10.387948,18.419441,-66.401199,24.455509,-66.840439,29.911741,-31.530699,145.37303
3560000000,-12.421981,-36.416649,-67.177956,-102.39445,-66.922539,-96.907005,-25.465242,91.951004
3565000000,-15.399468,-86.333908,-69.244987,-171.72479,-69.463699,-162.97711,-23.830181,53.457508
3570000000,-3.9567537,7.2720976,-67.20031,76.677452,-65.983185,74.499458,-21.919622,114.82371
3575000000,-14.363054,-121.95988,-69.022865,-33.413521,-68.633926,-29.48925,-25.252254,51.127628
3580000000,-6.0874181,-28.520908,-65.57901,-98.453529,-65.550682,-103.7645,-20.046164,99.991272
3585000000,-12.987827,-6.4055123,-73.630707,107.55828,-72.283882,116.40769,-25.932756,114.24737
3590000000,-19.033827,-118.4091,-75.045662,54.065277,-75.543404,35.43713,-27.477161,70.038246
3595000000,-4.7021432,-18.912781,-68.383308,-66.236015,-68.677017,-60.728531,-19.875023,94.51886
3600000000,-19.796659,20.674265,-67.922546,168.15396,-69.329483,169.12904,-32.293491,151.50272
3605000000,-8.5346289,-53.815491,-65.297302,90.712692,-66.50872,96.67141,-20.713442,56.540115
3610000000,-7.8529129,-15.774817,-70.005081,-18.377678,-67.568901,-25.116884,-21.587379,107.95715
3615000000,-23.108746,126.6226,-70.105827,-147.98869,-69.398163,-153.90927,-27.178211,69.024673
3620000000,-7.720933,-42.564003,-69.424011,128.56453,-69.587433,123.00683,-20.605919,76.283432
3625000000,-9.6930609,-13.052197,-68.30172,45.184414,-69.79734,47.338654,-23.256563,114.53154
3630000000,-20.632252,27.83555,-67.054741,-75.1241,-66.711678,-69.7118,-27.870333,74.396561
3635000000,-4.0861726,-64.628517,-65.784492,-174.27216,-66.805397,-178.75459,-20.451693,66.426773
3640000000,-10.791908,55.145805,-65.112198,70.02845,-65.829376,69.648674,-22.518238,149.54857
3645000000,-7.9736886,-64.756653,-67.865242,-36.326832,-67.077911,-36.722313,-18.850601,15.460564
3650000000,-11.527475,-13.135469,-67.862968,-119.21026,-66.69886,-115.74431,-18.314123,114.71181
3655000000,-7.8437877,-10.744329,-69.494987,103.93811,-69.764923,100.46946,-24.738342,10.236886
3660000000,-7.2002649,-99.032104,-67.408867,40.359863,-67.333557,40.634026,-21.714031,88.556
3665000000,-5.2684855,14.130112,-66.587517,-84.7855,-66.375565,-88.111023,-22.447256,82.647385
3670000000,-13.143855,-110.41432,-72.721893,162.95802,-73.175896,148.45905,-39.248585,143.49586
3675000000,-9.6396437,-29.704493,-70.89254,41.719498,-71.137444,44.161495,-20.964117,59.53846
3680000000,-7.8131013,-21.108448,-68.485527,-45.531273,-69.138542,-49.562874,-25.058411,142.31641
3685000000,-14.09319,-103.594,-69.671204,-126.83826,-69.766022,-118.24194,-24.233562,-18.49567
3690000000,-6.237843,-34.176407,-67.037834,133.11578,-67.417992,130.85803,-19.697594,77.409935
3695000000,-16.818846,8.401185,-74.939827,63.52063,-73.739357,50.211899,-34.132755,-76.057472
3700000000,-12.586056,-79.480492,-66.590958,-81.889053,-67.174377,-78.447823,-21.714567,61.956272
3705000000,-4.2214904,-21.172592,-70.38501,161.63176,-70.316788,160.35461,-25.919138,54.927494
3710000000,-15.574229,-152.09499,-75.30352,92.804459,-73.997231,99.302338,-25.302252,143.75952
3715000000,-6.3140044,-44.218842,-68.875664,-16.398172,-68.825615,-9.9289503,-20.348269,26.193594
3720000000,-9.7035828,-37.393124,-69.649002,-136.28723,-68.437576,-132.94991,-20.387852,153.63226
3725000000,-19.717485,93.828964,-67.605667,141.9826,-66.662743,138.53772,-23.362728,-6.3139625
3730000000,-2.6991513,-51.357559,-66.936035,16.283495,-66.77356,19.611069,-25.889742,93.308556
3735000000,-15.86291,52.756798,-68.197189,-50.136963,-68.647865,-58.047325,-25.614456,107.08133
3740000000,-7.6811132,-59.381092,-68.281731,-150.37236,-68.38118,-149.41228,-36.081825,-27.641809
3745000000,-8.2845821,-69.69902,-68.787025,69.362656,-68.890175,68.101036,-21.965117,98.144691
3750000000,-8.2671423,29.289476,-67.372398,-9.2452202,-68.021927,-11.205731,-28.096634,-172.86455
3755000000,-5.0739074,-105.2363,-66.55513,-129.05591,-66.028992,-131.08157,-28.049021,32.112724
3760000000,-4.3088536,-1.6187443,-69.000648,134.00984,-68.448364,128.7529,-21.269043,136.13077
3765000000,-6.5427127,-85.429695,-63.89436,51.90609,-64.398849,53.896511,-26.723234,-58.107166
3770000000,-12.214602,-108.24397,-68.186989,-42.379837,-65.685387,-42.868172,-22.149073,99.684372
3775000000,-4.5272336,-9.3347149,-66.793747,-158.79715,-65.977242,-159.89981,-29.380596,89.669312
3780000000,-12.757332,-126.10756,-66.949188,120.6736,-66.91774,125.97785,-25.432436,165.06374
3785000000,-4.0782056,-43.998951,-65.004982,-18.361723,-64.931183,-21.286272,-19.704737,60.981842
3790000000,-10.239905,-52.640228,-64.874191,-113.73627,-65.736511,-110.25216,-17.475523,167.92412
3795000000,-9.6220284,-134.86769,-65.642792,161.60989,-65.670151,160.94586,-25.457113,26.467377
3800000000,-4.8522663,-20.751421,-63.877609,32.42667,-63.254639,39.566227,-19.28286,141.20294
3805000000,-11.180764,-60.338184,-67.191696,-60.111546,-66.295753,-61.195675,-40.664509,-164.75812
3810000000,-9.9772787,-85.239517,-63.521053,-164.21828,-63.287514,-159.70485,-23.599024,94.038391
3815000000,-3.1663554,-56.399502,-64.746635,104.53118,-64.727531,104.81219,-22.388908,118.45948
3820000000,-9.3084917,132.91426,-64.48922,-20.284834,-64.690247,-19.279222,-25.101849,141.87819
3825000000,-1.419538,-51.919945,-63.288086,-112.94617,-63.429787,-112.97118,-21.541824,70.97197
3830000000,-16.945629,-96.757423,-62.34486,145.58514,-62.264824,146.81685,-16.333786,138.5222
3835000000,-10.402562,-49.018002,-66.590889,28.033232,-65.722137,40.312832,-41.878696,-48.842102
3840000000,-3.7079818,-92.373062,-66.105095,-47.37225,-66.430588,-49.091282,-18.109531,112.69225
3845000000,-9.050004,29.915941,-63.090111,-176.90431,-63.186184,-175.54948,-27.531628,144.60201
3850000000,-2.8538249,-89.62101,-64.978737,91.938179,-63.874039,88.839203,-24.820015,101.3076
3855000000,-11.133011,-70.429886,-65.059212,1.6243695,-65.249756,-3.6550486,-19.059803,89.24733
3860000000,-11.181298,-36.352837,-64.095993,-116.42197,-63.678242,-117.78146,-22.099894,156.416
3865000000,-5.4364672,-97.409935,-64.81321,137.79637,-64.606377,134.32095,-17.158552,62.523102
3870000000,-6.7250829,-34.990372,-63.821941,55.789284,-63.625908,59.14172,-16.828007,146.15924
3875000000,-7.2371454,-102.72574,-69.957901,-90.994232,-67.455589,-83.05751,-23.187733,61.185314
3880000000,-8.5188866,-111.95611,-64.100563,-153.71593,-64.27829,-148.47359,-20.989632,114.7068
3885000000,-5.0353031,-13.362196,-64.41082,68.081665,-64.750702,66.556046,-19.451527,100.39706
3890000000,-3.2065232,-115.4697,-61.992393,-11.237106,-62.324982,-10.521958,-40.668186,177.32742
3895000000,-7.4314704,-57.32597,-65.417831,-98.606773,-65.271332,-92.297821,-15.431341,70.111931
3900000000,-7.1713972,-85.133415,-66.596405,143.25096,-67.790672,146.7635,-20.343437,141.70674
3905000000,-11.062755,-141.65089,-66.797066,45.590622,-66.900597,42.99342,-19.130457,46.712769
3910000000,-2.2657499,-35.979328,-65.906258,-75.859138,-67.944344,-78.117577,-16.367373,111.55582
3915000000,-5.2586117,-135.76201,-64.601959,174.35513,-63.825592,-175.01509,-27.104765,61.63065
3920000000,-6.0665927,-65.517761,-63.520599,79.995316,-63.259438,77.966942,-19.70932,94.735886
3925000000,-7.3091731,-97.107834,-64.338303,-2.4828234,-64.837006,-0.69842058,-19.950153,72.821159
3930000000,-24.298487,121.34232,-63.053341,-101.01488,-63.28455,-93.894356,-24.678905,155.68063
3935000000,-0.9961912,-81.112411,-67.870033,137.38875,-66.999924,137.98572,-14.693029,39.449623
3940000000,-22.648451,-37.782928,-68.285103,34.252392,-68.745193,34.827919,-17.98333,137.89909
3945000000,-3.9901268,-115.63285,-67.509636,-85.860924,-66.956329,-79.29644,-17.637243,29.111423
3950000000,-6.9554834,-73.485802,-65.398392,-177.23042,-65.196114,175.23364,-17.676807,96.476021
3955000000,-17.044374,-92.862656,-65.351891,69.883308,-65.235863,73.815086,-25.587837,93.166206
3960000000,-5.168458,-102.41614,-64.400726,-11.806931,-64.330986,-10.12185,-20.675806,40.810242
3965000000,-7.5464044,-78.565536,-64.371765,-136.92802,-65.264473,-139.34726,-18.981155,94.475685
3970000000,-11.215186,-127.88297,-67.78595,148.2592,-69.640198,152.20938,-31.627644,29.590759
3975000000,-3.334378,-111.74764,-63.997448,13.78829,-64.521698,14.608236,-17.992054,38.293034
3980000000,-11.016674,-41.847118,-67.382767,-76.304337,-66.929008,-74.621063,-18.680655,107.50413
3985000000,-5.3390198,-124.36339,-66.785484,175.85107,-66.838104,174.13869,-20.79241,2.6519551
3990000000,-8.7991915,-94.525291,-66.337479,55.052109,-65.858215,52.746784,-18.472057,88.298035
3995000000,-7.2585773,-74.887711,-68.220192,-30.787748,-67.957169,-32.339771,-25.319492,54.705719
4000000000,-2.9934607,-155.28592,-62.977787,-125.88219,-63.098564,-132.00012,-32.409264,22.235718
END

