!CSV A.01.01
!Keysight Technologies,N5247A,US56070710,A.10.64.09
!Date: Saturday, November 19, 2022 20:13:26
!Source: Standard

BEGIN CH1_DATA
Freq(Hz),S33(DB),S33(DEG),S34(DB),S34(DEG),S43(DB),S43(DEG),S44(DB),S44(DEG)
3000000000,-12.219105,-169.86101,-57.964737,-129.81277,-58.054184,-127.32243,-16.87257,-131.64014
3005000000,-13.176721,121.48556,-57.955734,118.05372,-58.727016,117.11565,-16.538668,-139.28397
3010000000,-15.595501,174.01115,-59.950291,33.432522,-60.984535,34.627491,-15.442403,-154.67691
3015000000,-12.153776,168.25699,-61.454967,-96.223434,-61.301113,-95.184181,-14.780525,-139.93204
3020000000,-17.217857,136.10075,-58.807892,155.96077,-58.824509,155.87369,-17.277594,-165.38316
3025000000,-10.600429,159.74504,-57.362362,52.832401,-57.383366,52.519951,-13.843662,-149.68027
3030000000,-18.038389,130.9073,-57.421322,-38.61998,-57.661995,-39.364159,-18.218788,-158.81392
3035000000,-15.540754,154.99393,-56.429401,-138.77562,-56.766514,-139.4958,-14.150518,-157.15233
3040000000,-9.4947548,153.06424,-59.405071,120.32503,-59.956181,118.66119,-15.782242,-163.69006
3045000000,-21.693085,141.42744,-58.482365,6.1133251,-58.770641,4.9094229,-15.690077,-162.83371
3050000000,-11.131787,146.18271,-58.776646,-103.06107,-58.833256,-105.21835,-14.517225,178.95148
3055000000,-12.617128,138.11755,-58.141079,153.22588,-58.612816,152.48399,-14.988707,-158.26767
3060000000,-17.820156,156.5118,-57.707527,59.592361,-57.573372,58.534538,-16.299316,176.40125
3065000000,-9.072546,132.80783,-57.83902,-45.48542,-57.599621,-45.299213,-14.281689,-165.85631
3070000000,-18.167538,163.92798,-57.523731,-145.32431,-57.448856,-146.07565,-17.288361,-177.75679
3075000000,-10.324227,134.48463,-56.884781,95.895554,-56.724922,96.890617,-14.607641,177.16106
3080000000,-11.004482,126.70937,-54.862312,6.0792007,-55.245361,6.490871,-15.895455,173.1884
3085000000,-14.045722,175.90657,-56.366646,-102.21918,-56.338078,-103.66594,-16.667019,177.07173
3090000000,-8.6077061,109.91099,-58.473434,155.8922,-58.61047,157.18396,-15.075356,160.39615
3095000000,-14.868139,173.18867,-58.333439,40.618874,-58.687489,43.047764,-15.882993,-170.74536
3100000000,-10.17543,132.1105,-59.642849,-70.421432,-59.786362,-69.194023,-15.86913,156.33826
3105000000,-11.468813,113.21494,-57.420521,-167.51912,-57.40292,-170.51701,-15.371236,-179.40154
3110000000,-10.588181,149.33066,-55.801338,103.53723,-56.044479,102.14716,-16.528313,158.21173
3115000000,-13.423797,94.483078,-55.249481,-3.4886224,-55.53236,-2.4137976,-17.307301,163.64578
3120000000,-10.46019,141.3688,-55.047684,-110.71407,-55.015171,-110.95273,-16.278648,156.15077
3125000000,-11.232727,131.85042,-55.574093,142.61845,-55.553776,142.51381,-18.041395,173.03117
3130000000,-11.536759,93.396339,-56.40937,40.078327,-56.511166,40.557533,-16.277912,147.2309
3135000000,-9.6606808,138.02341,-56.627605,-64.565491,-56.700809,-65.417114,-15.992132,175.15483
3140000000,-11.945425,101.51966,-57.379047,-171.16798,-57.309872,-170.51593,-17.650158,139.50203
3145000000,-13.412085,116.17644,-57.359936,77.572601,-57.366497,78.125511,-15.835332,160.63092
3150000000,-8.1646566,126.45376,-56.20998,-19.734089,-56.167809,-19.736137,-18.275061,153.03732
3155000000,-13.770709,93.276176,-55.505821,-126.48936,-55.62812,-126.30515,-19.625177,156.05396
3160000000,-8.7711592,114.77248,-56.207211,137.1371,-56.249737,136.68062,-16.019186,150.82057
3165000000,-12.393845,105.49516,-55.470921,36.619667,-55.566982,37.225739,-19.472822,165.78297
3170000000,-11.548864,118.66533,-56.590153,-69.170853,-56.829132,-68.503319,-15.832012,139.95192
3175000000,-9.5391703,104.99331,-56.831787,-171.51834,-56.724743,-174.38164,-17.301949,165.23514
3180000000,-14.366397,119.4379,-56.42955,78.174019,-56.457436,79.802406,-18.744802,140.57471
3185000000,-7.4154744,93.589455,-56.431248,-37.198357,-56.24482,-39.198875,-18.041286,157.83902
3190000000,-13.405513,99.073471,-56.480877,-136.69034,-56.564655,-137.75412,-18.610359,158.68565
3195000000,-11.927203,113.2552,-55.779945,122.49078,-55.549728,122.29515,-21.151419,154.83534
3200000000,-8.0302458,89.198723,-57.33852,18.403925,-57.468948,15.639977,-15.644827,141.24504
3205000000,-11.019616,120.52944,-56.345947,-78.959351,-56.392559,-81.38443,-21.144283,169.2496
3210000000,-10.059053,73.356865,-56.46521,176.97574,-56.225487,178.68262,-16.321072,125.92043
3215000000,-10.777153,103.03689,-56.052307,72.175537,-56.209,73.16317,-18.13369,161.57372
3220000000,-9.9305248,100.69521,-58.272297,-35.202015,-58.130917,-34.315292,-17.696251,144.10719
3225000000,-10.384659,66.907387,-57.543625,-139.81372,-57.565948,-139.02515,-18.406685,155.16431
3230000000,-10.103974,108.51131,-57.478996,110.84119,-57.394886,109.6848,-16.729198,150.17039
3235000000,-9.6708031,86.182755,-56.93681,4.4759345,-57.054592,5.4454083,-20.907444,154.8051
3240000000,-8.8115082,64.989265,-56.98822,-101.25957,-56.809895,-99.754326,-16.26354,133.00597
3245000000,-10.120399,114.13166,-55.624722,165.75458,-55.869953,164.26819,-18.83152,168.88539
3250000000,-9.9230404,61.022633,-57.169472,59.363468,-57.092121,60.671375,-18.257357,126.28838
3255000000,-9.0183048,93.918427,-56.811687,-36.131317,-56.938675,-37.842899,-17.906862,152.44041
3260000000,-9.9202824,74.585686,-57.456333,-143.77971,-57.534054,-143.42175,-16.693489,138.63406
3265000000,-12.14892,73.469971,-57.368107,109.90176,-57.265511,109.89973,-18.618879,141.79947
3270000000,-6.658566,82.018188,-58.877029,2.3290966,-58.813267,2.1651151,-15.988564,141.51195
3275000000,-15.630651,56.14603,-57.24781,-109.1813,-57.162712,-106.33913,-20.896515,139.85893
3280000000,-8.4665232,83.895798,-57.159817,142.81015,-56.707558,140.356,-15.435782,134.18449
3285000000,-8.8327131,70.012306,-56.288773,47.597641,-56.135872,48.289474,-18.375673,153.047
3290000000,-15.291319,66.881035,-56.325096,-51.519863,-56.403259,-52.523941,-16.894888,128.12096
3295000000,-6.7563014,68.561401,-57.016422,-149.09541,-57.186214,-149.44745,-16.115398,139.25703
3300000000,-11.525035,63.931999,-58.625828,98.93605,-58.612419,103.05613,-16.717073,137.75841
3305000000,-12.181975,67.415802,-58.460342,-5.5628128,-58.477234,-7.6850061,-19.427444,129.81302
3310000000,-8.3813391,65.865013,-58.653591,-120.00604,-58.475189,-119.9809,-14.958043,133.13933
3315000000,-11.218103,74.419334,-58.2906,132.46013,-58.24334,136.10321,-21.852886,142.36954
3320000000,-8.7084141,45.033474,-58.541649,31.687574,-58.476177,32.537735,-14.644159,120.67944
3325000000,-11.280356,61.962303,-58.305737,-70.35186,-58.085957,-70.569328,-19.020939,132.28825
3330000000,-11.979924,68.811363,-56.94817,-176.27637,-57.11285,-174.16132,-14.931118,119.99374
3335000000,-7.1100931,42.065586,-57.332237,93.437241,-56.668076,92.930611,-18.346804,117.71621
3340000000,-12.030445,74.634819,-58.800968,-9.1297235,-58.671673,-10.035134,-15.204893,127.51104
3345000000,-9.4780521,43.094154,-59.015369,-109.23455,-59.440502,-114.52463,-20.177095,115.68827
3350000000,-9.3570528,47.4258,-63.199131,125.0441,-63.231762,122.87454,-14.334431,120.52485
3355000000,-9.8503418,56.667816,-62.203819,12.047565,-62.362041,5.7397137,-21.332731,129.03835
3360000000,-12.887394,22.051046,-59.743649,-104.28968,-59.406643,-103.51305,-14.979591,103.29674
3365000000,-7.0325451,61.796341,-59.944309,159.03279,-59.84647,158.0546,-19.107672,112.77845
3370000000,-10.906875,25.870787,-61.662064,71.920029,-62.115341,68.638336,-16.006617,104.38302
3375000000,-8.8574677,42.913486,-63.0266,-16.157688,-62.438805,-13.942479,-18.880114,102.93035
3380000000,-10.064161,40.022797,-65.292725,-133.10115,-65.453789,-127.27891,-15.744956,114.10728
3385000000,-13.777681,50.405956,-69.068352,176.17206,-67.696899,171.37985,-20.879232,90.132111
3390000000,-7.200377,36.742485,-71.410797,77.503143,-70.143776,69.994308,-15.234458,100.95871
3395000000,-11.906774,44.0574,-70.808823,-19.566523,-70.066978,-14.602542,-20.282223,96.633614
3400000000,-9.8865614,20.400484,-70.5662,-141.71983,-69.29863,-124.90355,-16.902945,90.687607
3405000000,-9.2923841,29.379288,-64.377541,113.29146,-63.471729,109.52728,-19.393126,93.055138
3410000000,-11.918985,48.866325,-65.229431,-5.8054538,-65.97271,2.7633457,-17.674973,95.541389
3415000000,-7.7845349,22.525003,-61.521923,-93.334442,-61.78455,-96.87249,-19.113705,82.730423
3420000000,-10.281974,37.38205,-59.215454,168.50381,-59.284977,169.94672,-16.634024,104.90044
3425000000,-11.325656,34.453476,-59.485279,80.231155,-59.079418,81.724854,-23.092392,64.396866
3430000000,-8.0797997,13.594131,-59.772221,-27.008215,-59.875412,-23.409931,-17.282858,89.842331
3435000000,-14.239315,48.890995,-61.447803,-136.29503,-61.708271,-136.21605,-23.948008,80.948517
3440000000,-8.6205149,22.844872,-61.59623,110.87915,-60.696812,112.63572,-20.623878,74.812767
3445000000,-9.4316921,16.61647,-59.279411,-5.0008049,-59.13274,-5.8198261,-18.963728,69.997345
3450000000,-10.627837,33.800976,-59.174103,-106.9242,-60.034809,-102.71463,-20.32357,101.35123
3455000000,-10.943044,-4.2374253,-58.523964,157.48094,-58.565258,157.67509,-20.736706,50.991619
3460000000,-9.283493,44.401257,-59.541107,40.868668,-59.507854,45.673977,-18.097572,94.860329
3465000000,-9.2160711,2.9311035,-59.669529,-54.732914,-59.646763,-55.421268,-31.708281,35.301144
3470000000,-12.708739,6.4141841,-59.286095,-158.18477,-59.255352,-155.80144,-18.341108,79.93557
3475000000,-8.278574,30.076721,-59.010551,96.815033,-58.94257,96.390678,-28.582216,99.611221
3480000000,-12.587059,-15.396681,-60.4632,-9.0018702,-61.000919,-8.3604193,-23.866631,78.451797
3485000000,-7.5841384,23.366434,-61.520626,-114.20201,-61.590851,-113.02999,-21.907085,56.389416
3490000000,-12.736319,0.17041402,-60.63237,132.71802,-60.613911,128.49275,-22.303923,117.55526
3495000000,-12.656631,11.875977,-59.940182,23.935049,-59.707855,23.171989,-21.856804,17.583408
3500000000,-7.8020077,11.804996,-58.974934,-73.510185,-59.319023,-71.985451,-19.0103,110.55075
3505000000,-14.621222,3.039953,-58.583263,-172.9879,-58.782272,-170.76537,-38.398769,34.593296
3510000000,-9.6338348,4.3330975,-60.731808,78.680336,-60.581326,82.13868,-22.197395,85.208908
3515000000,-9.3780012,8.4701834,-60.690926,-27.052526,-60.907204,-28.763231,-30.156254,89.138733
3520000000,-17.856466,-6.7130589,-61.353024,-128.01665,-61.234436,-123.30068,-25.543934,91.392548
3525000000,-8.2171383,8.8074217,-61.063335,120.20755,-61.46172,121.67577,-24.010794,46.314884
3530000000,-11.632266,0.037073001,-62.042812,25.392786,-62.050755,26.007027,-20.298603,122.41908
3535000000,-10.97522,-3.3093719,-62.09845,-77.354584,-62.163662,-72.094795,-32.78336,0.82687616
3540000000,-10.979109,-12.126679,-62.617554,163.48318,-63.74279,160.7726,-18.483784,110.23085
3545000000,-10.407146,30.770439,-62.745808,59.102821,-63.264805,59.268024,-46.736347,-161.38699
3550000000,-9.3302832,-24.599051,-62.442261,-39.562019,-62.254139,-36.661259,-23.314701,105.53491
3555000000,-11.953383,29.911459,-63.556774,-137.27283,-63.535683,-135.15808,-27.616966,85.262932
3560000000,-9.7004242,-11.362187,-65.106194,134.92607,-65.375145,133.21765,-25.107275,132.0181
3565000000,-14.437212,-24.592108,-69.39106,27.04694,-68.897995,24.108618,-27.211838,43.052647
3570000000,-8.5177517,14.286272,-68.81752,-103.90581,-67.952675,-91.082497,-20.131006,117.85709
3575000000,-14.500742,-45.681923,-67.468079,160.97563,-67.772285,165.65741,-28.598522,66.899101
3580000000,-9.6543846,15.332998,-69.235771,83.53598,-68.557457,85.804024,-20.97258,107.75967
3585000000,-8.584095,-16.822807,-65.330673,-16.547455,-64.921249,-19.710604,-27.417223,114.94838
3590000000,-18.841316,-48.629848,-66.792046,-104.06199,-66.373528,-116.46751,-25.943254,114.20687
3595000000,-8.1302261,7.3887954,-67.196121,140.60011,-66.971611,142.67464,-22.080608,78.443977
3600000000,-14.072696,-19.878641,-65.371758,27.38061,-65.891586,28.186665,-21.170969,154.6953
3605000000,-10.175176,-8.0962057,-65.932587,-64.083458,-66.558128,-66.169434,-23.074888,40.314491
3610000000,-10.275418,-14.060431,-70.161507,-160.57831,-69.319458,-155.5601,-19.847527,110.1536
3615000000,-19.351669,10.310684,-68.569878,61.780949,-70.819275,71.418884,-30.363499,97.272186
3620000000,-7.9847684,-9.8738947,-74.811462,-39.239552,-73.213425,-28.653864,-23.59399,93.174492
3625000000,-13.120977,-32.350174,-72.542702,-120.67828,-71.719009,-130.81473,-23.782574,101.6201
3630000000,-13.594181,21.729435,-68.544197,127.57159,-69.732368,129.63329,-28.673283,121.05528
3635000000,-8.0588808,-33.375351,-68.604218,49.306553,-68.986366,45.991386,-21.355682,64.511154
3640000000,-13.777168,20.146206,-67.215645,-32.25782,-67.370239,-35.549061,-21.242765,137.90144
3645000000,-7.9091201,-35.400417,-68.017609,-130.14171,-67.913727,-127.32883,-22.005751,12.618805
3650000000,-18.448465,15.299294,-72.105774,169.52769,-73.582031,165.51189,-19.213013,110.10133
3655000000,-7.4445672,-1.9926429,-73.889931,60.092312,-72.555893,52.860725,-30.768547,50.982086
3660000000,-10.562674,-58.360874,-72.537834,-59.25267,-73.726929,-64.467598,-23.754747,101.73365
3665000000,-9.1564875,22.059889,-74.496704,-158.60645,-74.292389,-152.69371,-23.577841,73.209991
3670000000,-10.783554,-45.947388,-69.306305,109.06327,-70.441757,122.46558,-25.947886,143.10709
3675000000,-12.628403,-3.1836195,-66.880402,-15.196647,-65.653877,-12.916127,-22.317423,35.389595
3680000000,-8.4418373,-15.670264,-65.379784,-100.7588,-65.531235,-95.94075,-21.552662,138.73254
3685000000,-15.715228,-58.116741,-63.744015,137.94846,-63.930862,142.02348,-24.260979,-20.306032
3690000000,-7.6206827,0.90539205,-63.78801,36.49654,-63.584164,37.857079,-20.94092,97.905754
3695000000,-10.998425,-35.126591,-63.362694,-57.029945,-63.768368,-56.950214,-35.51582,36.084595
3700000000,-15.013496,-27.654356,-65.2276,-139.17735,-64.453445,-140.7252,-30.000626,95.888992
3705000000,-7.3633618,-11.174984,-64.001968,105.61317,-63.995342,101.35364,-21.906059,49.531738
3710000000,-19.672373,-65.187431,-65.685074,-5.1621003,-65.526939,-6.1536045,-22.843664,167.52744
3715000000,-6.5246935,-11.982358,-64.975296,-111.97565,-64.511955,-112.65697,-22.296297,21.638744
3720000000,-10.760505,-48.860916,-62.815907,138.54552,-62.139782,139.7365,-21.125061,150.23361
3725000000,-14.244724,18.153267,-62.20509,29.601097,-62.266541,30.128681,-27.370808,-8.3480015
3730000000,-5.5136027,-33.700985,-61.631954,-64.952644,-61.170902,-59.762325,-25.149464,106.24604
3735000000,-24.525188,21.906557,-60.497467,-166.13229,-60.939259,-162.71234,-30.502247,96.552277
3740000000,-7.4079647,-18.158823,-61.522369,94.637405,-61.218769,98.220604,-29.227476,-172.08592
3745000000,-9.7872448,-49.778126,-61.858715,-25.24313,-62.224598,-15.037963,-26.318001,49.666046
3750000000,-10.498322,7.5512795,-61.854195,-113.05424,-61.602726,-109.98565,-21.149055,171.70639
3755000000,-8.2035761,-67.672012,-61.675774,134.27467,-61.743919,137.47713,-25.514841,6.1094899
3760000000,-9.4238367,11.813844,-63.081402,30.397678,-63.141655,28.866583,-20.936699,148.93265
3765000000,-6.9948454,-46.349201,-61.322468,-74.148811,-60.830391,-70.268631,-31.361061,-24.698034
3770000000,-14.394627,-41.058117,-60.680347,179.33105,-60.657326,-178.51978,-27.183321,133.50024
3775000000,-6.4294667,-14.502474,-60.195457,81.11335,-60.866932,75.928932,-26.48019,98.133911
3780000000,-11.052805,-78.553635,-59.780819,-9.2224302,-59.793663,-12.728929,-23.090157,-176.1971
3785000000,-9.2763557,-10.954172,-61.328484,-120.89555,-60.856697,-119.15004,-23.464554,70.042526
3790000000,-7.7354493,-30.65365,-62.278435,124.99151,-62.347919,129.31711,-18.665133,160.41104
3795000000,-11.252044,-68.145851,-61.639393,25.745081,-61.542435,27.830847,-33.817703,-12.677643
3800000000,-7.2271662,-17.171339,-61.413364,-79.493446,-62.451763,-78.128754,-20.256212,137.86861
3805000000,-10.025238,-66.859718,-59.761021,-179.20985,-60.094185,-178.35771,-35.29668,-167.17632
3810000000,-10.980677,-9.6483221,-59.025013,79.16465,-59.096458,82.584824,-23.789474,140.55492
3815000000,-4.9417763,-46.460297,-59.722027,-29.080015,-59.639721,-27.851885,-24.457472,103.61665
3820000000,-25.556141,-48.238968,-59.379719,-129.31549,-59.51112,-128.03699,-20.571598,163.02457
3825000000,-4.6080556,-37.979988,-60.02652,124.753,-60.498154,124.0389,-22.371069,62.613506
3830000000,-15.634663,-74.423508,-60.80196,26.063326,-60.30109,25.0984,-17.006536,150.67293
3835000000,-7.5663371,-25.186499,-60.752205,-83.600883,-60.585133,-81.527534,-41.007767,164.67062
3840000000,-6.3034334,-67.645966,-61.579021,174.68694,-61.298119,174.7186,-20.649879,125.02519
3845000000,-14.549776,-3.0594323,-59.275131,63.303539,-59.576847,66.21196,-23.351215,133.57593
3850000000,-4.9109998,-54.910454,-59.891171,-29.331568,-59.778519,-31.260824,-24.227587,145.13303
3855000000,-13.770876,-59.397381,-58.937618,-132.43646,-59.219276,-133.47157,-19.576611,86.640259
3860000000,-6.6450553,-36.774761,-59.577038,121.72273,-59.564236,120.12181,-19.292959,159.87338
3865000000,-7.5748086,-78.949387,-59.967705,22.224867,-60.137146,18.903761,-20.618895,59.865543
3870000000,-10.062058,-17.439882,-59.669617,-85.355873,-59.76178,-83.718788,-16.528831,148.7822
3875000000,-6.0479813,-62.446426,-59.729935,163.89258,-59.487946,167.03215,-24.778057,73.733749
3880000000,-11.108649,-67.119713,-61.228725,66.063339,-60.355461,64.241142,-20.856987,135.15038
3885000000,-6.5388422,-36.508659,-59.725147,-39.340366,-60.575024,-37.223785,-19.243935,92.061447
3890000000,-6.2478414,-94.334114,-60.115612,-142.52733,-59.823719,-141.79419,-23.866432,169.17889
3895000000,-10.265554,-13.162119,-59.66338,119.48356,-59.846889,119.1547,-16.918272,60.918732
3900000000,-4.157023,-60.712418,-58.476639,14.301981,-59.153728,13.687039,-17.102541,148.49915
3905000000,-11.109928,-84.138535,-59.615425,-80.609406,-59.223518,-77.846909,-22.230715,47.028488
3910000000,-6.2681675,-43.947666,-59.208824,168.01691,-59.447086,170.73434,-17.057005,117.00645
3915000000,-9.1872377,-97.937889,-60.104939,62.516106,-60.106808,66.157005,-24.34099,82.784218
3920000000,-6.6352844,-36.039051,-60.25074,-31.532459,-60.460331,-34.83989,-21.956354,110.8082
3925000000,-6.1737852,-79.420433,-59.910591,-146.13074,-60.069584,-143.08517,-18.886103,79.928207
3930000000,-12.603694,-55.903721,-59.998367,117.83717,-59.631599,114.27924,-23.770088,167.17227
3935000000,-4.685533,-72.904366,-59.060562,17.762922,-58.833729,19.880733,-17.225454,48.743271
3940000000,-13.728757,-64.233192,-58.508331,-90.329994,-58.691311,-87.440567,-18.270163,127.14221
3945000000,-6.551146,-68.96492,-59.702709,167.61676,-59.480053,168.18263,-22.291683,46.472313
3950000000,-7.1298251,-72.841064,-59.534664,62.286045,-59.519577,62.222935,-19.118572,89.625999
3955000000,-10.297907,-65.697968,-58.884418,-41.799267,-58.724098,-43.284786,-24.742651,102.50964
3960000000,-5.9070234,-82.465782,-59.818851,-145.06801,-59.409771,-142.845,-23.357239,55.246265
3965000000,-11.228265,-69.11821,-59.304016,115.97111,-59.342781,119.2347,-19.255154,88.146294
3970000000,-7.2994938,-72.069862,-59.847412,6.159893,-59.946552,9.0429153,-32.384796,147.8575
3975000000,-5.9764953,-94.501976,-59.016006,-90.941528,-58.942139,-92.606888,-17.150148,48.584129
3980000000,-9.935071,-56.605881,-58.852741,160.11154,-58.986599,161.43332,-21.721895,121.28168
3985000000,-5.8708019,-87.583466,-58.68396,60.857395,-58.267002,62.275242,-21.501629,37.08131
3990000000,-10.653657,-80.271324,-57.895283,-44.552341,-58.047649,-40.156364,-24.66357,91.418678
3995000000,-5.8458123,-77.318825,-59.127205,-150.14253,-59.263618,-147.1554,-21.764275,77.124298
4000000000,-8.5469666,-119.70236,-58.45816,104.06834,-58.543041,105.10371,-38.341305,12.727538
END

