!CSV A.01.01
!Keysight Technologies,N5247A,US56070710,A.10.64.09
!Date: Saturday, November 19, 2022 20:13:14
!Source: Standard

BEGIN CH1_DATA
Freq(Hz),S33(DB),S33(DEG),S34(DB),S34(DEG),S43(DB),S43(DEG),S44(DB),S44(DEG)
3000000000,-12.303221,-169.87431,-57.952892,-130.56293,-57.890903,-132.75,-16.872538,-131.52785
3005000000,-13.192339,122.12668,-58.156025,117.40113,-58.209324,116.5481,-16.528051,-139.21144
3010000000,-15.610127,173.21924,-60.366688,32.83202,-60.58144,31.668943,-15.445335,-154.58759
3015000000,-12.201951,168.79907,-60.653473,-95.437325,-60.987659,-96.251129,-14.783668,-139.86578
3020000000,-17.062075,136.19537,-58.374077,156.12932,-58.446098,157.59438,-17.279095,-165.20097
3025000000,-10.667695,159.67749,-56.99408,52.195213,-56.75293,53.406151,-13.839521,-149.62717
3030000000,-17.974566,131.99294,-57.130177,-41.445038,-57.286957,-39.418411,-18.225006,-158.77663
3035000000,-15.564338,154.17323,-56.454441,-141.04953,-56.150597,-140.14146,-14.149859,-157.03574
3040000000,-9.5108538,153.48566,-59.678768,116.89311,-59.336765,117.84526,-15.773993,-163.60687
3045000000,-21.462954,140.52582,-58.028866,3.9484096,-57.926853,5.6487656,-15.685751,-162.74966
3050000000,-11.213816,146.2941,-58.191841,-104.52843,-58.079212,-104.40498,-14.528508,179.03735
3055000000,-12.530649,138.50322,-57.795773,152.75214,-58.263149,152.28391,-14.985751,-158.16733
3060000000,-17.940123,155.64003,-57.170162,59.046787,-57.462227,60.333664,-16.292763,176.49948
3065000000,-9.0809565,133.265,-57.108513,-43.498825,-57.380966,-44.998528,-14.288163,-165.82275
3070000000,-18.144423,162.73335,-57.191845,-145.82573,-57.107811,-145.90468,-17.293598,-177.588
3075000000,-10.396143,134.73959,-56.119946,96.514656,-56.060787,95.856758,-14.599558,177.2765
3080000000,-10.919553,126.88921,-54.747726,3.6951499,-54.906673,4.7779441,-15.895704,173.24644
3085000000,-14.158693,176.01289,-55.742313,-104.65534,-55.856834,-105.25113,-16.667253,177.1855
3090000000,-8.6016645,110.37515,-58.131187,156.00035,-58.46349,154.32104,-15.081477,160.50621
3095000000,-14.939298,172.56052,-57.797142,42.870281,-58.153751,40.833839,-15.874307,-170.70187
3100000000,-10.218277,132.53603,-58.614422,-70.587891,-59.143623,-68.939529,-15.877331,156.3916
3105000000,-11.379045,113.22932,-56.511055,-171.25975,-56.449886,-171.37103,-15.371293,-179.26888
3110000000,-10.668723,149.43307,-55.535961,101.71108,-55.844376,101.77811,-16.521755,158.34848
3115000000,-13.398702,95.239571,-54.734154,-4.6391425,-55.076191,-4.5044618,-17.303415,163.64803
3120000000,-10.498062,140.92928,-54.703121,-112.64397,-54.77216,-110.473,-16.291338,156.29045
3125000000,-11.252614,132.42345,-54.96043,142.58395,-54.899879,141.82457,-18.038677,173.23271
3130000000,-11.448145,93.344986,-55.552452,40.750198,-55.698753,37.503063,-16.271666,147.30199
3135000000,-9.7255011,138.3105,-55.973122,-67.033775,-56.297787,-65.593292,-15.999712,175.1917
3140000000,-11.865231,101.9424,-56.636684,-170.88539,-56.652092,-170.55408,-17.662209,139.65007
3145000000,-13.481037,115.4854,-56.124134,79.09182,-56.669334,77.221054,-15.823244,160.74083
3150000000,-8.1460514,126.92065,-55.371124,-18.419903,-55.424839,-22.24576,-18.267467,152.9762
3155000000,-13.665145,92.744835,-54.642494,-126.5251,-54.638374,-127.7537,-19.644583,156.22458
3160000000,-8.8356705,115.06384,-55.525623,135.98682,-55.721176,135.1908,-16.014128,150.98894
3165000000,-12.283727,105.66174,-54.716858,36.107597,-54.891361,36.049713,-19.459717,165.83835
3170000000,-11.633298,118.38824,-55.670067,-70.35231,-55.841103,-69.949028,-15.843583,139.94933
3175000000,-9.5127516,105.47201,-55.498775,-175.7016,-55.864666,-176.85544,-17.296581,165.46504
3180000000,-14.380505,118.60808,-55.373768,75.77581,-55.66412,76.758347,-18.733694,140.69147
3185000000,-7.4584103,93.8937,-54.978157,-37.535122,-54.734837,-38.380508,-18.042704,157.80943
3190000000,-13.286543,98.904579,-55.492573,-139.08064,-55.379276,-138.12816,-18.632511,158.79419
3195000000,-12.027518,113.26345,-54.783066,121.86122,-54.767105,122.92213,-21.113678,155.15555
3200000000,-7.9950848,89.603699,-55.932968,15.964462,-56.154804,17.965216,-15.638903,141.27414
3205000000,-11.061787,120.05607,-55.324379,-81.769585,-55.203667,-82.67469,-21.167709,169.31575
3210000000,-10.132616,73.800117,-55.33572,175.05498,-55.343086,174.15135,-16.334152,126.13257
3215000000,-10.695403,102.70459,-54.743877,69.927261,-54.965431,70.13298,-18.117262,161.6241
3220000000,-10.014518,100.84129,-56.845821,-37.52668,-56.684364,-36.823082,-17.703024,144.07655
3225000000,-10.323491,67.414719,-56.314133,-143.8255,-56.199455,-144.6044,-18.431465,155.37544
3230000000,-10.18168,108.12402,-55.999065,111.17708,-56.034149,106.13029,-16.709677,150.33665
3235000000,-9.6802654,86.867279,-55.722179,2.6092076,-55.634865,3.1095402,-20.893389,154.68655
3240000000,-8.7367735,64.689606,-55.454746,-104.52961,-55.381046,-101.36223,-16.293406,133.00636
3245000000,-10.185475,114.71313,-54.374004,163.4386,-54.531887,162.44247,-18.807699,169.11263
3250000000,-9.8359652,61.388538,-55.689503,56.646145,-55.461018,60.109962,-18.226307,126.4351
3255000000,-9.0930834,93.656021,-55.154362,-41.105396,-55.497414,-41.22905,-17.936701,152.39076
3260000000,-9.901475,75.234741,-55.86657,-148.49008,-55.990852,-146.13881,-16.716753,138.85713
3265000000,-12.10356,72.672379,-55.548904,104.17384,-55.661331,105.10627,-18.594812,142.06419
3270000000,-6.6967578,82.403961,-56.646832,-1.5043168,-56.482525,-2.7926071,-15.978691,141.3692
3275000000,-15.448444,56.240669,-55.13982,-112.5994,-55.389854,-109.55874,-20.954842,140.05312
3280000000,-8.5476265,83.879311,-54.999096,136.24525,-55.032497,139.02812,-15.435309,134.4697
3285000000,-8.7828131,70.47419,-54.211178,42.822979,-54.320698,44.676018,-18.342031,152.94917
3290000000,-15.296485,65.7481,-54.275002,-59.039616,-54.626339,-57.826561,-16.928154,128.02087
3295000000,-6.7780795,69.012367,-55.121319,-157.14842,-55.199093,-159.3531,-16.130695,139.58295
3300000000,-11.418436,63.512093,-55.783447,93.085632,-55.921078,92.317169,-16.673931,137.91351
3305000000,-12.32446,67.522057,-55.507023,-15.001049,-55.526466,-14.104141,-19.427393,129.51196
3310000000,-8.3023176,66.225433,-55.452576,-127.74844,-55.62722,-127.47457,-14.996984,133.24774
3315000000,-11.283345,73.764526,-55.097733,127.37669,-55.173573,126.22842,-21.778976,143.13934
3320000000,-8.7489481,45.628746,-55.433517,24.445461,-55.401958,23.957701,-14.60096,120.54504
3325000000,-11.204151,61.365051,-55.184299,-80.138802,-55.728935,-80.58242,-19.094584,132.23564
3330000000,-12.094941,69.310905,-54.236706,174.66382,-54.405525,175.17618,-14.961945,120.42126
3335000000,-7.0335298,42.271084,-54.580048,78.867584,-54.567219,79.622231,-18.249739,117.83203
3340000000,-12.174704,74.375771,-55.708344,-26.522905,-55.857143,-26.900894,-15.238681,127.18965
3345000000,-9.4559298,43.899559,-56.120026,-131.69653,-56.08847,-130.25943,-20.293734,116.2101
3350000000,-9.3162937,46.759548,-57.347939,105.76847,-57.671196,105.09005,-14.274243,120.92372
3355000000,-9.9275475,57.258171,-56.316387,-3.1030183,-56.735229,-1.6247243,-21.310102,127.97144
3360000000,-12.745424,22.360676,-55.049377,-111.10981,-55.252426,-110.77353,-15.073438,103.22807
3365000000,-7.1066651,61.756695,-54.996498,146.7975,-55.113899,147.58629,-19.05044,114.02193
3370000000,-10.871035,26.599661,-56.095921,47.512726,-56.010571,46.940006,-15.909081,104.02971
3375000000,-8.8638029,42.355705,-56.817863,-51.445534,-56.938587,-49.525398,-19.024319,102.21105
3380000000,-10.11123,40.722931,-57.404613,-165.23376,-57.498135,-164.57884,-15.75871,115.09595
3385000000,-13.64114,49.60323,-59.929054,86.088966,-60.068241,87.705025,-20.630384,90.346748
3390000000,-7.2923508,36.738346,-59.538155,-26.252636,-60.009697,-23.253014,-15.28948,100.28392
3395000000,-11.767971,44.670013,-59.809174,-141.98372,-60.616528,-139.30501,-20.463865,97.88501
3400000000,-9.8858719,19.619587,-59.885998,113.13938,-59.880974,114.92247,-16.75178,91.286369
3405000000,-9.3259029,30.09087,-59.592995,21.805565,-59.730545,21.043165,-19.385712,91.794289
3410000000,-11.848226,48.127464,-58.74836,-94.804321,-58.65506,-93.304993,-17.849459,96.040527
3415000000,-7.8670449,22.622917,-60.335899,169.46027,-60.758659,171.71274,-19.005236,83.962486
3420000000,-10.168304,37.453648,-63.387646,84.555626,-62.928535,86.256256,-16.60557,104.05229
3425000000,-11.449729,33.98851,-69.430984,-37.308647,-71.476814,-42.716003,-23.350721,63.336617
3430000000,-8.067358,14.304101,-72.081741,-153.88242,-71.177193,-156.66074,-17.24575,90.836617
3435000000,-14.268208,47.409454,-68.874619,75.6464,-68.017418,70.936089,-23.690004,80.23555
3440000000,-8.7120571,23.366053,-67.132996,-10.987536,-68.081291,-13.558148,-20.734055,73.922615
3445000000,-9.3130932,16.664463,-65.901772,-85.432732,-64.927521,-81.026787,-19.062193,70.97477
3450000000,-10.752625,33.619221,-68.21463,163.14049,-68.66864,-179.69424,-20.164965,101.0961
3455000000,-10.9161,-3.4140363,-70.537766,102.02074,-70.408714,114.07018,-20.697552,50.021305
3460000000,-9.3323364,43.887344,-70.772186,-28.016872,-70.345909,-32.694019,-18.187283,95.53054
3465000000,-9.2715464,3.4869571,-73.787949,-119.63233,-73.652542,-123.52359,-31.600361,39.026478
3470000000,-12.566387,5.8849063,-72.434792,147.45142,-72.907379,175.71501,-18.302526,79.278358
3475000000,-8.3808241,30.372749,-72.422623,64.195686,-72.080124,64.89267,-28.957085,100.75082
3480000000,-12.49507,-14.246305,-76.274101,-84.268661,-76.742996,-106.79317,-23.775509,79.941696
3485000000,-7.6336756,22.831383,-80.776436,137.85159,-75.249802,136.19305,-21.778755,56.122623
3490000000,-12.806951,1.2448839,-69.659203,53.934467,-69.101051,61.09708,-22.470322,117.77348
3495000000,-12.543482,11.12758,-68.170197,-29.100786,-68.488907,-34.452312,-22.029699,17.969484
3500000000,-7.8789277,12.075417,-71.348305,-104.76064,-69.683662,-109.02375,-18.937412,110.09447
3505000000,-14.421499,3.3114054,-70.057503,169.34561,-72.371651,-178.75325,-38.107239,27.803608
3510000000,-9.7316351,3.8532085,-77.480698,50.099186,-76.63195,31.886971,-22.278433,86.1259
3515000000,-9.3126755,9.2563286,-73.580589,-80.396172,-71.751251,-74.307205,-29.75071,89.500481
3520000000,-17.706253,-9.1124582,-85.47168,174.35953,-77.887154,163.87564,-25.609344,89.997459
3525000000,-8.2897205,9.5055799,-73.472748,42.132401,-75.176521,44.498692,-24.238903,46.262398
3530000000,-11.450781,-0.13392061,-79.245659,-43.708874,-82.141762,-63.039654,-20.174494,122.49062
3535000000,-11.114259,-3.7163692,-87.453682,-164.48042,-81.162849,-128.26079,-32.305462,1.206146
3540000000,-10.91755,-11.331988,-71.940781,79.652161,-70.280685,68.560394,-18.589396,110.62037
3545000000,-10.498229,30.220493,-70.888329,-28.365929,-71.784645,-33.419926,-44.89883,-173.06978
3550000000,-9.3934393,-23.954479,-70.952705,-124.21014,-72.973434,-129.61694,-23.247871,104.42327
3555000000,-11.918679,28.902826,-72.994942,108.39127,-77.281509,98.063278,-27.923882,84.557236
3560000000,-9.8382587,-11.25926,-71.093567,-62.239929,-70.318695,-58.961143,-24.908621,133.39885
3565000000,-14.254974,-23.494556,-65.417503,-150.52972,-65.631012,-148.93088,-26.880741,43.769806
3570000000,-8.6102152,13.780353,-65.349991,114.35836,-64.631531,114.32183,-20.274557,117.91125
3575000000,-14.665622,-44.511791,-64.267052,1.5149788,-63.877777,-0.48072511,-28.903233,69.0951
3580000000,-9.6221066,14.565565,-64.173363,-121.66502,-64.088066,-119.01167,-20.806484,107.32504
3585000000,-8.6858311,-16.586067,-63.869682,126.61734,-63.713181,124.95887,-27.784895,113.6748
3590000000,-18.576279,-47.195084,-61.776302,13.088387,-62.29921,17.042631,-25.974794,116.38573
3595000000,-8.2277908,7.328105,-62.301445,-96.256073,-61.994446,-94.246735,-21.908344,79.124695
3600000000,-13.982734,-18.42548,-61.249336,159.70355,-61.601051,160.58762,-21.375105,154.48503
3605000000,-10.180397,-9.0887251,-60.202171,43.445766,-60.09779,43.382759,-23.323051,40.064617
3610000000,-10.362565,-13.131644,-59.199936,-58.685978,-59.285717,-57.897118,-19.691515,110.5197
3615000000,-19.039883,8.0609322,-59.596577,-163.2536,-60.247314,-163.20467,-30.400545,93.601318
3620000000,-8.1023693,-9.8966751,-59.650249,91.634254,-59.392014,93.16468,-23.811253,93.836388
3625000000,-13.001713,-31.244537,-59.884724,-21.497559,-59.807915,-18.379885,-23.643837,102.66775
3630000000,-13.783301,21.089727,-60.396484,-134.13185,-59.670315,-132.50044,-28.651699,118.47067
3635000000,-8.096076,-32.673397,-59.08017,116.83472,-59.106537,116.9586,-21.499847,64.03492
3640000000,-13.772519,18.757744,-58.415195,10.712965,-58.339737,9.2507534,-21.130964,138.31509
3645000000,-8.0131044,-35.311035,-58.389717,-89.4244,-58.294212,-90.691284,-21.933519,13.291311
3650000000,-18.128048,14.358643,-58.602539,171.44629,-58.59425,173.44765,-19.288803,109.94772
3655000000,-7.5388312,-2.2156944,-59.844532,65.679916,-59.942741,65.621162,-31.120098,52.081074
3660000000,-10.623623,-57.430668,-59.870602,-38.041592,-59.703465,-40.538387,-23.626038,101.60889
3665000000,-9.2136192,21.349566,-60.049831,-145.51112,-60.068611,-141.91864,-23.588343,72.618874
3670000000,-10.933288,-45.621979,-59.261326,114.05612,-59.47374,112.5069,-25.996651,144.06989
3675000000,-12.463284,-3.8237994,-59.309063,-0.71558976,-58.749809,-0.040172905,-22.338623,36.045803
3680000000,-8.5645685,-15.796964,-58.857113,-100.10823,-58.510399,-99.793594,-21.580164,138.29807
3685000000,-15.661606,-56.249321,-57.622387,148.83388,-58.030331,148.68871,-24.200966,-20.699783
3690000000,-7.6905999,0.34839311,-57.285583,42.481346,-57.492317,43.382923,-20.926113,98.554497
3695000000,-11.074162,-34.094238,-57.670921,-56.957146,-57.79147,-52.573883,-35.286995,37.191509
3700000000,-14.806742,-28.84338,-58.612492,-149.73833,-58.512711,-152.37204,-30.08499,94.940948
3705000000,-7.4636183,-10.811539,-58.177761,98.136314,-58.792381,99.886696,-21.996046,49.540932
3710000000,-19.440058,-62.704964,-59.514912,-6.0894856,-59.413128,-10.948726,-22.786707,167.10463
3715000000,-6.6023655,-12.308422,-59.199505,-111.38767,-58.759953,-111.82349,-22.238863,21.55224
3720000000,-10.785388,-47.864765,-58.181023,144.01703,-57.96793,141.42401,-21.161987,150.6236
3725000000,-14.347266,16.939758,-57.520741,34.019157,-57.525314,35.113029,-27.517174,-8.0624323
3730000000,-5.5733848,-33.334923,-57.490021,-62.620651,-57.291111,-63.265385,-25.102074,105.88544
3735000000,-24.164616,18.105822,-57.21479,-163.98122,-57.497551,-166.67226,-30.689352,96.179993
3740000000,-7.5117459,-18.230549,-58.034306,91.665604,-58.004787,92.66217,-29.105324,-171.7054
3745000000,-9.7419977,-48.871143,-59.034424,-18.574778,-58.74762,-20.113441,-26.268839,50.227684
3750000000,-10.595999,6.8327951,-58.231892,-114.79267,-58.557446,-116.38747,-21.210136,171.77376
3755000000,-8.3090601,-67.334869,-58.47467,132.64282,-58.12471,132.24469,-25.561893,5.617681
3760000000,-9.380743,11.006069,-59.656681,27.103113,-59.617931,30.242565,-20.891624,148.97379
3765000000,-7.0903916,-46.519794,-57.960564,-75.538918,-58.162384,-73.59536,-31.305046,-23.743982
3770000000,-14.219906,-39.96925,-58.023884,179.88934,-57.856228,-179.67896,-27.259987,133.97343
3775000000,-6.4961157,-14.918986,-57.53793,76.121338,-57.796486,77.721306,-26.500559,98.740509
3780000000,-11.182735,-77.828651,-57.460373,-12.672477,-57.628563,-15.390068,-23.091185,-176.50327
3785000000,-9.2525139,-11.775813,-57.936722,-123.4485,-58.850552,-124.9548,-23.481459,69.769867
3790000000,-7.8276205,-30.231548,-58.767887,128.09908,-58.896229,127.75413,-18.66828,160.72215
3795000000,-11.105674,-67.492218,-59.006443,25.040264,-58.860195,26.148905,-34.006676,-11.882831
3800000000,-7.3274775,-17.298763,-58.815971,-80.498352,-59.130512,-81.520905,-20.273544,137.65263
3805000000,-10.02743,-65.877701,-56.933655,176.48692,-57.536308,178.44948,-35.180801,-165.59012
3810000000,-11.052282,-10.608018,-57.210808,74.541153,-56.929379,75.390488,-23.751501,140.84131
3815000000,-4.992352,-46.028011,-57.604851,-29.009918,-57.613316,-28.317823,-24.428633,103.53705
3820000000,-24.810793,-49.408886,-57.394535,-131.38617,-57.672581,-129.87117,-20.602388,163.1637
3825000000,-4.677732,-38.000591,-57.915798,123.21836,-58.320236,121.25629,-22.446358,62.786678
3830000000,-15.559253,-72.693504,-58.371727,23.444736,-57.895241,23.797985,-16.996525,150.64922
3835000000,-7.6200342,-25.738548,-58.670174,-86.780167,-58.239567,-89.566978,-41.464489,163.18576
3840000000,-6.35781,-67.17112,-58.931999,169.12,-59.53907,168.63507,-20.663973,125.28429
3845000000,-14.530133,-4.4821291,-57.456875,65.25563,-58.025814,64.283737,-23.323877,133.90063
3850000000,-4.9884377,-54.837536,-57.687271,-30.681637,-57.738136,-35.557934,-24.205935,144.83417
3855000000,-13.583038,-58.591774,-57.81374,-136.43335,-57.355816,-135.69601,-19.609283,86.620491
3860000000,-6.7193704,-37.153198,-57.685246,120.32329,-57.664223,119.71181,-19.263668,160.14948
3865000000,-7.6228805,-78.275406,-58.350342,19.098824,-58.000835,20.114408,-20.621235,60.006588
3870000000,-10.086114,-18.342218,-58.216888,-89.748001,-58.11742,-87.142334,-16.548296,148.7683
3875000000,-6.1355581,-62.171608,-58.436001,164.01396,-58.177879,164.25644,-24.869684,73.596802
3880000000,-10.94297,-66.935143,-59.197754,66.449387,-58.896919,67.519257,-20.807014,135.2438
3885000000,-6.6392946,-36.5509,-58.139027,-41.375458,-58.437798,-40.469707,-19.246422,92.050011
3890000000,-6.2556133,-93.707153,-58.518898,-143.89488,-58.522442,-143.08618,-23.907784,169.28694
3895000000,-10.373113,-13.73216,-58.413639,116.69158,-57.993965,118.22793,-16.942165,61.210258
3900000000,-4.1892805,-60.261223,-57.399574,14.465364,-57.18531,13.343019,-17.103054,148.52414
3905000000,-10.935471,-84.295792,-57.372894,-85.746002,-57.723846,-84.569382,-22.209715,46.990364
3910000000,-6.3598356,-43.756584,-58.029861,169.57092,-57.980335,164.95615,-17.086021,117.24599
3915000000,-9.1545496,-97.1222,-59.063637,64.436165,-59.137447,64.348404,-24.30253,83.089333
3920000000,-6.7088728,-36.389984,-58.904068,-35.079613,-58.852108,-38.293659,-21.95204,110.6988
3925000000,-6.2062817,-78.797791,-58.304077,-148.72934,-58.261486,-148.54219,-18.912846,79.897835
3930000000,-12.498226,-56.945801,-58.590771,112.81725,-57.870354,114.75005,-23.734442,167.23633
3935000000,-4.7653461,-72.802048,-57.626995,15.170052,-57.42823,15.923446,-17.218983,48.951599
3940000000,-13.504707,-63.830425,-57.3722,-91.213768,-57.753075,-92.924988,-18.309454,127.21355
3945000000,-6.6173258,-69.452103,-58.02338,166.04001,-58.232609,165.77641,-22.324379,46.608025
3950000000,-7.1126871,-72.084213,-58.292339,60.516289,-57.932362,59.277237,-19.125797,89.816475
3955000000,-10.259487,-66.75338,-57.80056,-45.944927,-57.800037,-44.104279,-24.709194,102.03356
3960000000,-5.9981585,-82.092552,-58.294514,-146.15254,-57.756783,-144.69391,-23.414507,55.238834
3965000000,-11.046936,-69.374031,-58.132061,116.20932,-58.325775,117.59855,-19.264194,88.249268
3970000000,-7.4160581,-72.330208,-58.87709,3.9238443,-58.719376,8.2469187,-32.267094,146.85049
3975000000,-5.9455519,-93.859016,-57.940456,-95.533134,-57.780865,-96.033295,-17.16251,48.462425
3980000000,-10.013217,-57.500263,-57.457043,160.15788,-57.70808,155.01903,-21.721909,121.54583
3985000000,-5.9237423,-86.98172,-57.53582,58.175571,-57.680061,60.939651,-21.50263,37.358624
3990000000,-10.514442,-80.876518,-57.413589,-46.232075,-57.329739,-41.445679,-24.662937,91.275391
3995000000,-5.9429932,-77.213203,-59.147343,-148.56201,-58.651939,-146.59613,-21.794285,77.037384
4000000000,-8.5007763,-118.9947,-57.29665,101.86196,-57.183369,101.73048,-38.707764,14.077972
END

