!CSV A.01.01
!Keysight Technologies,N5247A,US56070710,A.10.64.09
!Date: Thursday, November 10, 2022 02:22:36
!Source: Standard

BEGIN CH1_DATA
Freq(Hz),S33(DB),S33(DEG),S34(DB),S34(DEG),S43(DB),S43(DEG),S44(DB),S44(DEG)
3000000000,6.0229216,23.973007,-56.86861,13.760807,-56.02174,7.3191524,-16.083761,-140.02553
3005000000,5.4250011,-75.726357,-55.612873,-78.957886,-55.694386,-78.158112,-15.660851,-139.77144
3010000000,6.4992247,177.05925,-55.011044,-175.73495,-55.345978,-175.91243,-15.739594,-142.386
3015000000,7.2339358,103.51262,-54.909023,91.423103,-54.113312,100.92645,-15.850869,-146.19196
3020000000,5.6387844,-9.3719778,-57.047863,5.1114197,-56.511547,-5.2015829,-15.629991,-146.37129
3025000000,5.9767728,-105.84464,-54.17165,-91.879578,-54.142738,-90.389519,-15.435908,-147.90733
3030000000,6.5137162,157.40517,-55.930885,176.83611,-56.96294,178.39729,-15.338651,-152.86563
3035000000,8.3342733,66.226204,-57.457703,85.182838,-54.865368,89.538727,-15.450181,-156.92827
3040000000,3.6389782,-31.736965,-56.154221,2.9468729,-56.838287,-2.7693901,-15.537538,-161.75722
3045000000,6.8964372,-139.78023,-57.950741,-98.070503,-57.674007,-100.53626,-15.123614,-166.3418
3050000000,7.4516859,133.01942,-59.701927,-176.71953,-59.264683,-168.20264,-14.960308,-165.07484
3055000000,6.9341912,41.085407,-61.269577,102.40376,-59.575909,97.278358,-15.423347,-164.265
3060000000,5.0383573,-60.15575,-63.227116,7.030551,-63.701424,3.0611019,-15.390306,-170.36116
3065000000,6.6347132,-170.27071,-63.469444,-61.336384,-63.645283,-59.211246,-14.840548,-174.49939
3070000000,7.4527125,113.50819,-65.386238,-125.11125,-64.573204,-116.61435,-15.172357,-173.06569
3075000000,6.0117979,5.0942616,-65.478699,175.09023,-64.551537,166.42267,-15.922072,-175.40779
3080000000,4.3936205,-92.999741,-62.56245,80.537445,-62.865311,80.908241,-16.010843,-179.4675
3085000000,6.0012617,165.44173,-59.742661,-9.9004526,-60.77853,-12.113012,-15.84942,-179.50499
3090000000,8.3955402,83.758049,-59.805813,-82.326599,-57.69878,-73.880547,-16.101757,179.83173
3095000000,4.2135029,-16.418917,-57.616352,-174.96884,-57.985413,-179.38007,-15.993093,174.38795
3100000000,5.8222222,-125.6239,-58.519249,93.128601,-58.103054,90.689186,-15.86251,171.14619
3105000000,6.905149,139.6926,-55.925083,-0.53422201,-55.933949,7.5918517,-16.131998,170.96429
3110000000,7.6781063,56.159706,-56.479729,-84.811836,-54.567112,-88.20945,-16.502314,169.63188
3115000000,4.6910706,-42.609863,-57.705002,177.92062,-57.974064,176.82965,-16.453108,169.00275
3120000000,6.2047539,-158.53508,-55.761372,88.396118,-55.502121,89.233482,-16.419701,170.12408
3125000000,6.9687409,123.61511,-57.919239,-6.2455063,-58.135513,2.6091709,-16.489216,169.44421
3130000000,7.6674938,21.134464,-58.452274,-100.97961,-56.766212,-106.75201,-16.905708,165.74873
3135000000,4.3458743,-73.956726,-58.165306,178.88766,-58.232201,-178.3069,-17.469366,161.77998
3140000000,6.0935602,175.64917,-61.373268,76.520889,-61.863754,72.124794,-17.767172,159.79277
3145000000,8.79037,95.39888,-62.257099,4.4970002,-60.934235,14.744452,-17.625751,159.74857
3150000000,5.5909081,-0.66488004,-62.729313,-83.658142,-62.528,-87.16227,-17.420732,160.15704
3155000000,5.6223478,-104.57044,-64.461388,-167.89185,-64.124016,-171.31943,-17.175341,159.96475
3160000000,6.5740261,149.53621,-62.848175,152.54283,-63.100189,153.83507,-17.063595,158.21384
3165000000,8.4510498,71.325768,-66.419724,41.169083,-65.277039,44.390839,-17.511168,157.03874
3170000000,4.8626571,-25.258701,-67.683952,-0.4842878,-67.759682,-5.5323873,-18.049814,157.30792
3175000000,5.3882532,-139.49272,-59.564125,-91.562325,-59.804535,-92.747429,-18.074898,158.68648
3180000000,6.9889326,131.95181,-64.433937,-172.81174,-64.758751,-164.43523,-17.91753,159.59737
3185000000,9.0212107,33.232037,-61.1436,114.23306,-58.427338,109.04686,-17.987875,161.9082
3190000000,4.321609,-53.605118,-58.273525,3.0109053,-58.482063,0.78395694,-18.349281,160.05141
3195000000,5.7949347,-173.68005,-60.491673,-76.851959,-60.430363,-79.22448,-18.812721,152.94443
3200000000,8.3339653,103.60754,-59.602066,-169.37398,-57.752495,-154.72733,-18.516321,148.44585
3205000000,6.53299,7.3698244,-58.34486,91.480759,-57.68713,81.688217,-18.529194,154.5148
3210000000,6.9161797,-81.856789,-59.290222,16.137228,-59.420708,20.811348,-18.665319,156.18744
3215000000,7.7600465,158.24483,-60.05843,-76.941322,-60.63324,-74.228004,-18.383806,151.45746
3220000000,11.070076,81.962967,-60.449696,-169.96262,-58.234852,-162.8513,-17.433479,151.83603
3225000000,7.3239741,-19.051527,-60.661537,116.99131,-61.052544,110.82401,-17.578077,155.65312
3230000000,7.3031192,-121.81839,-59.614845,19.530422,-58.857788,21.699341,-18.432152,152.72913
3235000000,7.1829185,138.18425,-63.259129,-69.208221,-64.046852,-58.954941,-18.483358,150.36023
3240000000,11.302524,41.034595,-62.685795,-138.15631,-59.84021,-146.70383,-17.918459,155.02972
3245000000,6.6858168,-40.246498,-60.801357,132.45901,-61.875408,129.7731,-18.015013,156.43649
3250000000,7.6253314,-160.53625,-64.259377,50.241627,-64.273285,44.666073,-18.193861,151.99953
3255000000,9.0496931,120.19596,-63.326653,-43.493488,-62.990585,-26.958801,-18.014177,149.38972
3260000000,9.6157961,12.404153,-63.476006,-116.9012,-62.191116,-139.05296,-17.901779,146.79033
3265000000,7.6220999,-68.744949,-63.335953,168.58757,-63.613972,167.11287,-17.693111,144.46918
3270000000,7.3562598,167.23087,-62.279228,70.080307,-63.04372,71.504433,-17.524452,148.54474
3275000000,11.167679,90.235176,-65.1381,-9.5328999,-62.807495,0.27207375,-17.654501,150.96158
3280000000,8.1803064,-13.766836,-62.912346,-80.137581,-63.121101,-96.182411,-17.591431,145.29358
3285000000,7.2083597,-98.344955,-61.057358,-179.36372,-60.499397,-173.14369,-17.056032,141.72549
3290000000,6.9586511,146.6514,-62.507702,99.835594,-64.245033,105.23635,-17.077183,143.63399
3295000000,12.267666,43.355419,-62.746075,12.72115,-58.587769,2.321466,-17.438816,141.06042
3300000000,7.2268991,-33.092548,-62.193405,-71.583412,-63.660931,-76.41851,-17.418247,139.06299
3305000000,8.5190372,-145.90021,-62.339458,-164.05899,-62.084503,-168.01651,-17.408405,141.84792
3310000000,9.1058645,123.16548,-63.408905,113.40004,-62.399227,123.78555,-17.524948,138.33047
3315000000,10.634623,17.930216,-64.32724,41.710861,-62.327477,28.629492,-16.826147,131.14293
3320000000,8.0354862,-51.840664,-63.024277,-38.668282,-63.717915,-34.910431,-16.736107,132.98422
3325000000,7.4852042,178.88452,-61.643555,-132.75206,-62.500641,-137.7274,-17.520311,133.56589
3330000000,10.546444,100.46249,-62.268539,152.61243,-60.606064,165.80856,-17.446867,125.26987
3335000000,9.3161182,-7.7170014,-60.695114,67.041847,-60.919048,51.383701,-16.661295,125.25547
3340000000,8.7498331,-88.100441,-59.463341,-28.15321,-58.812557,-24.273727,-16.738813,130.51497
3345000000,6.5606508,156.8157,-59.363743,-114.12297,-61.401615,-113.87306,-16.978931,126.26727
3350000000,12.862889,57.74184,-59.917595,155.30455,-55.270916,152.10973,-16.800369,119.0507
3355000000,7.7735524,-22.97982,-58.521774,53.642433,-59.583935,45.919746,-17.036501,120.98267
3360000000,9.1699505,-123.53693,-58.778786,-36.380508,-57.876705,-44.978645,-17.474003,120.7712
3365000000,8.3835058,133.3365,-59.989357,-138.12022,-59.778675,-125.21487,-17.559616,114.90643
3370000000,11.254189,23.429262,-61.431316,129.8512,-60.014179,113.94489,-17.787508,113.73653
3375000000,8.832181,-47.580208,-63.06414,30.580513,-63.533817,32.868481,-17.561872,112.95639
3380000000,7.1238866,-162.77655,-65.853233,-93.078934,-67.326126,-96.562714,-17.110987,106.79378
3385000000,8.9376602,112.32355,-77.528931,118.33736,-76.395195,119.83447,-17.613684,105.11009
3390000000,9.6262264,0.47226232,-67.11425,-49.182465,-67.604347,-68.233253,-18.129229,105.63148
3395000000,8.6410036,-68.688225,-62.00169,-154.23364,-62.791435,-150.40552,-17.855337,103.32877
3400000000,6.8322921,169.00525,-58.613888,100.85851,-59.743217,98.061966,-18.079189,103.24623
3405000000,12.507222,74.291222,-57.906837,-2.9670525,-54.11076,-3.3695168,-18.866898,105.9537
3410000000,8.8231516,-20.153044,-55.534477,-102.59081,-56.970169,-112.10412,-18.86418,99.485023
3415000000,10.324629,-113.38481,-54.576038,153.10696,-53.723835,150.77017,-19.00433,93.283936
3420000000,7.2959695,138.55574,-55.138199,49.321438,-55.804897,57.843903,-19.969978,94.828827
3425000000,11.648364,36.602306,-55.080265,-43.416916,-52.860359,-50.31419,-20.647017,92.14962
3430000000,8.9841785,-41.421528,-54.909782,-142.5295,-56.105045,-143.70358,-20.089144,84.558868
3435000000,8.8472452,-151.58269,-55.495762,111.07987,-55.539719,105.04346,-19.913277,86.415489
3440000000,8.3843851,119.21952,-57.641861,16.729548,-57.812588,29.090036,-20.219057,89.558525
3445000000,10.549418,2.7429781,-58.909554,-72.921234,-58.133854,-93.493568,-20.617481,83.23571
3450000000,9.062274,-64.74382,-60.539562,173.03325,-60.938164,176.28023,-20.660477,79.95047
3455000000,7.1616197,175.62347,-64.835312,56.323925,-66.225616,48.741398,-21.149387,87.483673
3460000000,10.790939,84.419884,-67.534103,-58.664974,-65.029709,-56.869862,-22.249506,93.342644
3465000000,9.2773561,-15.668698,-67.389664,156.36221,-68.442841,146.27298,-23.781605,87.946724
3470000000,10.227262,-98.961845,-63.683224,24.619419,-63.141209,23.949953,-23.823862,82.542381
3475000000,6.7846804,149.22762,-63.294811,-84.492386,-63.760391,-80.386398,-23.781296,82.294357
3480000000,11.638826,47.407475,-59.32563,-172.87346,-57.208908,176.40379,-24.774519,76.492294
3485000000,9.5401669,-39.204563,-58.266319,78.773857,-59.022659,74.907326,-24.740459,72.761238
3490000000,8.9865437,-135.62939,-56.68782,-27.647219,-56.390366,-27.486103,-24.169466,83.785515
3495000000,7.113492,128.31696,-56.041847,-122.73545,-56.584454,-112.15067,-24.895615,93.350136
3500000000,10.738565,9.6259251,-56.268429,149.59419,-54.897472,131.72379,-25.858042,91.738625
3505000000,8.4792795,-57.741348,-55.140076,49.437473,-56.34679,51.417778,-25.344442,87.616722
3510000000,8.0162344,-171.89917,-55.830288,-55.162647,-56.695366,-62.984413,-25.73354,93.542351
3515000000,9.1990395,95.832947,-57.554546,-149.68874,-56.073277,-141.19016,-26.487791,100.35926
3520000000,9.0585327,-7.9203215,-57.822731,120.50193,-58.06979,106.34627,-26.579397,108.40673
3525000000,9.9855604,-84.562065,-58.53371,20.057049,-58.172592,21.882875,-27.66737,118.18526
3530000000,6.5310836,160.47298,-60.988373,-95.141861,-62.162178,-93.110626,-30.037859,114.49502
3535000000,10.958176,63.020149,-65.128502,175.48744,-61.953674,173.97516,-27.667471,92.436317
3540000000,8.8182154,-31.242474,-67.341431,72.106728,-68.773392,62.93589,-26.236536,97.630081
3545000000,9.6803188,-116.80231,-74.768501,-81.682564,-74.007622,-70.30957,-27.72484,111.31077
3550000000,6.2546086,138.60884,-67.427704,110.98661,-68.412498,120.07943,-27.923937,106.52142
3555000000,10.334368,25.071552,-65.583488,4.0261321,-64.022293,-8.3424673,-25.930355,104.05978
3560000000,7.9514937,-49.245453,-59.730049,-98.700333,-61.565578,-98.123299,-25.875267,113.72559
3565000000,8.5252333,-158.43636,-57.936993,154.49493,-57.967381,145.06947,-25.654001,108.42918
3570000000,7.8067274,108.66582,-58.324837,59.780254,-57.508392,71.170486,-23.787155,100.10816
3575000000,9.0530329,-2.5397255,-56.129482,-27.316122,-56.149273,-45.173439,-23.595205,117.39719
3580000000,8.9657593,-72.42746,-54.973427,-136.92291,-55.468384,-133.3746,-24.869879,136.30829
3585000000,6.8419814,173.88358,-56.015194,118.48843,-56.384464,115.3485,-26.990583,121.60234
3590000000,9.0373049,81.882286,-56.237164,22.465027,-54.696548,28.142582,-26.246294,108.04043
3595000000,8.6587772,-24.748804,-56.261269,-73.174553,-57.229687,-85.742279,-25.67989,116.03667
3600000000,9.3057604,-102.87698,-56.964211,172.89032,-56.731144,176.50198,-26.188055,101.57012
3605000000,5.9069824,146.97546,-60.017426,67.704887,-61.140339,68.862869,-25.212893,91.008621
3610000000,9.9931259,42.273598,-62.065025,-34.271408,-60.101688,-38.557121,-24.61726,102.24094
3615000000,7.8974929,-43.454319,-67.401093,-164.05849,-68.975937,-174.21603,-24.319263,107.4553
3620000000,9.5207396,-139.88687,-69.690102,32.695316,-68.106689,21.483461,-23.849861,101.6264
3625000000,6.7409687,123.17002,-65.562477,-84.246803,-65.359123,-74.574425,-23.864891,109.04237
3630000000,9.6429596,15.974433,-60.930328,162.35997,-59.752949,150.73711,-25.082071,110.51376
3635000000,8.6172705,-58.433445,-58.368134,57.997303,-59.438995,58.951199,-26.263922,96.348312
3640000000,7.6732759,-171.50592,-57.690792,-50.249146,-58.072857,-53.961376,-25.823803,95.132881
3645000000,7.9731216,100.68376,-57.577103,-148.41745,-56.984848,-136.64519,-25.686113,105.62996
3650000000,9.227788,-14.311871,-57.209942,118.52344,-57.403282,103.64262,-26.160416,103.39193
3655000000,9.189827,-83.668907,-56.485756,14.055641,-56.5993,18.057018,-26.652775,96.767998
3660000000,6.5505242,162.2067,-57.180344,-88.257401,-58.093277,-90.494034,-27.22402,91.906967
3665000000,9.1145763,59.49749,-58.994034,176.51041,-56.870186,178.79048,-27.048296,81.745262
3670000000,7.648901,-34.005116,-58.777424,79.3685,-60.270344,74.171883,-26.207653,81.298401
3675000000,9.8622179,-119.73804,-59.991985,-22.028835,-59.59425,-19.889013,-26.344522,96.137154
3680000000,6.3403716,136.34311,-62.950356,-115.61009,-63.660435,-115.85676,-27.376114,107.09836
3685000000,10.199074,29.260811,-65.358299,153.56131,-64.584023,143.71857,-28.601828,99.18576
3690000000,8.8182163,-56.395969,-70.814377,7.8246837,-71.265366,17.552837,-28.412685,94.249901
3695000000,8.136364,-154.13509,-73.733597,-146.60435,-71.887688,-152.36346,-29.81366,101.62949
3700000000,6.4892774,113.74483,-70.595985,87.560852,-70.390488,101.67479,-33.774635,101.1972
3705000000,9.6277065,-4.1295218,-65.031662,-23.056713,-64.076309,-36.666309,-35.045982,78.18782
3710000000,8.2256699,-71.382622,-61.726028,-129.31313,-63.319866,-124.17694,-32.19791,87.678299
3715000000,7.379765,175.23471,-60.913841,130.064,-61.811565,122.72397,-31.139902,98.453789
3720000000,8.2986488,77.701843,-60.251888,36.852345,-58.881927,43.027851,-32.011787,102.25612
3725000000,8.3031244,-25.378366,-58.321186,-62.619987,-59.273506,-75.107941,-32.51886,98.044571
3730000000,9.9170389,-104.53699,-57.774689,-163.56271,-57.125,-160.77107,-32.631317,106.07115
3735000000,5.8555417,148.83138,-57.780064,105.16013,-58.693447,105.0612,-32.946453,116.20495
3740000000,9.1984472,48.576099,-57.997795,11.121511,-56.259201,8.1838388,-30.680624,127.31461
3745000000,8.6465454,-46.138092,-58.336987,-88.878014,-58.921173,-92.228371,-28.481503,138.26593
3750000000,9.1861668,-134.73257,-58.526482,173.05501,-57.644928,172.26692,-29.327682,155.35388
3755000000,5.6459489,129.43683,-60.124001,76.519569,-61.88868,82.482063,-32.767651,158.06541
3760000000,9.96597,12.200417,-61.768406,-18.226725,-59.970718,-29.719475,-32.602406,141.94911
3765000000,8.201602,-61.168961,-62.779442,-117.31621,-64.37384,-116.71401,-30.781603,149.63286
3770000000,8.7734842,-167.31433,-65.806099,139.49333,-65.756012,125.23569,-30.944756,158.10526
3775000000,7.3845787,96.972725,-67.674919,22.591936,-67.41478,36.874866,-29.779776,139.51395
3780000000,9.2566166,-17.386564,-68.353333,-99.772606,-68.418182,-112.74824,-26.839827,136.49965
3785000000,9.8713894,-83.763863,-69.334709,119.66969,-70.625854,120.91356,-26.012068,145.93781
3790000000,7.1733737,165.10649,-66.615669,-10.209904,-67.160103,-16.573374,-26.086611,150.28958
3795000000,8.2271938,73.517387,-64.014732,-100.50173,-62.388863,-90.307556,-25.576828,152.06013
3800000000,8.833643,-39.720036,-60.638927,152.97462,-62.037254,141.40636,-25.525679,158.87712
3805000000,9.6282949,-115.85358,-58.987736,48.940399,-59.071331,56.57679,-25.497791,155.00516
3810000000,6.1279325,138.87079,-59.162205,-49.363632,-60.255497,-47.093212,-24.29076,148.31012
3815000000,10.3557,26.86195,-58.310585,-136.25793,-56.531857,-149.9182,-24.58165,154.09547
3820000000,8.2615604,-56.343189,-57.013363,117.36884,-59.008827,118.49722,-27.327175,152.65067
3825000000,9.973855,-152.95039,-58.220581,15.958133,-57.116978,10.90908,-25.938749,129.20319
3830000000,5.6806979,111.67701,-58.02314,-75.509354,-59.133698,-66.716393,-23.164995,132.36119
3835000000,9.5831699,-4.545774,-58.409294,-170.65178,-57.194271,176.60405,-23.13961,144.24223
3840000000,9.382453,-77.651428,-58.822346,86.854553,-59.646294,89.955185,-24.014885,137.50536
3845000000,8.3820791,176.48569,-59.237103,-10.327127,-59.50898,-10.542964,-22.868099,127.51675
3850000000,7.8730636,88.330101,-63.074177,-114.41815,-62.137634,-99.35611,-22.49449,130.82718
3855000000,9.1950493,-30.511948,-63.195656,158.02026,-63.947643,146.59834,-23.02454,133.73506
3860000000,10.145472,-99.182045,-65.157829,45.421124,-65.071251,57.088772,-22.731207,128.67712
3865000000,6.4230762,151.63626,-72.364883,-49.715202,-73.044548,-58.000225,-22.426939,128.99129
3870000000,8.6990623,50.550789,-78.509125,151.84737,-73.006866,144.77969,-22.607718,128.99184
3875000000,8.2631969,-51.837524,-70.06797,32.922932,-72.328743,26.847481,-22.22645,123.88116
3880000000,10.715557,-133.67216,-67.737679,-99.047607,-66.125137,-98.053253,-22.509571,119.94514
3885000000,5.9043975,128.86517,-65.73542,160.38693,-67.67205,166.35474,-23.602505,114.73035
3890000000,9.9261408,16.062733,-62.880753,65.803741,-61.357513,57.05307,-22.315865,106.50732
3895000000,8.7522326,-69.059654,-60.405495,-33.090614,-62.24435,-34.976788,-20.472872,109.54577
3900000000,9.7285929,-168.34355,-60.531689,-143.26945,-60.200157,-146.95894,-20.699247,116.99117
3905000000,7.0860462,97.956741,-60.357727,128.11717,-60.56744,135.66988,-21.76367,118.23824
3910000000,9.4059429,-21.007742,-58.75079,33.247913,-58.34951,24.277197,-21.932217,110.90055
3915000000,10.226629,-89.659775,-58.213181,-66.228722,-58.395855,-56.873257,-22.371521,107.58762
3920000000,8.0357609,161.10696,-59.456638,-157.14456,-60.349709,-167.07321,-23.094151,107.81536
3925000000,8.4172497,69.707924,-58.778187,105.41799,-57.424599,115.39033,-23.081335,104.88257
3930000000,8.4808626,-44.989491,-59.324497,12.136575,-60.490795,3.2867439,-23.122173,98.017387
3935000000,11.047006,-123.53527,-60.549709,-89.872459,-59.468243,-85.891045,-23.255384,88.161507
3940000000,6.5651202,139.57303,-62.057293,173.38144,-62.76049,177.20848,-21.949286,85.522926
3945000000,9.7970982,31.338335,-63.954948,77.928436,-62.364513,73.356827,-21.00585,88.765152
3950000000,9.4549494,-63.505913,-63.959915,-19.717413,-66.147163,-20.034822,-22.156319,94.259163
3955000000,10.451263,-154.1539,-66.541275,-133.65848,-66.432411,-140.51463,-23.762163,94.815918
3960000000,6.0358868,117.82702,-73.840378,115.67336,-75.930099,129.24614,-23.257927,88.482536
3965000000,8.8545008,-9.5306921,-74.313911,-19.083664,-74.998665,-25.47616,-22.825773,84.169121
3970000000,8.7225819,-80.751747,-71.570518,-155.86644,-73.144615,-139.04665,-24.012354,82.659645
3975000000,9.0744295,172.47159,-68.413147,84.182251,-68.239395,70.776993,-24.249336,76.901413
3980000000,7.7545991,86.785667,-65.062546,-19.715416,-64.384506,-11.638604,-23.652714,73.943886
3985000000,8.0044527,-32.951717,-63.048317,-114.44417,-63.561661,-118.32059,-24.651512,74.909523
3990000000,10.125192,-106.97377,-61.051144,142.34431,-60.444664,151.25063,-25.201471,73.189156
3995000000,6.6721416,150.60049,-62.052296,41.315533,-62.046349,39.916134,-23.374434,69.388786
4000000000,6.2220225,52.070881,-60.558811,-33.877125,-59.557751,-31.264347,-23.054523,71.911568
END

