!CSV A.01.01
!Keysight Technologies,N5247A,US56070710,A.10.64.09
!Date: Thursday, November 10, 2022 02:22:49
!Source: Standard

BEGIN CH1_DATA
Freq(Hz),S33(DB),S33(DEG),S34(DB),S34(DEG),S43(DB),S43(DEG),S44(DB),S44(DEG)
3000000000,6.0247583,23.984695,-56.909782,15.239899,-56.006176,8.8729849,-16.085024,-140.07193
3005000000,5.4232221,-75.716797,-55.482975,-78.524284,-55.813351,-76.964081,-15.662339,-139.81404
3010000000,6.4975719,177.05128,-55.07663,-175.52045,-55.382141,-174.95097,-15.740468,-142.42979
3015000000,7.2348175,103.50662,-54.712414,91.65358,-53.943501,101.646,-15.849754,-146.22609
3020000000,5.6397352,-9.3693037,-56.661846,4.2942443,-56.299999,-3.4650877,-15.630968,-146.39865
3025000000,5.9753456,-105.83958,-53.97646,-92.388756,-53.948845,-90.321304,-15.437963,-147.94989
3030000000,6.5127044,157.3933,-56.039768,177.0406,-56.790051,179.69891,-15.338495,-152.90776
3035000000,8.33634,66.212555,-57.357674,87.145134,-54.888897,90.181343,-15.449422,-156.96072
3040000000,3.6391222,-31.724033,-56.01519,1.2430619,-56.803909,-1.8761189,-15.539746,-161.79712
3045000000,6.8942652,-139.78328,-57.977119,-100.74545,-57.631374,-101.77951,-15.123588,-166.3799
3050000000,7.4514832,133.00511,-59.458458,-179.99551,-59.002743,-169.78209,-14.959108,-165.1067
3055000000,6.935307,41.083809,-61.261414,100.48969,-59.760052,95.387169,-15.42131,-164.31386
3060000000,5.0387125,-60.154568,-63.757633,2.3663266,-63.661087,0.42550644,-15.394295,-170.41432
3065000000,6.633595,-170.27257,-64.225754,-62.873417,-64.507027,-64.114891,-14.840444,-174.53564
3070000000,7.4534783,113.49749,-66.116081,-128.23441,-65.172302,-117.77101,-15.17012,-173.11198
3075000000,6.0129123,5.0907221,-65.176094,172.48932,-64.506088,166.28407,-15.922987,-175.4689
3080000000,4.390038,-93.001419,-62.387093,82.654015,-63.002987,87.060783,-16.014517,-179.49422
3085000000,6.0007405,165.42554,-59.878792,-9.1954651,-60.719612,-11.574234,-15.847529,-179.52103
3090000000,8.397233,83.745537,-59.943047,-80.174583,-58.033871,-71.895744,-16.101646,179.75119
3095000000,4.2138801,-16.406973,-57.582489,-172.77628,-57.852001,-179.46078,-15.997738,174.32036
3100000000,5.8198447,-125.62019,-58.313339,95.096115,-58.230705,93.983772,-15.86308,171.14774
3105000000,6.904551,139.67836,-55.69556,0.97155482,-55.631958,9.0075226,-16.125486,170.91283
3110000000,7.6804423,56.149292,-56.107346,-85.356445,-54.270535,-86.951614,-16.506313,169.5383
3115000000,4.6920714,-42.601151,-57.421642,-178.62321,-57.860737,177.87633,-16.46106,168.98831
3120000000,6.2014642,-158.54057,-55.409222,87.99456,-55.274395,89.316132,-16.410072,170.1037
3125000000,6.9684224,123.6013,-57.375664,-6.9225168,-57.51453,3.007463,-16.485527,169.33144
3130000000,7.6674957,21.123356,-58.102024,-99.015282,-56.592278,-106.09499,-16.918921,165.69624
3135000000,4.345222,-73.951393,-57.690697,178.56473,-57.791595,179.34541,-17.469715,161.83882
3140000000,6.0921097,175.64656,-60.462406,75.595535,-61.611843,68.241577,-17.751963,159.69798
3145000000,8.7918167,95.379448,-62.133236,-0.551256,-60.217579,13.825854,-17.637447,159.60582
3150000000,5.5919948,-0.67054456,-62.667679,-89.541199,-63.055305,-96.057808,-17.433834,160.21603
3155000000,5.6217723,-104.56245,-64.059052,-176.02956,-63.814724,-177.72914,-17.155161,159.95427
3160000000,6.5726876,149.52602,-63.823006,151.25229,-63.705967,150.72159,-17.061249,158.01437
3165000000,8.4511995,71.312149,-68.511703,32.465218,-67.430672,38.382126,-17.535492,157.03857
3170000000,4.863461,-25.259861,-68.86824,4.3604288,-69.816322,3.9622018,-18.033848,157.41444
3175000000,5.3867083,-139.49127,-60.136395,-86.420578,-59.713154,-88.942032,-18.056412,158.49406
3180000000,6.9880013,131.9386,-64.263115,-162.71609,-65.04351,-150.87346,-17.950129,159.45755
3185000000,9.0232382,33.220497,-60.879013,119.61716,-58.405212,115.70731,-17.984707,162.09351
3190000000,4.3224835,-53.597294,-57.697395,5.2359629,-58.795155,10.090535,-18.309031,159.96442
3195000000,5.7931256,-173.67851,-59.614426,-70.585442,-59.95937,-74.870865,-18.835089,152.63263
3200000000,8.3334837,103.59403,-58.799088,-162.58699,-57.109417,-151.98349,-18.557106,148.5788
3205000000,6.5342412,7.3595333,-57.718533,97.539696,-56.994324,83.932449,-18.479076,154.62025
3210000000,6.9161525,-81.84182,-58.060276,18.385557,-58.387352,22.103212,-18.650957,155.79128
3215000000,7.7574649,158.24229,-59.100204,-77.768929,-59.380756,-76.597816,-18.439085,151.44157
3220000000,11.069767,81.94207,-59.274818,-171.1181,-56.722095,-163.77658,-17.414471,152.13423
3225000000,7.3250895,-19.062294,-59.741341,113.88778,-60.055767,103.22073,-17.535236,155.33469
3230000000,7.3025389,-121.80766,-58.73476,11.041764,-58.022442,17.411325,-18.491688,152.41595
3235000000,7.1812458,138.17505,-61.998932,-81.513969,-63.104305,-75.081955,-18.502623,150.82254
3240000000,11.3021,41.013935,-62.887833,-153.84445,-59.862949,-157.45004,-17.842857,154.94592
3245000000,6.6863561,-40.246418,-61.740417,118.42946,-62.422268,116.94996,-18.052813,155.87218
3250000000,7.6250448,-160.52475,-66.070854,41.383205,-66.465355,30.973713,-18.267328,152.33099
3255000000,9.0489626,120.18459,-65.94236,-51.854145,-65.190468,-36.242184,-17.934044,149.7146
3260000000,9.6164732,12.39241,-67.149414,-117.3578,-65.58387,-134.37682,-17.865139,146.11038
3265000000,7.6246738,-68.745285,-66.212982,-178.54659,-66.497612,179.75478,-17.800745,144.36201
3270000000,7.3545847,167.23769,-64.247597,80.767166,-65.020027,87.478989,-17.485615,149.20467
3275000000,11.166679,90.218346,-65.532509,13.402355,-62.242657,27.752064,-17.558867,150.3941
3280000000,8.181221,-13.774261,-61.998844,-60.642464,-62.613899,-79.464203,-17.698189,144.71616
3285000000,7.2090788,-98.32531,-60.031498,-161.35463,-59.593861,-159.55453,-17.104946,142.50212
3290000000,6.9577141,146.64893,-60.575661,111.89806,-62.008339,114.83159,-16.933144,143.62442
3295000000,12.268298,43.336388,-60.008312,23.725691,-56.052723,11.549556,-17.475851,139.97626
3300000000,7.2279186,-33.095654,-58.552868,-67.562378,-60.009914,-70.164047,-17.561844,139.61694
3305000000,8.5189438,-145.89093,-58.578331,-164.43274,-58.22509,-172.24478,-17.258474,142.50786
3310000000,9.1047773,123.15658,-59.401199,100.68757,-59.221645,115.97005,-17.460361,137.06027
3315000000,10.63475,17.921434,-60.885567,19.960443,-59.135948,3.7611539,-17.021101,130.91579
3320000000,8.0374823,-51.835415,-61.119968,-69.981476,-61.449883,-66.834488,-16.679611,134.24529
3325000000,7.4845815,178.88654,-61.547543,-164.98927,-62.051132,-169.07431,-17.321663,132.66159
3330000000,10.546348,100.44481,-65.114883,121.75346,-63.345707,126.79641,-17.629951,124.07656
3335000000,9.3166208,-7.7329645,-65.190216,34.945992,-65.489624,22.272274,-16.754389,126.6868
3340000000,8.7516146,-88.099495,-66.262383,-51.851994,-65.500076,-46.820408,-16.485071,130.34299
3345000000,6.5598989,156.82245,-66.60257,-107.65018,-68.240204,-102.83363,-17.06724,124.48786
3350000000,12.861753,57.725262,-65.092003,177.07176,-60.320393,170.47687,-17.036795,120.12362
3355000000,7.7745543,-22.98358,-64.344688,88.188278,-66.052658,75.069275,-16.785006,122.01231
3360000000,9.1732941,-123.52832,-61.601898,10.34341,-61.111626,-0.021589478,-17.399691,118.60199
3365000000,8.3823128,133.3325,-61.595024,-91.336372,-61.491783,-79.86544,-17.903175,115.00122
3370000000,11.254292,23.41069,-62.282795,-175.08255,-60.407619,165.58493,-17.632875,115.78003
3375000000,8.8337564,-47.58786,-60.040024,95.476089,-60.703064,99.48983,-17.318541,111.35364
3380000000,7.1236486,-162.76669,-61.373287,-3.8873634,-61.197323,-5.756197,-17.397238,105.65884
3385000000,8.9372158,112.31763,-62.29443,-81.615852,-61.38166,-68.338158,-17.665194,107.26355
3390000000,9.626543,0.46268001,-62.909943,-160.98029,-62.474094,-177.44864,-17.786419,105.19604
3395000000,8.642972,-68.687637,-63.670784,105.12447,-63.288288,110.11452,-18.000458,101.2778
3400000000,6.8332314,169.00842,-63.966679,33.217804,-65.378571,25.620224,-18.304203,104.80412
3405000000,12.506193,74.281807,-64.089706,-53.078659,-60.680397,-53.465572,-18.552837,106.83854
3410000000,8.8232908,-20.162001,-63.219509,-134.07446,-64.826889,-141.07751,-18.789,97.263741
3415000000,10.325801,-113.39077,-64.30294,139.82272,-62.747452,138.19862,-19.3426,93.163742
3420000000,7.2938604,138.5527,-63.49979,50.309441,-64.142624,55.991096,-19.853506,97.159401
3425000000,11.647241,36.590939,-63.067303,-29.991531,-60.760788,-38.212555,-20.300945,90.820511
3430000000,8.9848156,-41.431541,-61.594711,-107.02661,-62.81826,-111.20312,-20.331202,82.421303
3435000000,8.8473272,-151.57692,-62.018623,148.6713,-62.091721,138.60823,-20.118233,88.595947
3440000000,8.3820543,119.21204,-63.282978,71.50415,-63.172134,82.155052,-19.808687,90.061897
3445000000,10.548793,2.7271063,-61.427895,-11.05249,-60.475037,-32.538807,-20.585995,80.250038
3450000000,9.0639153,-64.745384,-61.856571,-104.31084,-62.699162,-100.53525,-21.134148,80.689545
3455000000,7.1612425,175.63405,-62.940048,176.88405,-63.722198,170.42905,-20.813974,89.964348
3460000000,10.788752,84.419579,-65.614761,77.789665,-62.583828,86.979103,-21.958176,89.816986
3465000000,9.2764006,-15.681136,-63.501488,4.8650546,-63.807217,-10.08955,-24.543295,86.787735
3470000000,10.228732,-98.965485,-62.806038,-86.112541,-62.013542,-87.078247,-23.787443,87.586067
3475000000,6.7832751,149.23062,-63.830135,176.69841,-64.684967,-179.32669,-23.069178,80.709778
3480000000,11.637287,47.407894,-65.312126,126.90194,-63.148232,112.59639,-25.222454,71.025383
3485000000,9.5403328,-39.213512,-65.098198,27.68708,-65.383781,17.540737,-25.349895,77.382172
3490000000,8.9871502,-135.61743,-64.66082,-73.950478,-64.585014,-79.73452,-23.355602,85.058304
3495000000,7.1130209,128.32648,-63.873882,-142.80742,-64.604294,-129.5856,-25.098003,86.954887
3500000000,10.737032,9.6194105,-65.280235,145.40538,-62.766697,129.63106,-26.812321,96.065636
3505000000,8.4803162,-57.745564,-64.276703,61.61071,-65.102577,65.634689,-24.577278,91.981102
3510000000,8.0168705,-171.88982,-64.803108,-19.630289,-65.072334,-26.881535,-25.31708,86.645332
3515000000,9.1971951,95.826294,-63.936287,-104.84422,-62.230968,-94.337189,-27.814541,101.56758
3520000000,9.058033,-7.9281526,-62.619148,174.8268,-63.130966,161.64883,-25.825031,114.89108
3525000000,9.9878559,-84.562378,-61.165451,85.701332,-60.698299,87.801704,-26.940247,110.12249
3530000000,6.5300713,160.48083,-62.875809,-10.576842,-63.564606,-8.8122501,-32.23864,111.10656
3535000000,10.956718,63.015934,-62.002193,-87.648491,-59.152969,-89.5867,-27.912437,102.46399
3540000000,8.8185253,-31.251015,-60.477985,175.78801,-61.896091,163.5885,-25.007132,96.258324
3545000000,9.6816778,-116.80103,-59.475163,80.577194,-58.789543,84.133354,-28.8071,102.6101
3550000000,6.2541256,138.6198,-60.562462,-2.8986146,-60.909435,2.1422887,-28.734211,116.55027
3555000000,10.334545,25.062695,-60.559315,-95.001358,-58.534,-108.58542,-24.713219,105.93568
3560000000,7.952292,-49.249557,-60.398579,179.53198,-62.071266,179.49484,-26.098686,104.80205
3565000000,8.5281525,-158.41756,-61.190689,82.573654,-61.356243,77.933968,-26.858709,113.19787
3570000000,7.8039918,108.66368,-63.535587,-6.8135047,-63.201488,3.5216627,-23.079926,105.09361
3575000000,9.0515404,-2.5414057,-65.871567,-84.319489,-66.093086,-104.41814,-23.309256,110.7571
3580000000,8.9673777,-72.435219,-66.450943,-161.66591,-66.584564,-162.16245,-26.029383,140.31009
3585000000,6.8424306,173.89731,-69.151718,96.790398,-69.428062,93.061134,-26.110796,129.58777
3590000000,9.0352736,81.883194,-70.670746,29.244843,-69.321198,37.130714,-25.159197,102.9177
3595000000,8.6591253,-24.754599,-69.156349,-18.718731,-69.382469,-31.840654,-26.980793,111.88403
3600000000,9.3074875,-102.88428,-68.806389,-90.267067,-69.28154,-95.55098,-26.501717,110.45023
3605000000,5.907763,146.98018,-66.782669,-179.38873,-67.435257,-175.10287,-24.091408,92.093765
3610000000,9.9917173,42.270172,-65.292702,100.65374,-62.767433,92.967957,-24.97883,95.193962
3615000000,7.8981371,-43.457043,-61.113972,11.876805,-62.386234,9.5530338,-25.028208,112.82028
3620000000,9.5222044,-139.88954,-59.803871,-84.493263,-59.117897,-91.552208,-23.038469,104.50816
3625000000,6.7405005,123.17455,-61.267723,-175.87039,-61.51862,-168.01968,-23.750229,102.86871
3630000000,9.6419916,15.970567,-59.184383,98.826141,-57.905602,86.758263,-26.154606,112.7957
3635000000,8.6185608,-58.437008,-58.886398,4.739193,-59.765179,7.1689258,-25.780718,103.30794
3640000000,7.6744313,-171.50197,-59.410912,-93.108597,-59.388538,-98.492172,-24.978203,90.778259
3645000000,7.9707785,100.685,-60.530373,171.08728,-59.252716,-177.14061,-26.736284,102.75762
3650000000,9.2272892,-14.319617,-60.146912,83.312737,-60.002995,68.189095,-26.155371,110.63973
3655000000,9.1904364,-83.678146,-60.17849,-15.620228,-60.727371,-11.487034,-25.593706,95.608521
3660000000,6.5520778,162.21718,-61.606918,-110.26553,-62.500721,-114.94285,-27.6406,84.47522
3665000000,9.1125975,59.484241,-64.426392,154.24113,-62.261494,157.16386,-28.016266,86.017303
3670000000,7.6491542,-34.008335,-65.453957,63.520035,-66.700195,57.77586,-25.454533,84.844185
3675000000,9.8626089,-119.73904,-69.142105,-38.772541,-67.752769,-33.789307,-26.182817,90.127357
3680000000,6.3396168,136.34674,-77.448448,-126.5761,-77.236977,-118.25283,-28.3493,110.05506
3685000000,10.197532,29.258257,-79.76329,-123.64027,-78.478127,-110.36212,-27.965586,104.91659
3690000000,8.8182535,-56.408619,-69.469643,-124.4147,-70.50589,-121.79869,-27.676352,89.589958
3695000000,8.136323,-154.12796,-65.279289,123.41943,-65.412788,125.6744,-31.011545,98.615067
3700000000,6.488502,113.76427,-65.427124,33.694679,-65.832703,39.083473,-33.595348,113.37897
3705000000,9.6270323,-4.136601,-62.480713,-55.521652,-61.526287,-70.181526,-33.232883,79.453957
3710000000,8.2257652,-71.386566,-59.56757,-155.02536,-61.145199,-151.31389,-32.619457,78.034447
3715000000,7.3802915,175.24289,-59.890526,104.46589,-60.495472,97.909981,-31.900192,105.14976
3720000000,8.2966719,77.696129,-59.633327,15.866763,-58.615635,24.536379,-30.816225,104.66092
3725000000,8.301446,-25.381241,-58.157574,-79.553123,-59.745819,-93.684776,-32.303219,89.150307
3730000000,9.9176712,-104.54296,-58.334618,-177.64265,-57.660343,-176.19301,-33.954021,109.66084
3735000000,5.8536592,148.83636,-58.690884,89.758209,-59.290062,89.999382,-31.953897,121.28307
3740000000,9.1965342,48.571873,-59.086967,-0.76632303,-57.587421,-2.5715327,-30.400312,121.00306
3745000000,8.6462431,-46.147903,-59.90535,-103.81538,-60.810844,-104.64332,-29.209291,139.76602
3750000000,9.1873407,-134.72952,-60.276279,162.35577,-59.511898,160.95149,-28.717907,158.41281
3755000000,5.6455956,129.44893,-62.675526,65.987892,-63.795765,67.855995,-32.363197,151.09663
3760000000,9.9642887,12.20235,-64.058487,-33.649696,-63.436054,-44.801556,-33.674194,139.53143
3765000000,8.2021904,-61.17841,-65.968437,-130.73688,-67.692726,-132.33615,-30.626507,155.03835
3770000000,8.7760162,-167.32095,-70.830147,114.91725,-71.27066,113.05165,-30.2824,155.23828
3775000000,7.3822932,96.972282,-72.217613,-7.697175,-72.187477,8.1677771,-30.145086,135.37256
3780000000,9.2537603,-17.391048,-69.944748,-143.22523,-69.637703,-154.56903,-27.161766,138.75327
3785000000,9.8730774,-83.766884,-67.973839,77.624817,-68.783272,84.812088,-25.608631,146.61845
3790000000,7.174088,165.11058,-64.707962,-29.433132,-64.436874,-35.295067,-26.104538,147.55296
3795000000,8.2249413,73.52626,-63.119331,-115.90302,-61.900063,-108.58205,-25.919296,153.04324
3800000000,8.832365,-39.728405,-59.961067,139.75838,-61.148338,128.93547,-25.259594,160.36465
3805000000,9.6295109,-115.85638,-58.672302,37.856964,-58.419582,43.65181,-25.321276,153.03081
3810000000,6.1290321,138.87964,-59.156879,-58.318123,-59.655846,-56.262974,-24.567923,147.5757
3815000000,10.354247,26.862,-58.333736,-144.63037,-56.404144,-157.75529,-24.558338,155.96518
3820000000,8.2600327,-56.351547,-57.140396,108.45535,-59.096409,109.01432,-26.980236,151.84834
3825000000,9.9758282,-152.95108,-58.744217,6.8438053,-57.592678,2.5852408,-26.005533,127.061
3830000000,5.6797004,111.69205,-59.15892,-83.551727,-59.38924,-74.969307,-23.348499,133.07233
3835000000,9.5803709,-4.5454087,-58.809517,-178.80891,-57.771709,168.9057,-22.954727,144.84624
3840000000,9.3833752,-77.663551,-59.552101,80.985168,-61.087925,83.515518,-23.935074,136.02582
3845000000,8.3826208,176.48911,-61.093487,-16.570498,-60.352707,-18.891283,-23.058376,127.18037
3850000000,7.8710589,88.338257,-63.76601,-119.8381,-62.852913,-109.01929,-22.466072,131.93886
3855000000,9.1931686,-30.521257,-64.981071,148.69893,-64.996964,136.56186,-22.850874,133.11768
3860000000,10.146261,-99.195763,-68.028549,36.56876,-67.410019,47.251781,-22.839573,127.76391
3865000000,6.4238081,151.64407,-76.957741,-83.906166,-76.538597,-96.549858,-22.518471,129.84834
3870000000,8.6953001,50.56966,-73.177856,106.01469,-70.800476,111.57602,-22.453159,129.2444
3875000000,8.2619495,-51.854187,-67.914421,10.319931,-70.150658,3.2267246,-22.209942,122.85007
3880000000,10.717024,-133.68279,-65.350708,-114.26122,-64.631454,-113.88037,-22.659462,120.04783
3885000000,5.9055753,128.87372,-64.337448,153.45605,-65.922615,156.66101,-23.554132,115.70126
3890000000,9.9223976,16.065916,-62.025013,54.23177,-60.10347,49.242836,-22.191477,106.01002
3895000000,8.7516165,-69.068947,-60.112442,-41.335915,-61.417835,-38.906506,-20.545231,108.99039
3900000000,9.7290878,-168.35327,-60.15284,-150.86473,-59.391151,-151.04552,-20.726643,117.63896
3905000000,7.0863099,97.958153,-60.10791,123.35794,-60.016155,128.3974,-21.642059,118.24756
3910000000,9.4037647,-21.017599,-58.364574,26.12912,-58.349285,17.946371,-21.948429,110.11999
3915000000,10.226789,-89.668106,-58.097038,-71.995384,-58.540234,-62.604229,-22.483971,107.82556
3920000000,8.0362864,161.10275,-59.499973,-161.92326,-60.586296,-173.13817,-23.014454,108.42964
3925000000,8.4150848,69.711044,-59.142174,101.49743,-57.82592,111.50186,-23.00736,104.24464
3930000000,8.4793882,-45.002094,-59.899925,7.1864195,-60.912628,-3.8355184,-23.229141,97.5923
3935000000,11.04853,-123.55217,-60.840343,-92.249062,-60.458397,-91.641922,-23.295761,88.808563
3940000000,6.5657897,139.57712,-62.73473,169.83685,-63.344429,172.48505,-21.85536,85.560135
3945000000,9.7941484,31.34395,-65.000992,72.016998,-63.273441,64.388489,-21.020821,88.138954
3950000000,9.4549637,-63.526169,-65.658592,-29.129446,-67.007324,-28.026714,-22.224714,94.55484
3955000000,10.451797,-154.16852,-67.683838,-143.1842,-67.540314,-147.71017,-23.669044,95.248039
3960000000,6.0368047,117.83393,-74.79805,95.625008,-76.997002,91.850296,-23.215071,87.903481
3965000000,8.8508797,-9.5283508,-74.806175,-58.325699,-74.305916,-61.113438,-22.916193,83.937088
3970000000,8.7225161,-80.768799,-71.111031,-159.34209,-72.369247,-152.44933,-24.011387,83.254364
3975000000,9.0751228,172.46182,-66.572624,73.332176,-67.187355,66.401657,-24.146809,76.750717
3980000000,7.7529783,86.785301,-64.006935,-24.235096,-63.135761,-11.676016,-23.689428,73.361694
3985000000,8.0009928,-32.958977,-62.375256,-114.59082,-62.840229,-124.82895,-24.728828,75.314163
3990000000,10.12463,-106.99387,-60.296314,138.51706,-60.259369,146.63936,-25.120039,73.498688
3995000000,6.6733351,150.59966,-61.360413,35.928593,-61.832226,35.388935,-23.341696,68.838249
4000000000,6.2192464,52.098305,-60.735584,-37.476219,-59.802303,-37.988499,-23.128141,71.855049
END

