!CSV A.01.01
!Keysight Technologies,N5247A,US56070710,A.10.64.09
!Date: Sunday, November 20, 2022 21:50:19
!Source: Standard

BEGIN CH1_DATA
Freq(Hz),S33(DB),S33(DEG),S34(DB),S34(DEG),S43(DB),S43(DEG),S44(DB),S44(DEG)
3000000000,-4.1508193,-66.989052,-55.86293,-27.735437,-57.266991,-28.632868,-17.952713,-160.60179
3005000000,-6.3223338,-91.160385,-55.343262,-128.1133,-57.726479,-126.52472,-18.68935,-168.96268
3010000000,-2.6118402,-68.825912,-53.969189,156.29898,-55.539593,150.96411,-16.85091,-173.86612
3015000000,-5.7345014,-77.991745,-57.517143,66.156403,-56.174377,47.729832,-16.651178,-176.89624
3020000000,-4.8829689,-84.557114,-55.392307,-24.072506,-57.979015,-8.1361923,-17.489298,-179.65976
3025000000,-3.1306841,-69.785042,-59.17873,-128.58809,-56.377663,-107.55579,-16.174007,177.60519
3030000000,-7.3488798,-79.108208,-54.511925,162.58516,-57.989563,161.55162,-16.868488,177.39531
3035000000,-2.7740464,-80.545914,-56.682865,68.874176,-55.654102,78.623215,-16.409431,173.85431
3040000000,-4.7228065,-79.296196,-56.00668,-42.275211,-57.224228,-29.509563,-16.305632,169.01459
3045000000,-6.4732561,-78.459946,-56.818531,-122.92225,-55.9398,-121.981,-16.422836,161.25999
3050000000,-2.3189092,-83.761139,-58.337509,158.45085,-56.693623,147.09636,-14.991312,157.79825
3055000000,-7.0655189,-65.87516,-59.852757,58.078323,-58.700417,62.769451,-16.105438,159.98376
3060000000,-3.2094793,-86.863945,-56.427639,-26.240343,-59.135857,-23.277027,-15.870418,159.58098
3065000000,-4.5864162,-86.041771,-55.847164,-116.11666,-57.732845,-108.38553,-15.608841,155.65036
3070000000,-5.5780168,-68.983543,-62.662926,153.9863,-59.097176,154.54993,-15.994657,157.94957
3075000000,-3.6628702,-95.626076,-56.504459,76.311836,-59.294254,55.83783,-15.611543,146.39598
3080000000,-4.709609,-68.54966,-57.678509,-14.056516,-59.543575,-22.980722,-15.729852,147.48755
3085000000,-4.6452832,-88.727119,-63.384228,-132.45824,-61.043591,-106.21341,-16.026323,142.55765
3090000000,-4.6988516,-94.923706,-62.355843,-177.29964,-60.934807,152.71654,-15.831199,138.72452
3095000000,-3.7569506,-67.57,-62.739616,76.467659,-60.265102,97.684052,-15.531795,145.95525
3100000000,-5.6271572,-104.55167,-59.458015,11.557465,-62.202682,-1.3003308,-15.41007,139.47064
3105000000,-3.729414,-79.789665,-60.617065,-109.28672,-59.034519,-136.871,-15.848482,140.3909
3110000000,-5.169961,-81.837166,-61.636219,172.26413,-58.630863,-173.00325,-15.664474,135.93208
3115000000,-5.7874255,-96.409409,-59.383484,123.55949,-61.398972,105.56007,-16.667971,129.48708
3120000000,-2.8489883,-79.628159,-63.906605,1.8127276,-60.029041,25.991436,-15.674161,129.58749
3125000000,-7.7167459,-97.241623,-61.528942,-74.963158,-58.570431,-59.599342,-16.514874,131.7545
3130000000,-4.6216807,-87.600082,-58.671921,168.93561,-58.555656,173.3839,-16.071045,129.18349
3135000000,-3.5503201,-86.616768,-63.983234,59.792652,-60.925716,100.97036,-15.336614,128.31273
3140000000,-9.1435699,-93.554825,-62.252602,30.493246,-57.184307,39.868671,-16.349979,127.59591
3145000000,-2.386946,-92.206726,-61.441235,-79.56118,-66.962524,-72.024185,-15.610841,124.01468
3150000000,-7.644022,-89.167496,-57.743683,-151.93555,-59.7444,-165.88589,-16.838785,130.57967
3155000000,-5.9227872,-90.994484,-60.820801,101.94167,-57.884811,98.520912,-17.347488,121.13059
3160000000,-3.3550556,-96.519684,-59.548786,18.23328,-61.930019,7.6888924,-16.643475,122.59235
3165000000,-8.3991642,-75.40963,-58.348198,-73.754829,-61.759293,-60.310352,-16.172155,122.55541
3170000000,-3.737359,-107.83438,-58.01115,-151.87894,-58.353989,-149.08795,-16.196535,119.5779
3175000000,-5.6711769,-82.525185,-56.632427,127.23032,-58.696613,109.66302,-16.037155,120.15663
3180000000,-6.8683424,-92.482979,-58.900341,31.619295,-57.688046,25.844149,-16.703135,126.16804
3185000000,-4.8950672,-109.62559,-58.523228,-55.924698,-57.030773,-54.770821,-17.322985,122.74753
3190000000,-5.7311354,-75.642921,-57.864525,-160.96707,-65.816391,-147.12706,-17.323671,128.56258
3195000000,-6.0759959,-113.16537,-60.910984,126.68993,-57.913536,143.76396,-18.443693,116.73759
3200000000,-5.9108672,-98.229057,-61.451805,17.574102,-62.816452,60.779839,-16.149073,115.58153
3205000000,-6.2924395,-84.185242,-66.750404,-50.018902,-58.855408,-38.151279,-17.161703,113.72009
3210000000,-6.9032955,-121.75172,-59.444038,-121.20824,-61.022644,-137.56834,-17.178476,111.11999
3215000000,-4.5369339,-87.383636,-61.156376,140.18913,-57.721886,148.88905,-15.991948,114.15836
3220000000,-8.9136591,-105.99109,-57.139381,43.590221,-58.898167,44.572922,-16.62414,122.43524
3225000000,-6.2840199,-106.99599,-61.8894,-16.830433,-61.540283,-31.848148,-16.504028,118.45422
3230000000,-4.8886752,-91.43927,-58.366913,-118.11456,-56.999355,-130.94627,-16.799932,118.77318
3235000000,-12.446564,-125.23134,-58.813019,131.11743,-56.410091,148.64604,-16.819078,116.87383
3240000000,-4.3525681,-96.542206,-62.433483,75.490311,-58.542244,65.881157,-16.623955,111.1216
3245000000,-7.948864,-107.167,-58.765877,-33.215008,-60.498882,-32.332706,-17.044596,120.01971
3250000000,-10.712776,-101.15668,-58.956509,-91.94062,-56.519505,-132.88492,-16.664371,108.65037
3255000000,-3.9526877,-108.25726,-57.706028,171.43382,-60.779186,-178.207,-15.789208,113.78132
3260000000,-13.830204,-79.40329,-56.643108,96.678818,-58.50967,106.50757,-15.48825,117.47483
3265000000,-5.4817772,-111.48281,-57.336304,-16.493109,-57.569595,8.5261068,-16.298197,111.68343
3270000000,-8.2454395,-108.44936,-58.789963,-143.83635,-61.226768,-109.68554,-15.822327,116.33323
3275000000,-10.649062,-80.035782,-56.188248,168.94122,-55.175129,163.83362,-16.675457,107.82829
3280000000,-5.3251109,-128.61765,-57.208351,80.449753,-58.459751,99.372299,-16.203957,112.82475
3285000000,-9.3099298,-76.347961,-53.839973,-24.736885,-61.856674,2.7592218,-15.383601,108.34367
3290000000,-9.6339626,-116.59887,-55.870956,-96.137817,-55.775082,-102.73098,-15.880645,108.85884
3295000000,-8.2201052,-117.6125,-57.782909,178.60306,-55.522362,170.4465,-14.740414,105.17156
3300000000,-8.6516523,-75.710159,-55.841671,57.287247,-56.015541,75.396217,-14.925852,108.00395
3305000000,-8.8461752,-143.69536,-54.441669,-28.860531,-55.434517,-15.292097,-15.594081,110.15955
3310000000,-8.5226202,-89.052925,-57.776295,-87.336403,-57.100796,-90.118919,-15.267453,106.33192
3315000000,-11.283393,-107.10518,-57.655396,162.87257,-57.242268,161.02663,-15.967229,107.80678
3320000000,-12.27701,-138.65787,-56.904247,82.047417,-57.532352,78.16848,-14.94893,100.80068
3325000000,-5.732295,-84.815941,-56.673923,-6.4599953,-56.959663,11.706059,-15.159323,96.278412
3330000000,-15.494472,-166.54884,-56.646801,-96.773438,-57.368137,-87.193718,-14.511363,101.63145
3335000000,-9.8198671,-99.441978,-56.863033,179.58391,-57.942337,165.88022,-15.092514,93.911186
3340000000,-9.7456493,-102.25232,-61.181278,69.523277,-58.762878,87.566399,-14.293889,101.59509
3345000000,-28.762264,-148.82709,-58.200428,-0.35625014,-57.703011,8.2611408,-16.027838,97.986519
3350000000,-5.9662046,-107.05013,-54.286358,-90.615608,-55.747276,-95.368004,-14.826467,92.009178
3355000000,-25.133112,-65.734337,-59.6605,-174.2466,-57.021648,170.27574,-14.986173,96.368469
3360000000,-11.268647,-111.9756,-56.091183,94.768982,-56.143486,104.22443,-16.053179,84.020668
3365000000,-10.306425,-111.96534,-55.919518,9.4849548,-56.250431,13.081286,-14.436944,81.999878
3370000000,-15.854722,-18.015825,-55.717442,-90.281868,-54.931118,-97.891083,-14.316865,88.108391
3375000000,-8.6255379,-126.80413,-53.26897,-165.62288,-55.976311,-178.45131,-15.323139,87.436882
3380000000,-13.079232,-78.035637,-53.622971,85.913712,-55.288574,103.5462,-14.794697,86.943039
3385000000,-20.154388,-74.74572,-55.006741,5.1479506,-54.590626,13.406486,-15.796769,85.715813
3390000000,-10.77536,-129.93893,-54.199539,-93.374702,-53.289745,-82.450409,-14.833721,74.349167
3395000000,-10.751535,-41.055935,-53.622391,-169.08633,-54.401917,176.78706,-15.067768,83.224304
3400000000,-15.489414,-132.12837,-53.514759,105.33447,-53.096455,102.44641,-16.715521,74.848145
3405000000,-12.789447,-102.20646,-53.642349,9.4729681,-57.561134,6.1101875,-15.160834,70.098656
3410000000,-12.722782,-40.25423,-53.749947,-82.320602,-53.956459,-71.968086,-15.267695,78.671829
3415000000,-16.302349,-154.04276,-52.496315,-169.75317,-53.528492,166.26805,-16.06407,72.392998
3420000000,-8.6978369,-63.234444,-51.011208,95.022621,-53.307549,93.977577,-15.270126,73.88427
3425000000,-27.384361,-120.59676,-53.489071,-10.337255,-53.149956,3.881609,-16.581211,75.271118
3430000000,-17.360651,-63.016918,-52.113831,-73.88472,-53.06715,-78.834442,-17.283634,66.800018
3435000000,-8.9628887,-75.867683,-53.271847,-160.57768,-52.629475,-161.98079,-16.737598,71.095993
3440000000,-17.145802,54.428612,-51.518665,98.517471,-52.422836,103.11662,-18.365963,62.173042
3445000000,-9.2963562,-89.162888,-52.08567,-3.379982,-51.876968,-2.4614046,-15.768688,62.657124
3450000000,-14.410779,-17.426111,-53.056789,-84.587181,-52.536102,-92.67057,-16.57275,70.675919
3455000000,-18.692417,-50.527958,-52.805447,-172.52939,-52.91666,-173.30618,-18.430258,66.236275
3460000000,-10.43021,-96.528595,-52.922348,102.22828,-54.995293,99.142471,-16.431025,61.394043
3465000000,-10.342699,2.7313569,-53.718094,3.0889018,-53.159557,16.356184,-18.780569,76.757095
3470000000,-13.089545,-107.89465,-52.369656,-91.107735,-53.812531,-75.756508,-19.215549,63.982796
3475000000,-13.14522,-47.991493,-53.254471,-178.41089,-52.889427,-167.81197,-18.964027,66.625542
3480000000,-10.180063,-13.366747,-53.588646,114.6283,-54.977379,97.847504,-19.529205,63.207481
3485000000,-11.425968,-116.89161,-51.05806,9.1303091,-53.019817,17.580084,-18.160025,54.640476
3490000000,-10.774614,-15.353999,-51.782185,-65.293831,-51.138451,-71.517799,-19.098053,70.93689
3495000000,-15.557199,-40.735382,-51.203598,-174.1212,-51.321186,-169.85553,-19.381582,57.806705
3500000000,-14.881763,-78.417969,-52.409203,114.05314,-51.830666,111.98728,-18.763916,67.545677
3505000000,-7.4835806,-30.359833,-52.231426,32.640121,-52.69846,25.445856,-18.709955,84.85479
3510000000,-20.920092,-156.33694,-50.289551,-72.237473,-50.019943,-75.584633,-21.79483,70.836174
3515000000,-8.7442427,-42.540688,-50.199509,-160.50424,-50.164021,-166.08479,-20.454542,68.047417
3520000000,-12.818067,-37.355804,-50.864979,100.56303,-52.290287,98.780884,-20.456409,66.73642
3525000000,-19.069544,-23.82757,-51.667042,18.245893,-51.488598,4.2599211,-20.779314,66.100868
3530000000,-6.4027758,-61.378487,-51.644474,-76.751442,-52.465611,-76.329704,-18.556547,72.860123
3535000000,-14.936969,28.449419,-51.351467,-164.30515,-51.629162,-175.69676,-20.66608,83.331146
3540000000,-10.234528,-64.650009,-51.379337,103.5385,-51.455479,106.01598,-18.93882,79.371521
3545000000,-9.7425137,-43.300068,-51.277908,17.334774,-52.833561,26.634541,-19.84293,82.83062
3550000000,-13.379197,-4.6798687,-53.361919,-70.987038,-51.281956,-72.116188,-21.338881,82.75032
3555000000,-9.5261822,-85.319046,-51.334797,-167.47925,-51.455315,-164.08803,-20.431238,74.252205
3560000000,-8.1028099,-15.294741,-53.169357,107.65698,-52.698647,105.15524,-20.316751,82.046082
3565000000,-16.094807,-59.042225,-52.29491,17.145964,-52.408291,11.664933,-21.643808,82.015114
3570000000,-9.1591616,-66.934128,-52.504196,-68.894096,-52.910713,-62.339539,-19.081623,66.874031
3575000000,-8.7845163,-3.8385041,-51.783768,-144.02359,-52.487621,-148.36589,-18.031303,87.631653
3580000000,-11.676209,-88.660507,-51.314377,108.507,-52.697655,116.8222,-20.488642,74.306816
3585000000,-7.8465114,-31.26115,-50.735149,20.175011,-50.844242,23.183369,-18.990681,85.365341
3590000000,-11.743772,-32.541679,-51.288727,-69.885918,-52.205791,-84.275772,-21.21015,83.588959
3595000000,-15.339249,-87.011444,-52.771549,-155.90164,-50.545147,-163.32196,-19.625628,70.765732
3600000000,-5.4409719,-28.01018,-51.98637,116.49297,-52.889954,113.79023,-19.164835,85.810471
3605000000,-18.668837,-62.146801,-51.419384,11.333168,-51.501057,23.326029,-20.024347,72.576302
3610000000,-9.2644396,-49.594193,-51.881184,-67.686241,-51.333134,-65.213783,-18.722578,65.054504
3615000000,-8.1246147,-36.879463,-49.983784,-162.20296,-50.996243,-162.9881,-18.162308,81.701675
3620000000,-20.876692,2.2773337,-51.526558,111.79866,-51.509228,106.71493,-20.618195,75.406036
3625000000,-5.0806389,-57.872189,-52.220943,16.812416,-52.308861,12.574624,-18.306627,78.808647
3630000000,-12.622902,4.6966777,-52.603565,-70.424995,-51.611904,-66.841499,-20.776421,82.980171
3635000000,-10.34235,-59.874718,-52.116444,-145.60495,-53.688026,-158.15376,-19.425325,67.66053
3640000000,-7.2141547,-48.913334,-53.484348,121.40698,-54.497169,118.82754,-19.10733,76.122589
3645000000,-11.383186,-3.3164065,-53.09074,40.680279,-51.463886,26.380322,-21.651821,68.575203
3650000000,-9.1168385,-72.667542,-53.161243,-52.801094,-51.85075,-46.57309,-20.292473,59.944904
3655000000,-7.5608459,-24.663998,-52.095741,-146.39586,-51.798103,-145.43611,-18.505835,66.802429
3660000000,-12.261248,-28.679729,-51.922707,114.04967,-51.939167,126.50308,-20.614222,73.755432
3665000000,-8.3704653,-72.420105,-51.251888,31.933832,-53.028564,38.607414,-19.131445,65.8517
3670000000,-8.150116,-9.058115,-51.478519,-56.81131,-53.070324,-47.041962,-19.572138,74.019066
3675000000,-12.416101,-60.265759,-50.591721,-138.19751,-51.316647,-140.42278,-21.45282,64.034447
3680000000,-8.0923252,-53.595169,-51.303841,126.85082,-51.529633,127.42468,-20.368521,70.075478
3685000000,-7.3824754,-12.494258,-50.565651,39.552094,-51.909225,35.813797,-23.620583,71.642143
3690000000,-13.630197,-95.031288,-50.621941,-46.194885,-52.345539,-49.418606,-20.395912,53.196514
3695000000,-4.9694362,-26.542847,-48.415878,-144.08363,-50.908962,-143.91991,-19.32353,65.567444
3700000000,-14.928377,-46.360008,-50.962376,128.20801,-51.164989,116.59811,-21.775702,76.309494
3705000000,-10.699066,-46.019604,-50.855568,43.840324,-51.078026,29.336632,-20.209545,53.645924
3710000000,-6.1138797,-33.902973,-51.05447,-58.276779,-50.83345,-55.759327,-21.479334,78.494553
3715000000,-14.817714,-4.9560647,-51.540703,-144.43533,-51.077232,-134.30501,-21.648249,74.830406
3720000000,-5.5208645,-60.035439,-50.786289,128.26245,-50.24052,124.55866,-22.943321,78.34581
3725000000,-10.066084,-3.6947205,-51.285446,38.142815,-52.2948,34.960075,-23.161562,72.659203
3730000000,-10.882418,-36.907742,-51.052532,-50.24968,-50.232563,-58.340443,-22.343676,57.318512
3735000000,-6.1238737,-55.044079,-50.211727,-156.00246,-51.610409,-139.12378,-20.184488,75.505539
3740000000,-8.1564226,-0.48154142,-50.759308,127.76787,-51.525822,116.94642,-23.142975,89.074181
3745000000,-8.975028,-74.478889,-50.565304,31.211967,-51.078804,33.32251,-24.872494,71.26255
3750000000,-6.7557497,-27.184624,-51.543346,-51.86327,-51.52763,-57.025402,-20.437656,87.400002
3755000000,-10.137848,-11.413223,-51.839836,-128.77635,-51.89814,-140.69572,-23.576136,86.792229
3760000000,-6.7766366,-70.202011,-52.190308,126.92188,-52.457588,126.14529,-22.91437,87.308372
3765000000,-6.3816252,-13.455162,-50.301556,38.407059,-51.26741,52.773224,-22.319702,76.246948
3770000000,-11.004248,-42.72089,-51.394119,-44.561638,-50.074051,-50.873966,-24.047407,80.724678
3775000000,-8.3125763,-51.430012,-51.804836,-134.72682,-52.041576,-130.60718,-20.167305,79.18885
3780000000,-5.1952214,-12.310717,-51.748501,138.06136,-52.393497,133.8615,-21.731846,102.60101
3785000000,-12.372149,-78.943077,-52.46471,48.091545,-52.633205,56.876961,-20.784847,84.346939
3790000000,-4.9443531,-30.787031,-51.658112,-54.275478,-50.493027,-51.074554,-19.057304,91.244637
3795000000,-9.0294485,-26.752638,-50.867947,-136.05298,-50.711834,-135.25285,-20.903971,110.69634
3800000000,-11.245072,-44.351707,-50.952297,138.25562,-51.0378,147.07887,-22.355593,91.338402
3805000000,-3.2784107,-36.482162,-52.234264,49.569279,-50.291874,57.265461,-21.502459,87.737869
3810000000,-15.236406,9.8693552,-51.010712,-46.55056,-51.214577,-50.525982,-19.615135,96.585587
3815000000,-4.5742364,-49.107655,-51.993965,-134.19522,-52.086296,-130.30873,-20.563618,88.714226
3820000000,-7.3360548,-23.612371,-50.918484,142.73708,-50.988327,138.37773,-18.636175,94.137627
3825000000,-9.2021608,-21.855824,-50.69503,34.212452,-52.30891,26.827721,-19.046427,86.516815
3830000000,-4.7020326,-55.418724,-51.413441,-46.193455,-51.667809,-43.73373,-17.824446,100.16425
3835000000,-6.9602962,-9.7965679,-50.135593,-139.42995,-50.497955,-138.92952,-19.205608,111.30347
3840000000,-8.4827337,-47.815872,-51.101711,125.61154,-50.400814,132.22932,-22.549564,92.108833
3845000000,-4.9515672,-42.734272,-51.151997,39.888248,-51.229679,40.058472,-18.362759,88.574997
3850000000,-6.4635377,-10.003909,-54.01664,-61.807365,-52.124283,-47.23761,-19.300148,93.352829
3855000000,-6.8729625,-74.007477,-51.230728,-141.86533,-53.112247,-144.38768,-19.100931,76.924141
3860000000,-4.328196,-21.348152,-54.538704,115.81953,-53.358173,117.56712,-17.385935,81.13578
3865000000,-7.7511439,-29.308086,-52.462025,39.757877,-54.813831,42.831245,-17.568197,86.889702
3870000000,-6.7475548,-62.61277,-55.507725,-55.908401,-52.227512,-65.215416,-17.31719,91.55529
3875000000,-3.1540461,-19.098009,-53.336884,-151.57678,-53.081852,-136.87802,-17.613535,89.293228
3880000000,-10.666599,-72.955238,-53.921658,129.8515,-55.438786,138.35382,-19.024578,92.118858
3885000000,-4.1469965,-33.644211,-54.114223,30.587494,-55.452023,53.08054,-17.011011,77.363464
3890000000,-5.106451,-32.942032,-55.127293,-38.570171,-54.561493,-43.093189,-19.024975,89.689201
3895000000,-10.841121,-44.409851,-55.188854,-124.80844,-56.944176,-128.90158,-18.188108,62.571152
3900000000,-1.7015142,-44.789196,-51.214581,135.25778,-56.926758,158.14326,-16.018526,80.615334
3905000000,-11.214152,-11.538625,-53.037285,47.214371,-55.796806,51.792542,-18.13826,80.776848
3910000000,-4.8295298,-45.5107,-55.091087,-33.234882,-54.522503,-35.230843,-16.738951,76.011391
3915000000,-3.3859079,-40.874603,-56.295609,-138.12001,-52.320583,-115.41102,-17.27202,76.988991
3920000000,-8.5286016,-16.664917,-54.418846,145.5573,-53.480907,157.28488,-17.535791,78.24868
3925000000,-3.383219,-61.342525,-53.727371,50.998699,-56.205025,58.604328,-17.556705,67.145905
3930000000,-5.2416897,-17.436165,-54.609898,-36.908855,-56.650425,-36.558979,-18.543295,78.341072
3935000000,-6.6334991,-41.676296,-54.869888,-122.40096,-52.702225,-134.52707,-18.043438,61.710766
3940000000,-2.6237006,-56.661655,-57.206104,129.51373,-53.919933,141.97723,-16.224152,66.661247
3945000000,-6.4986286,-13.717744,-53.179302,62.050392,-53.381004,53.272182,-17.356224,70.826477
3950000000,-5.0464969,-60.893295,-53.644051,-45.696037,-53.659828,-25.660353,-16.818161,63.962959
3955000000,-3.7794006,-40.318989,-54.125988,-125.40274,-54.677082,-133.63292,-18.376387,73.923134
3960000000,-5.233902,-22.663418,-52.783588,139.43124,-56.38768,158.07875,-17.532938,61.991814
3965000000,-4.4046435,-79.726364,-57.763329,45.590397,-54.824013,50.188515,-19.270473,69.159439
3970000000,-2.3865025,-19.968056,-57.209663,-13.402224,-53.61676,-40.11694,-17.901175,62.656521
3975000000,-6.975606,-65.931213,-55.131561,-133.17519,-58.51947,-144.42097,-18.162376,58.598694
3980000000,-4.6074882,-47.427128,-57.05323,153.85979,-56.874016,149.43663,-18.232735,56.356686
3985000000,-2.4799914,-34.491741,-58.146351,63.701126,-57.383366,54.63913,-17.388906,59.170856
3990000000,-10.840749,-76.589996,-59.81749,-13.352027,-58.628418,-67.926414,-19.409761,59.911232
3995000000,-1.206164,-45.735783,-60.306129,-105.38519,-55.504601,-113.67438,-18.145695,63.236446
4000000000,-7.4927015,-39.953735,-57.853012,157.03621,-55.499325,162.2655,-20.220051,58.897385
END

