!CSV A.01.01
!Keysight Technologies,N5247A,US56070710,A.10.64.09
!Date: Friday, November 18, 2022 22:04:00
!Source: Standard

BEGIN CH1_DATA
Freq(Hz),S33(DB),S33(DEG),S34(DB),S34(DEG),S43(DB),S43(DEG),S44(DB),S44(DEG)
3000000000,-12.888896,-114.76794,-69.138298,-137.20201,-69.610214,-140.7762,-15.288777,-131.02426
3005000000,-11.202297,176.26912,-75.11087,137.84387,-75.167732,129.57109,-17.293692,-147.97714
3010000000,-22.688301,170.34,-72.381317,15.386642,-72.809746,21.227116,-15.085143,-153.06009
3015000000,-10.042277,-152.11908,-72.940544,-79.576401,-74.597763,-81.08358,-15.571361,-141.46774
3020000000,-15.24536,137.24855,-77.232269,176.12064,-77.017845,175.6996,-17.104691,-157.01021
3025000000,-13.068214,-141.41624,-76.718025,88.160172,-77.559753,91.008102,-13.743881,-154.74866
3030000000,-11.079439,176.45662,-76.445641,-1.1837082,-77.4618,5.0899458,-16.482769,-147.56331
3035000000,-23.600185,-162.54807,-76.656586,-146.7254,-75.640564,-129.77954,-14.494601,-167.59726
3040000000,-8.6110487,-170.0881,-95.663918,-151.00015,-96.312531,-134.30327,-15.129057,-159.63651
3045000000,-17.385811,126.98257,-88.69326,58.242218,-86.728432,83.163719,-16.539499,-167.16711
3050000000,-11.472072,-140.95039,-76.314743,-90.355286,-75.356361,-91.056915,-14.470041,-179.78644
3055000000,-8.9769506,157.91371,-77.413223,153.0742,-77.587364,159.93419,-14.892123,-158.21217
3060000000,-20.879234,-107.65097,-88.099998,-17.285944,-82.117805,-3.6782973,-15.469396,173.64275
3065000000,-7.4103365,174.37871,-77.606247,-81.711105,-81.208534,-74.532112,-14.36452,-170.04561
3070000000,-23.588699,143.82498,-78.621544,-150.41255,-79.41095,-134.95509,-15.596567,-178.90356
3075000000,-9.9432678,-163.15515,-77.895287,106.62521,-76.413277,110.1777,-16.669094,171.97217
3080000000,-10.262582,136.40598,-76.431244,-7.38304,-75.783607,1.3226997,-14.187172,177.96692
3085000000,-11.59466,-128.20178,-75.731812,-93.302162,-75.02243,-99.754494,-18.618771,178.31804
3090000000,-7.8628378,147.52588,-75.559875,152.31123,-76.097626,149.1615,-14.142277,164.53735
3095000000,-20.168972,-167.61478,-80.223518,51.993961,-79.686111,66.268997,-16.063419,-179.63148
3100000000,-9.1719456,-178.90833,-78.260048,-61.691608,-80.788597,-63.997417,-16.18005,160.43318
3105000000,-12.239889,124.78086,-79.69545,-165.04277,-79.870773,-158.70642,-15.397096,167.64572
3110000000,-10.154907,-157.09813,-78.07579,116.95036,-78.607529,119.64007,-16.721373,168.94099
3115000000,-10.043366,139.5504,-74.681877,15.163076,-75.278381,19.004707,-17.641041,159.08459
3120000000,-15.520401,163.45692,-74.931793,-131.76787,-74.888832,-126.44071,-15.102302,163.42326
3125000000,-8.3361235,175.92456,-79.242035,165.42375,-82.149155,174.52959,-17.877451,165.33394
3130000000,-13.613091,100.61671,-76.964241,56.809486,-79.210899,66.365784,-16.036299,151.01378
3135000000,-8.4588909,-172.94295,-77.134415,-65.390793,-75.042358,-73.646858,-16.146414,161.86571
3140000000,-9.0569344,133.70593,-74.3508,173.32773,-74.89962,174.54518,-19.406462,157.2926
3145000000,-23.423208,-160.05174,-75.96093,93.943352,-77.388908,102.44318,-15.537161,146.8288
3150000000,-5.5564499,155.70351,-72.441017,-15.894703,-74.463356,-10.822553,-17.669256,173.72588
3155000000,-17.622978,71.251305,-74.669685,-119.30349,-75.144051,-119.42772,-17.993479,143.92879
3160000000,-7.5021043,172.93698,-74.147003,148.82614,-73.642845,151.85263,-16.370157,152.32988
3165000000,-9.8002443,116.53316,-78.494072,63.787437,-77.875427,69.102913,-18.704737,159.69489
3170000000,-14.409706,-173.69745,-78.885849,-41.36573,-77.589966,-48.790665,-17.80883,136.48317
3175000000,-6.6851602,134.97055,-87.210335,-111.58313,-80.918877,-82.562439,-16.849745,159.15147
3180000000,-25.686255,155.96661,-85.778206,136.06915,-83.878654,140.46254,-18.584162,151.81242
3185000000,-7.1646199,145.38139,-84.670563,-17.639374,-81.590073,-13.188008,-17.991165,148.88936
3190000000,-12.113245,106.20112,-87.158958,-136.9218,-84.196793,-81.043411,-16.101871,158.88248
3195000000,-10.546535,179.0461,-75.96122,129.51907,-79.476936,134.83533,-23.320219,147.89008
3200000000,-7.0602469,114.4737,-73.328911,14.629725,-74.129814,24.584591,-15.46237,138.06819
3205000000,-15.459333,150.90866,-73.191086,-83.258514,-74.912148,-80.571053,-20.067539,175.83757
3210000000,-8.9393978,141.01862,-71.206757,172.24986,-71.086792,164.29063,-17.616753,128.32693
3215000000,-11.536696,101.92144,-71.595482,71.920921,-72.000267,71.294106,-17.084248,155.38002
3220000000,-9.2924232,161.79828,-70.606201,-40.144325,-70.380516,-36.743477,-18.233465,150.35658
3225000000,-7.682188,101.62548,-69.259781,-133.21814,-68.913834,-125.93691,-18.745546,135.0686
3230000000,-16.210609,158.73692,-70.234955,116.57229,-68.606781,124.44837,-15.668485,154.70299
3235000000,-6.3514481,129.70641,-68.582817,25.900688,-69.505669,26.164545,-23.896116,144.73755
3240000000,-12.981189,57.337315,-70.769447,-58.708885,-70.906738,-61.856358,-15.456906,141.54805
3245000000,-5.7758241,157.77237,-68.922508,-156.67601,-69.439415,-159.23369,-18.895548,159.64536
3250000000,-7.104856,79.187645,-70.463264,105.22457,-70.189445,108.75668,-19.003572,138.27469
3255000000,-13.62288,163.48132,-70.661301,14.689012,-71.141838,13.278319,-16.069876,135.03308
3260000000,-6.3401055,111.60649,-72.77182,-101.39825,-73.199715,-92.417831,-17.998688,160.62976
3265000000,-24.493387,83.767776,-74.301132,145.52307,-74.361557,151.25067,-17.715313,123.04266
3270000000,-5.3835998,123.32975,-76.461166,53.663857,-75.241264,46.414558,-16.208046,156.04337
3275000000,-12.294015,59.695934,-78.598984,-82.091049,-79.546013,-90.536469,-19.496256,137.29208
3280000000,-9.4353256,146.047,-75.4832,154.45197,-74.309372,150.63242,-16.365362,133.50357
3285000000,-6.3233867,90.925674,-77.204323,27.375698,-77.222282,35.978291,-16.468674,143.17709
3290000000,-26.381451,125.82237,-73.237434,-81.549011,-74.868095,-85.923973,-19.681889,131.95395
3295000000,-5.7965517,114.61852,-74.736748,-179.93954,-73.320259,-179.42488,-15.248791,128.14961
3300000000,-11.008778,64.659538,-71.983421,80.335022,-71.976486,74.447403,-18.175425,145.02808
3305000000,-10.575883,144.23003,-70.04763,-25.748814,-70.071861,-26.701674,-17.022387,129.39122
3310000000,-5.5000229,80.772346,-70.238533,-136.12531,-69.358604,-129.06235,-16.040621,128.71208
3315000000,-18.705086,144.74753,-70.771782,133.80226,-70.517654,131.68256,-17.381472,144.0598
3320000000,-6.6276884,98.165421,-71.258011,50.015606,-72.116531,50.83062,-16.477295,103.4815
3325000000,-11.56563,56.675369,-71.397377,-44.713711,-70.548218,-45.750904,-16.031721,142.84962
3330000000,-7.312603,138.82092,-70.537735,-168.27296,-70.191864,-158.37584,-16.841862,107.43442
3335000000,-4.8275113,54.11937,-78.210266,98.547722,-75.015434,101.94868,-17.567329,131.54932
3340000000,-13.096415,157.62769,-78.091866,10.478712,-80.007767,17.469101,-14.499524,117.63146
3345000000,-5.4748816,85.004929,-77.036758,-87.297577,-75.913651,-93.383003,-21.015388,133.19849
3350000000,-16.834776,46.939285,-80.455116,129.64944,-84.093719,110.44218,-13.651186,105.83633
3355000000,-5.8848066,110.40062,-84.137833,23.894604,-82.935905,19.137962,-20.083817,136.68884
3360000000,-9.0672216,34.374821,-82.076866,-97.049614,-81.110657,-114.82786,-16.149239,100.99847
3365000000,-9.6727715,117.45745,-84.018852,142.98163,-79.325684,132.70259,-17.611944,109.02956
3370000000,-7.4317007,70.260818,-74.844727,29.737394,-75.13269,43.90881,-16.604002,115.62908
3375000000,-17.555859,59.584961,-73.145592,-79.282608,-72.819786,-85.741951,-17.49839,90.020546
3380000000,-5.6434345,93.297791,-72.504532,-172.69125,-73.35154,177.17345,-14.945882,115.47494
3385000000,-12.363731,38.192822,-72.518242,84.961838,-73.355888,81.210976,-21.429144,86.000671
3390000000,-10.776772,98.039902,-72.952736,-4.2828841,-73.310822,-6.0831122,-15.686219,97.931366
3395000000,-7.0372338,66.842133,-72.32917,-110.16007,-72.572151,-117.18341,-18.818062,105.32653
3400000000,-23.272938,61.900154,-73.748947,154.43201,-74.368126,151.73381,-20.284786,96.618881
3405000000,-5.7652411,77.623512,-74.135483,72.489555,-72.809967,72.297752,-15.878393,82.898415
3410000000,-13.305108,32.952038,-73.462204,-32.227913,-73.899643,-35.123894,-19.729597,115.09914
3415000000,-9.03617,94.930824,-80.260773,-127.75358,-77.469559,-126.32215,-17.160707,67.573532
3420000000,-7.0136819,43.010967,-75.658875,142.45404,-75.435806,142.72867,-18.582832,102.51778
3425000000,-15.967401,132.11957,-74.672287,51.675365,-75.445915,51.441273,-20.401506,86.210762
3430000000,-4.9262733,53.409184,-77.413635,-55.848339,-76.987488,-62.63343,-19.849915,67.87413
3435000000,-22.047417,32.479664,-78.381149,176.24435,-79.46579,164.01575,-17.129198,106.17834
3440000000,-6.0896125,82.334404,-77.674011,111.64198,-76.100029,102.16573,-24.129316,35.421864
3445000000,-7.8100753,9.5769415,-80.04924,-40.056564,-79.37722,-27.580475,-16.465359,82.834236
3450000000,-9.6142187,109.96318,-79.212921,-165.10501,-76.924591,-150.81918,-25.042765,78.034813
3455000000,-6.8083649,35.509415,-76.406075,117.67375,-78.716255,133.51801,-21.970078,73.501801
3460000000,-16.634195,70.746216,-76.237961,25.363239,-77.434097,24.691486,-18.705357,67.548096
3465000000,-6.1471872,61.602127,-77.226044,-101.6431,-74.25695,-99.208374,-22.667713,135.03
3470000000,-12.493264,0.62505347,-78.314148,157.29822,-75.413246,162.95366,-18.751516,37.317234
3475000000,-8.2880936,86.529228,-73.851791,72.065262,-74.102165,60.359142,-19.788162,120.0898
3480000000,-8.1567354,23.724379,-76.175331,-28.705029,-73.607521,-39.815899,-23.600304,14.876294
3485000000,-15.353735,64.666512,-74.160378,-124.13901,-74.50856,-122.90915,-21.788639,78.865257
3490000000,-6.6134357,61.416203,-71.779419,128.54984,-71.858925,127.29401,-22.369272,94.964264
3495000000,-11.292025,-8.0390224,-73.49884,13.076259,-73.333389,15.104719,-32.309483,-6.4746451
3500000000,-8.4396877,81.219238,-72.412659,-75.881805,-72.827873,-65.194946,-17.15946,79.322144
3505000000,-8.3738585,20.000443,-73.006035,179.886,-72.731117,-167.61804,-28.998352,-179.89786
3510000000,-17.121199,104.1023,-72.135574,71.589165,-73.482437,71.550644,-21.294003,61.867218
3515000000,-4.2843232,37.594734,-73.021835,-23.162449,-71.535599,-26.595404,-28.329834,107.80468
3520000000,-19.378311,-85.030457,-73.258507,-130.84253,-72.955368,-128.32608,-27.186579,118.2413
3525000000,-5.6810284,65.667068,-71.388916,103.1397,-71.527245,106.68051,-24.027157,34.115238
3530000000,-8.6385393,-8.2531776,-70.739655,11.67737,-70.991943,11.498901,-18.878353,117.79239
3535000000,-10.867003,98.24501,-68.727768,-97.148857,-69.031303,-93.621162,-34.028069,-27.298328
3540000000,-6.0812001,13.203485,-69.71302,152.03932,-68.947868,149.69356,-19.67697,89.086128
3545000000,-17.202517,97.974541,-68.741348,48.78632,-69.006256,46.938278,-27.479765,149.09662
3550000000,-6.5127091,31.02121,-68.57412,-48.858227,-69.054214,-48.270527,-30.035593,96.639069
3555000000,-15.115315,1.3630207,-67.537361,-151.73326,-66.930855,-155.52867,-23.055532,91.10878
3560000000,-10.092528,71.048378,-67.753998,90.364502,-67.100174,95.824066,-24.29916,148.74736
3565000000,-8.6021156,4.0584273,-67.490265,-8.0566635,-67.861328,-13.54231,-25.02537,53.743561
3570000000,-13.559134,60.316902,-66.611717,-123.89207,-66.315628,-120.11758,-22.636606,112.30737
3575000000,-8.8429775,29.765701,-66.551949,131.10532,-66.724045,128.39828,-25.505104,111.24896
3580000000,-14.433581,-11.797913,-66.231163,22.013229,-66.062553,27.037176,-30.182177,65.47892
3585000000,-7.9742274,61.687462,-66.763313,-89.521057,-66.04113,-84.536842,-17.892126,113.57277
3590000000,-9.9153547,-13.36802,-65.759331,166.57315,-66.201538,169.38695,-29.79833,-105.46767
3595000000,-12.407033,70.88562,-65.935265,59.552032,-66.08371,55.321095,-17.864075,82.966614
3600000000,-6.6756611,22.26158,-65.071655,-49.837002,-65.292656,-49.912788,-26.557362,148.58566
3605000000,-18.568001,-65.956421,-64.717758,-162.87599,-65.22377,-161.11174,-26.806671,86.0951
3610000000,-5.7607388,49.192528,-64.469063,89.840569,-64.690804,88.228386,-22.182888,67.901802
3615000000,-13.022066,-35.590759,-64.612907,-16.94837,-65.159325,-19.91271,-20.56912,137.55885
3620000000,-9.0586519,67.350876,-64.59407,-132.89685,-63.869041,-130.06775,-23.471889,28.932016
3625000000,-5.8220229,-4.6669559,-64.562103,120.90098,-64.166374,125.09167,-17.658854,111.19924
3630000000,-15.839176,126.26243,-65.376488,17.049522,-65.100212,17.789717,-44.562595,-177.31139
3635000000,-6.0467916,18.306393,-66.790596,-87.546341,-65.351768,-85.660637,-21.255032,67.748787
3640000000,-18.445604,6.7882481,-67.246559,164.60139,-66.423302,164.89401,-21.456505,119.92451
3645000000,-8.6405287,46.801884,-67.552139,50.476135,-67.051971,58.207623,-42.03949,-58.59137
3650000000,-9.2157612,-16.387274,-68.785072,-51.633842,-69.21537,-49.388859,-19.228287,73.175575
3655000000,-12.39817,72.715004,-68.069328,-159.83546,-68.039871,-152.93933,-27.495373,139.08618
3660000000,-8.2733231,6.4689927,-69.167885,91.80127,-70.235695,98.917809,-24.491266,58.721481
3665000000,-15.40672,20.98348,-70.452995,-2.219368,-70.350449,2.7790959,-24.361139,69.604149
3670000000,-9.1254034,41.388649,-70.906319,-110.59338,-69.542549,-115.45344,-22.133118,130.10468
3675000000,-9.3417225,-21.329576,-71.086456,126.88462,-69.929382,128.08147,-23.921864,-5.9430137
3680000000,-10.39961,70.175728,-70.93808,24.461079,-70.283447,36.046444,-18.083296,113.97808
3685000000,-7.2912049,-1.2938443,-68.821472,-72.171341,-68.865356,-63.508247,-26.891842,-68.406509
3690000000,-22.557917,25.562696,-70.092331,174.95882,-69.234619,173.74081,-21.731087,64.374931
3695000000,-5.8413734,35.2453,-68.243759,72.109421,-68.418732,76.797699,-27.387953,93.360336
3700000000,-12.17552,-56.984501,-70.366486,-32.731911,-69.365631,-31.583977,-36.192493,-138.21881
3705000000,-6.4378729,52.682785,-70.357918,-136.533,-69.692635,-132.59998,-20.383541,51.040565
3710000000,-8.3608522,-26.183174,-71.321556,108.51162,-70.087288,114.4378,-22.547714,164.90045
3715000000,-13.846945,72.046761,-70.003906,15.920285,-69.229416,17.911093,-23.954292,17.04125
3720000000,-5.4450035,6.5424538,-70.30452,-91.821526,-70.943718,-96.575333,-23.2076,121.30528
3725000000,-30.893333,94.62899,-70.306389,163.67702,-70.902382,167.11214,-40.675514,-163.37923
3730000000,-4.6656237,17.77828,-70.714241,69.193733,-69.944603,65.020523,-29.689623,0.079814546
3735000000,-15.093905,-41.358204,-70.826698,-34.382648,-71.280716,-31.030434,-20.482927,110.82815
3740000000,-9.8326254,54.30563,-70.971031,-145.16411,-70.785683,-131.07159,-25.159369,-121.29585
3745000000,-5.639173,-8.1967859,-71.83651,111.5658,-70.617706,111.86499,-23.029169,68.700333
3750000000,-17.884649,48.883389,-73.106689,8.9083595,-71.861137,13.736669,-26.010508,159.03081
3755000000,-7.773869,13.038169,-72.40892,-95.971497,-72.430565,-95.505295,-34.758411,-177.61111
3760000000,-10.191305,-14.163527,-71.662872,145.17346,-71.043266,151.81699,-26.58238,67.149513
3765000000,-11.17205,44.183247,-73.246361,58.127056,-73.937225,59.557774,-20.730015,177.89072
3770000000,-6.9893975,-9.9985275,-74.122932,-54.55703,-73.862572,-59.016949,-27.547577,-3.4259541
3775000000,-14.000391,29.568655,-75.928223,-155.69238,-73.999596,-157.36646,-20.69076,122.85608
3780000000,-6.7527089,6.9832501,-73.643806,88.977188,-73.216972,103.22328,-26.579739,-175.51811
3785000000,-14.199531,-45.178101,-74.258026,1.7578055,-73.846443,-3.5750356,-31.912279,35.886795
3790000000,-5.2316375,37.168209,-75.214966,-110.83893,-75.777557,-97.567665,-18.483652,125.00748
3795000000,-7.0501876,-49.956829,-74.245079,149.28198,-73.525352,145.05441,-23.167105,-134.05589
3800000000,-8.6630125,49.820614,-75.051422,55.806652,-73.516014,41.683968,-21.900801,91.121445
3805000000,-5.9773078,-15.370723,-73.346596,-61.335747,-76.194618,-61.296837,-21.690887,164.94951
3810000000,-21.41902,27.496084,-75.729019,-161.84373,-76.251984,-176.53749,-28.256584,115.2722
3815000000,-3.5342159,3.0678465,-74.904388,106.72407,-73.573761,99.79631,-25.995571,108.36485
3820000000,-15.492356,-68.718849,-73.841881,-7.5966144,-73.975914,-8.943512,-19.000311,144.99792
3825000000,-6.3592525,24.404312,-77.031898,-115.31108,-75.729584,-118.24489,-34.412285,-20.535999
3830000000,-7.0270543,-26.02104,-74.52462,150.36877,-76.609886,144.13753,-15.087388,119.1214
3835000000,-12.989912,28.856707,-78.162376,49.104988,-75.011673,49.411591,-21.407457,-151.52966
3840000000,-5.156641,-15.890236,-74.551682,-68.344078,-75.641075,-62.677612,-21.869291,99.176804
3845000000,-16.369282,-13.692675,-76.238136,178.63597,-77.349731,-175.88911,-22.011009,114.29086
3850000000,-6.3562984,11.192197,-82.126839,70.20002,-78.00325,88.709839,-21.447655,170.72563
3855000000,-6.8713241,-39.544315,-82.299973,-26.601973,-83.420929,-39.588852,-20.241467,56.898823
3860000000,-10.098138,38.367165,-79.599075,-145.02623,-83.552544,-155.99794,-16.631819,146.66911
3865000000,-4.5582132,-26.884903,-80.575691,124.25583,-87.266624,120.02847,-26.409819,55.614342
3870000000,-16.549456,-18.332209,-81.491806,41.162601,-84.479294,16.911276,-18.436274,116.89977
3875000000,-5.4051805,6.7716265,-78.984756,-90.395325,-77.180992,-94.13562,-20.124949,124.47665
3880000000,-7.7590775,-57.746342,-82.958008,179.80492,-83.781792,164.93274,-33.784645,108.18563
3885000000,-6.1891289,29.87216,-78.728836,52.413406,-76.874428,55.47702,-16.580599,96.619492
3890000000,-3.9246216,-50.000774,-78.489517,-1.4882953,-78.994019,-10.508778,-21.03153,177.01045
3895000000,-16.080063,64.06411,-80.19072,-119.08145,-84.999123,-140.32217,-18.975908,53.414207
3900000000,-1.9908911,-14.380868,-84.677002,124.43105,-78.795975,145.62814,-16.776636,118.58471
3905000000,-12.308401,-91.267151,-78.316124,25.358686,-80.45134,56.483356,-31.129749,131.41435
3910000000,-3.8461444,9.27458,-79.869293,-74.544785,-82.705414,-75.541077,-17.44499,70.315178
3915000000,-6.4833288,-65.035736,-78.645935,-164.22165,-78.535233,-154.73114,-18.062962,132.41832
3920000000,-9.5052357,20.029207,-78.235924,74.399849,-79.259995,67.682869,-26.411015,34.154396
3925000000,-3.634748,-29.73208,-81.900108,-33.447414,-77.868591,-38.774288,-17.073278,96.474113
3930000000,-16.123032,-68.360039,-79.720009,-91.46447,-84.139549,-119.00085,-23.450068,120.96445
3935000000,-4.7360196,-10.936008,-81.287819,151.06459,-78.261612,159.92023,-24.659193,39.812923
3940000000,-7.6456418,-47.508156,-78.812553,43.196766,-78.588715,72.971024,-15.739885,83.64167
3945000000,-10.99859,0.014133222,-80.613068,-42.614948,-81.669632,-62.804668,-27.246799,175.24834
3950000000,-3.0664558,-39.778217,-79.882187,-177.67059,-79.906082,-166.08653,-15.947203,53.118492
3955000000,-25.128082,-80.977264,-80.223045,114.01464,-77.879883,91.287079,-19.291382,136.28961
3960000000,-3.6963012,-13.60099,-79.479881,-12.466541,-83.933975,5.1276627,-23.062319,43.10973
3965000000,-6.285182,-67.526985,-74.991356,-135.65836,-77.698517,-119.41918,-19.658352,77.760742
3970000000,-9.2411013,7.8752832,-77.98204,131.34079,-77.128159,130.30553,-22.79245,109.10511
3975000000,-2.8426571,-57.564713,-80.105835,34.573124,-80.273262,38.594318,-24.364208,8.8427153
3980000000,-16.392435,54.238541,-78.587822,-69.024635,-76.22496,-67.157341,-17.231869,78.003944
3985000000,-1.9093666,-33.194679,-79.786362,166.05128,-79.172226,169.01407,-31.026436,122.38725
3990000000,-10.048921,-93.665779,-80.568573,70.798378,-78.699463,68.955841,-22.285589,41.695927
3995000000,-4.9916844,-11.09284,-81.59935,-11.529517,-84.090919,-0.67533147,-18.984114,80.194252
4000000000,-6.8207569,-78.491508,-82.098289,-121.75151,-83.865723,-119.75706,-38.613831,175.65749
END

