!CSV A.01.01
!Keysight Technologies,N5247A,US56070710,A.10.64.09
!Date: Friday, November 18, 2022 21:25:20
!Source: Standard

BEGIN CH1_DATA
Freq(Hz),S33(DB),S33(DEG),S34(DB),S34(DEG),S43(DB),S43(DEG),S44(DB),S44(DEG)
3000000000,-2.9687893,-73.39006,-72.733772,-105.93711,-72.31781,-102.26114,-14.794271,-126.05843
3005000000,-5.3279629,-88.501129,-74.475327,140.88248,-73.523346,135.74762,-17.55463,-143.42213
3010000000,-5.1369691,-69.645363,-74.804413,74.671745,-75.360405,68.058189,-14.865561,-148.65623
3015000000,-3.1802101,-87.04908,-74.299255,-64.766525,-73.498627,-61.440067,-15.380326,-136.30298
3020000000,-6.810215,-73.14045,-76.304283,157.78961,-76.939857,161.39537,-17.414015,-152.51826
3025000000,-3.1422956,-77.607719,-78.537849,95.044518,-78.169479,94.728081,-13.388917,-151.18683
3030000000,-5.2323875,-89.424263,-76.490578,-25.735399,-77.507164,-32.521748,-16.564104,-141.06528
3035000000,-4.5950871,-67.485359,-82.247093,-128.48688,-81.89238,-130.42149,-14.350187,-164.19952
3040000000,-3.7252748,-95.862015,-76.870399,145.70454,-75.837158,137.64796,-14.779952,-155.271
3045000000,-6.0073853,-67.171013,-73.163017,27.934484,-74.924927,19.573736,-16.54818,-159.12581
3050000000,-2.9205253,-83.117485,-78.112503,-82.825607,-79.039093,-94.70713,-14.406377,-177.02072
3055000000,-6.74546,-94.433525,-74.209221,-157.15619,-74.410873,-159.67168,-14.571045,-151.44275
3060000000,-3.2341621,-70.65728,-74.051338,112.41389,-72.477188,103.96157,-15.804386,176.99377
3065000000,-5.060452,-102.79324,-78.45546,-78.655922,-79.137093,-80.774231,-14.08243,-166.80223
3070000000,-4.6707273,-68.723648,-84.065506,-165.30289,-81.459587,-177.28612,-15.553315,-172.16051
3075000000,-3.5847058,-92.601105,-74.202736,122.34319,-75.646851,131.29079,-16.696535,174.72285
3080000000,-7.4645252,-84.707214,-72.251289,-2.7773151,-72.625038,1.0064191,-13.824748,-176.80998
3085000000,-2.5744536,-81.943748,-78.456604,-54.152977,-78.972115,-62.35458,-18.722246,-173.5106
3090000000,-6.8094053,-99.109955,-70.917236,-167.89067,-71.218628,-160.46999,-14.145617,167.8502
3095000000,-4.2447443,-75.995865,-72.958221,14.682832,-74.274384,6.4083314,-15.672446,-173.23608
3100000000,-4.1795168,-96.236969,-93.198372,-102.68031,-88.718201,-35.31168,-16.650824,165.21402
3105000000,-7.0847788,-79.084839,-72.543877,-167.53481,-73.78788,-164.94502,-15.086072,169.93208
3110000000,-3.0317645,-90.785378,-75.970558,66.431877,-74.73925,61.867146,-16.479666,177.47034
3115000000,-6.7346716,-94.444756,-76.74614,10.028246,-76.9739,25.91931,-17.923113,160.63506
3120000000,-4.7865586,-79.073082,-71.0131,-108.76606,-70.974472,-103.82582,-14.52817,169.79533
3125000000,-4.1535392,-103.86219,-82.735275,8.8255291,-81.82518,4.1222215,-18.313316,172.7317
3130000000,-6.9837937,-70.693855,-83.142128,57.329514,-79.808533,66.896843,-15.987268,155.10338
3135000000,-2.8517034,-100.84345,-72.703957,-81.880798,-71.686333,-85.972832,-15.885924,167.27992
3140000000,-8.2929516,-93.034042,-77.95063,-176.66481,-78.725792,166.30083,-19.977783,165.56247
3145000000,-3.549149,-81.780952,-73.363571,123.09041,-73.674026,129.82773,-15.291187,149.0968
3150000000,-5.8703399,-116.35327,-75.793526,-14.579596,-77.682266,-4.2583351,-17.445974,-178.65643
3155000000,-5.1252146,-71.895767,-79.876381,-147.17795,-81.232811,-132.5374,-18.014109,147.70717
3160000000,-4.0769839,-108.71033,-81.793404,125.74179,-77.093742,149.18071,-16.177986,156.56989
3165000000,-8.2331858,-87.049767,-71.662262,16.979343,-72.647652,12.085351,-18.262751,170.16049
3170000000,-3.5182552,-93.530327,-75.063431,-105.32846,-76.290901,-102.83498,-18.447321,136.19559
3175000000,-8.265481,-111.10653,-76.495377,-173.50742,-75.691757,-177.02826,-16.006987,165.95619
3180000000,-4.2031007,-83.003113,-80.57045,81.580315,-85.09433,60.373291,-19.830698,156.71349
3185000000,-6.2785192,-112.69902,-87.104218,-17.704729,-82.754524,-6.1390886,-17.479074,152.23413
3190000000,-7.3220048,-85.738472,-81.141701,-128.62837,-78.677727,-127.04025,-16.138037,163.02469
3195000000,-3.9180026,-100.51515,-74.697998,116.46384,-75.950905,131.26614,-22.880342,158.35068
3200000000,-10.092421,-108.56126,-71.711647,-7.0056868,-71.928947,-5.0224557,-15.46641,140.38733
3205000000,-4.6068301,-91.383041,-78.997513,-92.222397,-76.666649,-80.676765,-19.002535,-175.94815
3210000000,-6.701889,-111.20784,-85.847397,99.71051,-91.521935,128.38727,-18.223631,129.97673
3215000000,-8.0265045,-84.565269,-77.308578,45.273907,-77.478493,40.553181,-16.438667,160.923
3220000000,-4.3899684,-110.44711,-74.871201,-69.11245,-77.246597,-63.998962,-18.707474,157.90114
3225000000,-11.608874,-96.476906,-74.030807,-128.39677,-74.36306,-137.3517,-18.949965,138.50787
3230000000,-4.3249559,-96.41349,-74.264519,114.90405,-73.891907,125.50003,-15.298153,157.66039
3235000000,-8.7254534,-128.92494,-80.516174,21.61841,-79.823174,15.853713,-24.357059,161.91646
3240000000,-5.9370737,-73.759354,-95.82811,-176.13432,-85.700432,-120.93869,-15.335127,141.94405
3245000000,-4.6826048,-131.17537,-79.412033,140.78522,-77.863609,148.37164,-18.217899,169.93759
3250000000,-11.03724,-70.268044,-73.698685,10.144386,-75.107834,20.844204,-19.313114,141.96138
3255000000,-4.7224383,-108.38337,-86.1903,-84.712662,-87.596718,-72.716263,-16.077892,140.00114
3260000000,-11.817795,-120.6264,-73.525261,-150.19817,-73.730011,-151.66978,-17.507063,167.92949
3265000000,-5.4111099,-89.216965,-83.170753,42.326412,-84.071419,57.34198,-18.633394,124.00334
3270000000,-8.7282228,-140.41763,-85.25119,14.877672,-82.867531,43.579533,-15.35854,158.03822
3275000000,-8.0530224,-80.107269,-80.063286,-151.24675,-79.062355,-153.18292,-20.29381,149.15219
3280000000,-6.1584454,-119.41027,-76.605598,104.42802,-75.394333,92.497086,-16.247837,135.40355
3285000000,-14.833488,-107.95673,-81.560463,22.758448,-80.785645,29.165857,-16.036787,149.9297
3290000000,-5.1026969,-95.210899,-76.973396,-64.319099,-78.341156,-56.603954,-20.411665,140.6787
3295000000,-10.821718,-140.07465,-80.379402,158.71231,-78.336105,157.47482,-15.129216,130.3119
3300000000,-9.6893854,-77.387344,-81.63456,-19.771879,-86.179733,12.390491,-17.696682,155.47832
3305000000,-6.204946,-119.49104,-81.268982,-37.047504,-82.621025,-51.731117,-17.804142,130.37407
3310000000,-21.054026,-82.441032,-76.097252,-168.49469,-77.220818,-159.10579,-15.467392,133.2094
3315000000,-5.5727677,-104.28148,-84.234169,52.639942,-81.083344,58.774277,-17.310446,152.28822
3320000000,-15.346847,-147.66542,-76.224785,1.8038069,-76.966011,6.2246871,-16.677574,105.72142
3325000000,-7.9164457,-81.372162,-83.415573,-127.79959,-82.654823,-131.05913,-15.27234,146.98575
3330000000,-7.7428994,-139.7014,-82.973312,65.437042,-82.753822,56.482048,-18.188358,116.248
3335000000,-12.732007,-38.738213,-85.197723,-6.2343073,-83.504974,13.896214,-17.082687,129.54361
3340000000,-6.2186322,-119.66186,-83.184753,-97.562057,-84.392311,-93.192024,-14.744834,126.42822
3345000000,-25.121212,-94.773026,-79.363518,157.7177,-80.562157,161.83241,-21.467802,135.10349
3350000000,-7.7608523,-90.425507,-96.817047,75.633606,-83.755867,42.09053,-13.439382,109.87354
3355000000,-12.342509,-161.96771,-86.169022,85.283546,-92.84613,161.51846,-19.491663,145.33113
3360000000,-9.5459919,-64.213768,-97.92099,179.56078,-96.083733,-40.598312,-16.571775,102.46575
3365000000,-10.390052,-128.63564,-79.842369,-151.06377,-78.631783,-142.45988,-16.63122,117.97342
3370000000,-17.588037,-67.202072,-74.518845,49.443466,-75.558578,51.813244,-17.404968,123.16805
3375000000,-9.299202,-96.92009,-83.276016,-54.912357,-82.149811,-68.288208,-17.540787,91.527618
3380000000,-17.668663,-170.17578,-82.109207,-77.404633,-80.544601,-71.811493,-14.581675,121.89929
3385000000,-9.3841543,-68.35981,-83.267731,18.246754,-83.824707,14.409442,-22.331827,89.179337
3390000000,-11.963353,-127.39199,-93.140434,179.16,-89.950043,113.04514,-15.418715,99.960678
3395000000,-17.766199,-32.082466,-81.764946,-63.17281,-78.656158,-80.195053,-18.74958,117.39963
3400000000,-8.3928337,-101.14755,-80.299622,130.15828,-77.62191,130.46591,-20.415398,96.21804
3405000000,-25.911566,67.014542,-76.928719,73.676994,-79.116249,80.492142,-15.651986,88.985657
3410000000,-8.7548237,-77.895393,-75.190041,-29.314493,-74.737724,-29.949755,-19.936766,127.10314
3415000000,-16.460726,-150.07869,-78.120468,-144.10037,-76.493141,-131.22824,-17.190445,68.429375
3420000000,-10.584382,-33.038799,-94.002335,138.33022,-89.936249,163.39711,-17.860697,107.84944
3425000000,-9.3415956,-123.68231,-87.989929,-104.55212,-86.894142,-151.72832,-22.122015,91.938782
3430000000,-13.061234,2.2711651,-80.195961,-148.04019,-82.633675,-153.03125,-19.044069,71.515404
3435000000,-8.8452225,-93.868607,-76.809006,107.37582,-76.645699,107.54159,-16.863625,111.77132
3440000000,-30.540047,69.602837,-76.71888,62.649605,-77.20787,54.727043,-25.323284,34.813576
3445000000,-8.0457335,-46.718658,-75.785927,-78.597542,-75.879509,-79.271591,-16.196503,86.597839
3450000000,-13.721733,-143.16434,-93.823074,-24.115688,-86.81768,-63.682293,-25.248346,95.960243
3455000000,-10.514337,-20.751499,-77.772491,124.99055,-77.706635,135.85066,-22.767857,66.316444
3460000000,-11.772745,-96.886589,-78.100487,-86.110069,-78.280029,-83.625092,-18.3848,76.593445
3465000000,-18.25214,0.43890098,-78.447723,-161.90666,-79.36763,-141.66298,-23.101368,144.31248
3470000000,-8.3015509,-60.136154,-79.696609,102.46826,-79.668495,129.99072,-18.329336,39.162205
3475000000,-22.901062,-144.3284,-76.971687,24.890013,-78.89904,14.284993,-19.333416,124.49083
3480000000,-9.3700361,-31.456577,-85.829506,-55.90556,-82.588356,-45.709915,-25.351086,19.04216
3485000000,-11.648955,-89.766464,-80.640419,152.64037,-81.90686,136.26653,-21.552986,75.186188
3490000000,-15.401176,17.952209,-81.827568,45.117645,-80.627045,46.154491,-21.936064,107.82629
3495000000,-6.9413352,-64.085907,-81.094368,-92.220497,-80.803932,-92.100731,-32.187355,-29.96907
3500000000,-31.960197,88.200333,-91.392868,-163.82445,-92.387215,-117.01169,-16.829319,80.600098
3505000000,-7.5811372,-39.594929,-80.959229,135.74158,-81.611549,145.47368,-26.874464,-170.82397
3510000000,-13.760751,-113.27378,-95.762871,-39.16478,-95.410881,-4.5130749,-21.819143,57.053047
3515000000,-8.2573137,0.13477126,-81.787216,-179.29767,-84.839394,-170.75679,-25.068874,106.94894
3520000000,-7.536325,-92.848892,-76.595306,136.03264,-78.136253,132.27802,-27.74362,140.79404
3525000000,-13.648251,21.076214,-74.534393,34.638832,-75.634651,54.529919,-23.833214,32.37558
3530000000,-6.6919084,-57.307896,-80.843155,9.6982727,-85.204613,25.489899,-18.078108,124.03494
3535000000,-24.417294,-107.61024,-75.394585,-125.1437,-75.363289,-127.70121,-31.070343,-49.887825
3540000000,-6.9031916,-29.294807,-83.395218,-117.47878,-84.587303,-113.34142,-19.900759,88.243713
3545000000,-12.893132,-93.327026,-87.852745,-107.79227,-85.444366,-81.207932,-25.31847,151.4371
3550000000,-9.977356,-12.311636,-79.330505,-157.1731,-81.960228,176.41815,-35.779182,97.045364
3555000000,-8.2056074,-63.958786,-77.152718,116.74707,-76.036896,106.30009,-21.596621,88.072746
3560000000,-22.080776,-27.606907,-83.717186,28.060978,-89.123184,49.5182,-22.214476,166.20667
3565000000,-7.1268563,-39.615551,-75.971214,-23.745401,-75.597107,-31.423355,-23.841105,45.317204
3570000000,-14.293411,-73.828453,-91.688461,-58.843262,-96.615089,159.31638,-21.403107,119.94819
3575000000,-10.147765,-17.021568,-87.808472,-85.938416,-84.337143,-108.00797,-27.310265,133.26201
3580000000,-7.3293638,-71.177971,-81.758377,-45.593033,-76.223396,-49.335873,-28.571749,56.500717
3585000000,-16.084425,19.881149,-81.872643,-170.14749,-85.6306,-173.37541,-17.619568,118.77624
3590000000,-5.7974343,-55.082264,-77.154579,-178.22614,-77.402435,-170.18144,-27.64139,-101.56396
3595000000,-20.093756,-68.427101,-84.888939,59.219639,-84.627289,62.36969,-17.515306,84.778831
3600000000,-6.9166641,-22.514877,-75.77713,22.732203,-76.723061,9.3278742,-24.650791,154.93411
3605000000,-7.9122639,-86.856789,-77.266586,-130.01613,-80.460594,-138.31209,-29.506672,84.37587
3610000000,-9.6734257,13.035376,-78.768654,56.309086,-79.931778,65.168594,-21.254761,74.917847
3615000000,-6.2140551,-70.264702,-81.996071,21.809971,-82.547775,35.755005,-20.066273,150.97652
3620000000,-17.970634,5.4660349,-75.083267,-120.43915,-76.477249,-138.45386,-22.442274,23.16893
3625000000,-5.2242694,-38.738865,-77.269203,97.780663,-79.201698,84.100479,-17.151329,117.20847
3630000000,-13.58272,-110.63772,-78.983917,93.469421,-78.297234,82.54232,-40.609497,-126.81087
3635000000,-6.8630643,-18.728954,-75.775597,-87.459328,-73.901115,-85.740974,-21.417852,69.171494
3640000000,-9.0039501,-73.730331,-80.543922,166.10115,-82.87838,174.08643,-20.773245,119.07557
3645000000,-12.948685,-13.744822,-78.959366,100.34532,-79.205345,88.241463,-33.338306,-116.55943
3650000000,-5.9897399,-46.05674,-72.897095,-48.965687,-72.535553,-50.535728,-18.141621,70.254257
3655000000,-16.453825,-75.69706,-79.630821,153.5898,-84.186012,177.03412,-23.777451,159.42322
3660000000,-6.6963239,-26.46854,-80.168991,108.30803,-79.61438,111.63396,-24.577137,41.56197
3665000000,-10.324594,-69.756737,-76.065353,-24.078104,-76.785591,-20.684029,-23.122351,83.80867
3670000000,-12.043439,-6.8448739,-79.140091,-168.44057,-78.174477,-134.56039,-22.962973,138.82649
3675000000,-5.2058249,-54.103756,-78.091713,153.79376,-82.559059,150.61977,-23.626482,-6.4882693
3680000000,-24.728981,-34.484543,-85.391792,-40.951641,-86.695053,10.66466,-17.491898,113.74268
3685000000,-5.0457621,-33.572262,-80.11174,-55.747059,-78.24884,-73.011314,-25.977262,-85.913147
3690000000,-11.980581,-87.326797,-76.853668,140.94064,-78.828804,131.15659,-20.690434,60.247337
3695000000,-7.1586785,-2.7149525,-84.410576,166.03777,-79.404129,162.25349,-26.171911,121.58311
3700000000,-6.0813546,-75.812065,-77.926826,-34.745316,-76.135895,-35.283188,-33.688091,-105.41939
3705000000,-11.43097,13.329236,-90.01535,-167.83495,-83.31617,-138.23698,-20.209812,52.736244
3710000000,-5.164824,-51.275124,-77.543709,165.13062,-74.555588,152.87378,-21.222912,166.63509
3715000000,-18.30109,-60.20747,-79.640205,-41.398766,-77.628975,-26.400408,-23.845257,0.74218833
3720000000,-5.2035065,-21.046167,-88.231216,-87.113525,-99.872398,175.67729,-21.459486,113.04994
3725000000,-10.501348,-86.154388,-79.581329,160.83948,-78.819649,170.47389,-30.832912,-143.33667
3730000000,-6.992466,-8.5822763,-77.874344,72.961678,-80.177345,79.862663,-27.865713,2.2278535
3735000000,-6.8265796,-60.820385,-79.175087,0.26018837,-79.221924,-11.387097,-20.059019,116.01184
3740000000,-15.409732,-18.991333,-84.025543,-109.30772,-86.010071,-157.79143,-23.241158,-119.55268
3745000000,-4.7072678,-31.214905,-79.305244,56.97258,-82.245621,73.916008,-22.553581,59.83577
3750000000,-12.614746,-70.944458,-81.519775,3.2187901,-81.67646,-22.370325,-23.228584,160.58142
3755000000,-7.5529137,-14.582983,-84.264107,-83.130905,-84.673546,-88.719421,-32.974167,-118.10911
3760000000,-5.8989949,-54.465794,-74.902473,173.43979,-76.449257,169.74709,-24.774403,68.737793
3765000000,-15.361219,-6.2441959,-77.476662,57.146378,-76.503319,64.281647,-19.512644,-179.42517
3770000000,-4.2399526,-38.182091,-78.508507,-47.780506,-75.676712,-44.579544,-26.490847,-19.262539
3775000000,-14.787469,-54.494324,-77.696129,171.40819,-78.344193,-178.15999,-19.864868,121.7356
3780000000,-5.3732615,-19.522961,-76.747971,51.825802,-80.315765,55.110012,-23.922157,-160.00899
3785000000,-7.0784392,-73.272507,-77.342636,9.381361,-79.914024,-29.612757,-30.152843,23.698553
3790000000,-7.5536118,8.8254194,-78.668007,-156.03027,-78.043388,-159.27551,-18.319321,128.85893
3795000000,-4.0286713,-59.358505,-80.168495,172.52501,-80.6688,153.63036,-21.675411,-129.74527
3800000000,-12.903549,-3.9367402,-78.235397,45.924339,-78.679398,50.200809,-22.129448,82.175873
3805000000,-4.1951098,-33.920948,-84.533463,-69.404579,-82.982811,-62.647816,-19.542515,163.34161
3810000000,-11.58041,-71.862419,-75.26683,-158.95314,-76.638855,-174.82176,-36.098061,160.27428
3815000000,-3.9454794,-13.148791,-89.827812,16.151539,-96.257942,-109.21407,-23.524933,102.987
3820000000,-6.7285557,-70.136986,-76.541847,-16.858561,-74.643471,-13.735962,-18.514999,158.59901
3825000000,-8.081316,-9.3292599,-76.767624,-162.58328,-77.463707,-165.72325,-32.175617,-29.209578
3830000000,-4.7085214,-39.14217,-80.73275,131.43428,-78.983917,131.76408,-15.548565,120.82133
3835000000,-11.157773,-51.046394,-76.245399,28.643316,-75.180046,21.210669,-20.189331,-154.23563
3840000000,-3.8255553,-24.926027,-102.62567,139.72461,-88.217018,-167.37898,-23.379185,86.674088
3845000000,-7.6875277,-65.938507,-81.413528,-122.51862,-84.157166,-108.81398,-19.410179,124.08233
3850000000,-6.715086,-8.8743172,-79.779854,76.7369,-77.756935,66.181114,-21.969147,-170.52267
3855000000,-3.4640439,-50.254478,-85.380661,-71.287148,-83.212364,-58.432522,-19.761908,65.096931
3860000000,-12.464033,-24.283428,-78.77047,-142.10429,-78.526138,-121.41974,-16.269768,151.23883
3865000000,-2.6947258,-33.549984,-80.722717,128.86314,-80.369896,134.01582,-33.320168,52.052799
3870000000,-8.9698181,-67.804863,-82.584885,-0.073157579,-80.410217,-11.99511,-18.206881,109.36864
3875000000,-4.2925882,-11.4562,-79.700539,-80.672455,-78.381454,-80.281616,-19.136702,142.58458
3880000000,-4.0217032,-65.250237,-76.896408,-162.01619,-75.325607,-179.18285,-34.054737,43.346344
3885000000,-7.9308562,0.77054417,-87.746262,32.981297,-81.880486,62.076283,-15.920435,104.66538
3890000000,-1.9343501,-52.304188,-78.456566,-16.711287,-78.67321,-30.703281,-20.855021,-175.80414
3895000000,-13.204762,-45.866936,-77.11924,-126.33463,-77.218117,-114.88962,-19.459751,57.447472
3900000000,-1.9881122,-25.996004,-78.3843,100.12466,-76.397087,100.26485,-16.32947,121.30862
3905000000,-6.0210662,-73.19593,-76.021286,21.59391,-75.956589,13.94835,-28.746342,176.55902
3910000000,-4.6042013,-9.4701309,-81.240662,-119.03341,-77.830482,-96.004074,-16.859955,66.81134
3915000000,-2.9834967,-59.744526,-76.742653,-156.77808,-81.25013,175.55525,-16.915419,141.80487
3920000000,-9.240983,-25.97377,-84.652008,51.817894,-82.947029,43.56258,-26.26988,19.699631
3925000000,-2.2352974,-36.159122,-80.227982,-25.127752,-80.162361,-57.630493,-16.629997,98.162392
3930000000,-7.3291473,-67.455109,-75.807816,-161.36162,-75.223152,-154.47533,-21.8745,132.7325
3935000000,-4.0912194,-22.562836,-75.526299,92.147575,-74.205444,88.828445,-25.26301,27.34738
3940000000,-3.1138122,-55.435463,-77.927177,-12.897567,-77.640312,-20.275963,-14.857272,89.782181
3945000000,-9.6927166,-33.162422,-74.221458,-106.70377,-74.566551,-109.05294,-24.750355,-163.85976
3950000000,-1.0156889,-42.191063,-82.550781,125.59971,-83.117271,104.98936,-15.988684,52.594517
3955000000,-9.5413218,-74.882004,-86.499931,39.000713,-79.429024,53.793976,-18.497671,134.11365
3960000000,-2.3522825,-22.866638,-77.137222,-72.745178,-79.771088,-66.964424,-27.343103,48.505611
3965000000,-2.8755109,-70.269432,-76.084236,175.30121,-76.365417,176.91484,-18.631237,67.709717
3970000000,-7.1646457,-13.527796,-78.596504,103.95061,-75.662399,107.55843,-20.190834,126.62687
3975000000,-0.89972866,-59.635674,-72.383736,-7.3808031,-73.932884,-15.830379,-23.180359,-6.0627875
3980000000,-11.348943,-35.73563,-76.258804,-165.0723,-77.593246,-176.21693,-16.263508,82.387985
3985000000,-1.2092974,-38.641682,-80.451508,169.37862,-79.186104,133.40964,-28.814238,154.53748
3990000000,-5.0261879,-76.974724,-75.298782,2.5676775,-73.877831,6.5530591,-22.368124,33.673203
3995000000,-4.0384502,-23.169109,-77.512344,-106.47769,-76.642372,-93.4869,-17.730751,83.824303
4000000000,-2.6806109,-68.333458,-74.993507,-157.67004,-75.097191,-145.74196,-29.733217,-156.52522
END

