!CSV A.01.01
!Keysight Technologies,N5247A,US56070710,A.10.64.09
!Date: Saturday, November 19, 2022 23:24:28
!Source: Standard

BEGIN CH1_DATA
Freq(Hz),S33(DB),S33(DEG),S34(DB),S34(DEG),S43(DB),S43(DEG),S44(DB),S44(DEG)
3000000000,-12.82,163.00595,-57.798527,-171.1525,-58.026272,-172.21045,-18.159712,-159.11397
3005000000,-13.74724,76.555763,-58.450039,110.10925,-58.24231,106.94946,-17.315857,-153.86752
3010000000,-12.040319,136.42122,-57.704399,-3.5213161,-58.084522,-1.7076031,-15.553541,-166.91083
3015000000,-12.767289,153.77742,-60.660694,-84.602753,-60.539654,-82.778297,-15.870494,-154.81279
3020000000,-18.119202,78.617363,-60.348797,157.08742,-60.335167,159.10683,-16.493011,-174.29173
3025000000,-8.2720003,133.57262,-59.460754,48.146553,-60.048061,47.743694,-14.621489,-161.42021
3030000000,-26.637238,64.345596,-62.838238,-58.555588,-62.220161,-58.575588,-18.592051,-178.95674
3035000000,-12.347067,96.49128,-60.103142,-172.88649,-59.909214,-176.03458,-14.057017,-172.80096
3040000000,-9.3419704,138.86629,-60.768528,97.384773,-61.431248,91.627113,-18.364162,176.99463
3045000000,-26.883444,127.20659,-59.332256,-2.2457349,-59.283936,-1.8197134,-15.561584,176.01344
3050000000,-9.4813204,93.860466,-60.3386,-115.25183,-60.195969,-114.05333,-14.545612,167.93315
3055000000,-10.699243,136.94255,-61.51722,149.36674,-61.744492,154.77205,-15.969645,-174.25395
3060000000,-17.076935,47.040279,-60.020359,38.75008,-60.37035,36.979904,-15.021626,159.11713
3065000000,-7.8779926,114.0154,-63.893597,-68.559212,-64.348351,-70.777794,-15.596169,-174.37869
3070000000,-16.748657,151.22711,-60.563583,160.06422,-60.450214,159.58412,-16.913431,154.56285
3075000000,-10.566861,75.940186,-59.342087,73.640587,-59.934742,72.173805,-16.232449,165.90642
3080000000,-6.9043136,115.66312,-62.4464,-22.383669,-62.555611,-26.635197,-16.376085,156.41197
3085000000,-25.342432,-155.48285,-60.720665,-122.81945,-60.898251,-123.05064,-17.106319,154.48982
3090000000,-7.3477869,84.862617,-62.595753,118.49181,-63.202648,119.98183,-13.976388,149.96104
3095000000,-12.567917,142.32613,-62.206917,18.732288,-62.562813,13.590034,-17.806791,169.75542
3100000000,-13.131771,89.239807,-64.730057,-81.831528,-64.697113,-76.834053,-14.79099,141.76872
3105000000,-8.2030535,85.773079,-61.324215,154.68272,-61.400692,156.6573,-16.732817,169.6169
3110000000,-10.548567,137.23135,-62.099068,70.973236,-61.525017,69.08342,-17.429712,134.8063
3115000000,-11.912813,35.497387,-61.577301,-27.833069,-61.979576,-29.928274,-17.059299,155.2576
3120000000,-7.0529981,109.04465,-63.182358,-119.28735,-63.569359,-117.65903,-16.874496,132.22435
3125000000,-17.151333,123.2644,-64.375053,122.1035,-64.358536,126.72068,-17.403374,149.57356
3130000000,-8.1907663,64.433601,-65.189789,9.5354977,-64.717255,0.77149701,-15.629643,128.62399
3135000000,-8.636591,104.3808,-61.54002,-105.02827,-60.940403,-108.15671,-17.572701,162.49663
3140000000,-17.615582,88.323189,-61.471859,154.50586,-61.145638,157.12109,-16.071394,121.41075
3145000000,-8.7292633,63.042046,-65.190025,52.170597,-65.523483,53.495792,-17.340109,154.57014
3150000000,-8.3290987,121.01254,-63.270096,-62.512775,-63.272594,-57.385494,-18.14422,138.23068
3155000000,-11.425442,54.465385,-64.309006,-153.45619,-63.967472,-156.50861,-19.40221,126.54008
3160000000,-8.0086946,79.065514,-65.761292,89.364227,-65.436302,85.197029,-16.488716,138.93361
3165000000,-12.121149,97.711906,-61.39677,-14.28014,-61.935501,-17.490646,-19.275551,119.15437
3170000000,-12.781416,63.93523,-64.20961,-100.48659,-64.659882,-102.88039,-15.691436,135.86214
3175000000,-8.5682297,91.013039,-62.387749,136.32225,-62.993595,134.57816,-18.030802,141.06406
3180000000,-15.890446,67.269318,-63.581017,38.04084,-64.003242,38.107746,-18.197538,127.90533
3185000000,-6.8306885,57.767555,-67.939926,-56.550617,-66.558464,-57.34153,-16.776724,150.6273
3190000000,-10.35447,86.912155,-63.129097,-171.96294,-62.100098,-167.4111,-20.83761,135.67906
3195000000,-14.544234,52.165356,-65.09787,74.708694,-64.890121,74.024452,-21.559715,126.64268
3200000000,-6.9787431,62.762581,-66.311401,-41.078396,-66.899353,-40.06078,-16.047787,123.63756
3205000000,-9.0805063,111.14299,-60.815556,-151.00743,-61.028572,-154.13902,-24.891237,136.84428
3210000000,-8.6961479,24.037678,-64.651039,132.24074,-64.563248,128.77274,-14.263292,117.4828
3215000000,-8.6737261,70.690948,-67.038124,22.447598,-65.547363,14.446808,-21.532051,141.37833
3220000000,-12.43771,78.542244,-64.037201,-89.336288,-64.477028,-85.900673,-15.753376,129.06886
3225000000,-9.7387943,33.527882,-66.626503,150.35027,-66.211067,153.24146,-19.017864,131.172
3230000000,-7.5127292,76.60199,-62.338829,47.057156,-62.025261,44.627705,-18.000645,145.50533
3235000000,-14.433039,63.311325,-62.806686,-48.240273,-63.18232,-50.673576,-20.418932,113.12528
3240000000,-5.0408745,37.822357,-63.921154,-153.09277,-64.387093,-154.61432,-16.898502,128.42616
3245000000,-13.530621,102.2611,-62.795235,101.08859,-63.273079,98.608635,-20.052368,139.42537
3250000000,-10.427741,37.477448,-63.199692,-11.0021,-64.350296,-14.996675,-17.305046,104.93653
3255000000,-7.5157008,53.947575,-62.049324,-119.66623,-62.013844,-115.88557,-17.64238,139.32005
3260000000,-11.574243,73.246399,-62.662155,141.12178,-63.167557,139.99104,-16.21566,111.36378
3265000000,-7.8334041,18.898552,-61.720787,20.130123,-61.652699,22.335245,-18.418852,139.05554
3270000000,-7.3562937,65.372681,-60.805309,-64.635361,-61.178394,-66.888847,-16.610191,123.17675
3275000000,-16.925652,24.860184,-63.272442,171.28372,-62.745678,179.15025,-21.11298,112.88841
3280000000,-8.1897621,45.071621,-60.902626,73.109901,-60.893806,72.504723,-14.746229,120.06899
3285000000,-8.0830965,62.261929,-61.935642,-30.730429,-62.074791,-31.50103,-20.453335,122.86471
3290000000,-13.365505,-4.168756,-61.041042,-148.52046,-60.85479,-152.70119,-16.037144,109.92804
3295000000,-6.527986,29.541521,-59.719219,118.17371,-59.826138,118.79253,-15.74882,118.26858
3300000000,-11.060741,72.151871,-60.306095,4.9803886,-60.231884,2.8512771,-17.653681,125.16113
3305000000,-9.6868725,4.396183,-59.804371,-98.613411,-59.482376,-96.932983,-16.542469,112.04359
3310000000,-7.4530177,47.667137,-59.591969,157.27702,-59.993652,159.35995,-17.022474,125.80105
3315000000,-12.13201,48.586216,-59.691715,46.093868,-60.116352,46.447395,-19.91226,101.88776
3320000000,-8.8577242,3.5723226,-58.355289,-52.752769,-58.442154,-54.312561,-15.320982,106.93867
3325000000,-8.4728146,40.772274,-59.415497,-159.98065,-59.222073,-157.0675,-19.158846,104.82485
3330000000,-20.042492,-41.18433,-57.801937,89.47699,-57.98595,92.756699,-14.500869,101.27759
3335000000,-4.4837198,23.470444,-58.608627,-3.2371795,-58.512447,-3.0283742,-17.595371,106.64056
3340000000,-11.704098,40.003059,-58.111416,-119.58287,-57.763485,-117.59941,-14.984177,110.40357
3345000000,-12.113612,-0.68905908,-57.432728,138.37469,-57.808685,139.55789,-19.173727,94.213982
3350000000,-5.7787294,12.622069,-57.741806,35.453762,-58.212315,34.708893,-15.087923,111.16936
3355000000,-15.000297,68.749481,-56.519943,-80.0765,-56.692295,-80.717216,-21.770992,80.560081
3360000000,-9.2247562,-12.292911,-56.679161,173.94633,-56.529629,172.44043,-15.148255,95.202385
3365000000,-6.1914558,28.036613,-56.437634,73.127914,-56.77562,74.81118,-19.122936,76.480858
3370000000,-12.969908,1.40522,-56.333206,-34.934895,-56.02457,-33.91785,-15.12461,91.231094
3375000000,-6.9249039,-2.0498993,-56.409279,-143.24501,-56.79002,-143.17416,-16.838688,85.23703
3380000000,-10.874443,41.961086,-55.601215,109.70695,-55.971771,111.53825,-17.469181,98.875854
3385000000,-16.186708,6.27772,-55.918625,1.8157607,-56.040699,2.6587539,-17.678486,75.274658
3390000000,-4.9514313,-2.2169623,-55.351921,-101.75002,-55.250454,-100.36901,-17.249121,87.957535
3395000000,-14.446347,60.564751,-55.398952,153.75586,-55.17194,154.26115,-18.792826,76.976593
3400000000,-7.0609183,-23.965826,-56.084892,47.872147,-55.847061,46.544338,-17.080078,74.36377
3405000000,-9.3690481,-5.7632136,-55.811897,-58.392265,-55.322449,-58.951035,-19.492218,72.602676
3410000000,-11.12835,48.278545,-55.495182,-163.3611,-55.352821,-161.89066,-15.691433,70.582291
3415000000,-5.3510113,-27.09137,-54.991062,89.146751,-54.897854,91.659645,-19.296825,73.279541
3420000000,-8.7955265,37.946217,-54.758682,-18.859596,-54.897549,-19.766148,-16.863319,86.793884
3425000000,-12.464898,-22.835762,-54.538246,-122.46925,-54.671379,-119.88036,-21.362143,47.282238
3430000000,-7.5838389,-19.093073,-55.283447,134.70375,-55.131672,132.6273,-17.529974,84.592278
3435000000,-13.357603,19.941286,-54.920998,27.043764,-55.243046,26.958525,-21.90571,44.487141
3440000000,-11.614723,-28.033005,-55.480549,-77.019386,-55.472595,-76.894638,-20.773411,59.722675
3445000000,-5.9540367,-2.6214042,-55.031364,171.19281,-55.350895,170.41765,-17.030891,54.677456
3450000000,-12.541435,-6.7271628,-54.899113,66.490883,-54.877056,66.835495,-22.636959,67.355934
3455000000,-10.692037,-44.653038,-54.62104,-39.876289,-54.453278,-38.782372,-18.350565,58.601727
3460000000,-8.7431355,9.7940798,-54.391869,-140.33896,-54.400902,-139.95306,-20.424618,72.505592
3465000000,-13.207511,-22.458471,-55.045921,112.70958,-55.360836,113.10752,-25.002802,62.309513
3470000000,-8.2485218,-29.498932,-55.639469,6.1721249,-55.736198,6.0757489,-18.893913,62.869694
3475000000,-8.4660559,5.1244388,-55.188725,-98.151108,-55.319454,-99.547432,-33.652714,92.133667
3480000000,-11.534083,-76.820351,-54.65522,154.04092,-54.63092,150.81392,-20.338362,45.377079
3485000000,-5.2848139,-5.6280599,-55.180317,47.053432,-55.603111,45.130913,-22.100887,39.82626
3490000000,-22.334837,-30.252813,-54.466927,-54.808022,-54.693615,-54.506618,-22.529398,102.78654
3495000000,-9.5415039,-18.291401,-55.136597,-159.11263,-55.354336,-159.04579,-18.331573,17.859797
3500000000,-6.3715148,-28.966354,-56.094658,95.209686,-56.736927,96.103355,-18.669508,110.72406
3505000000,-22.884518,72.800659,-56.264183,-10.690283,-56.076881,-9.547986,-24.443192,20.663231
3510000000,-5.4518108,-43.346714,-56.878201,-119.69155,-56.976513,-119.48769,-22.638668,99.228653
3515000000,-11.028968,12.332681,-56.660236,137.03972,-56.581284,133.82787,-28.28087,51.548252
3520000000,-16.001154,-53.169971,-56.111725,33.303783,-56.039116,34.173443,-27.698956,30.81638
3525000000,-8.1013708,-35.530552,-55.857403,-72.17984,-56.037472,-72.032532,-20.814829,61.440788
3530000000,-9.3570681,-12.810848,-56.809902,-172.50937,-56.691605,-176.17926,-22.837,89.849976
3535000000,-12.396329,-82.785934,-56.941456,72.847778,-56.841034,75.04406,-27.207924,46.724773
3540000000,-7.8979979,-23.304064,-56.617046,-27.606253,-56.444294,-29.00473,-18.338614,98.163589
3545000000,-13.766953,13.980194,-57.266502,-132.98294,-57.428123,-133.37703,-40.805,-126.61752
3550000000,-7.4525609,-56.300846,-57.043495,117.87404,-57.5839,119.23302,-19.99132,84.939911
3555000000,-11.460037,3.1755123,-57.861282,17.421082,-57.981976,15.714802,-41.797813,134.24977
3560000000,-11.810969,-51.69302,-57.343624,-90.257088,-57.315029,-87.63092,-23.118793,88.125679
3565000000,-11.787152,-81.015266,-57.90926,165.10681,-58.485134,164.47517,-25.306923,39.118576
3570000000,-6.1815648,2.3316822,-58.047394,65.846283,-58.523548,67.708199,-22.399893,95.023529
3575000000,-11.981274,-108.52666,-59.226185,-40.870113,-59.378098,-42.911453,-23.07678,62.92831
3580000000,-7.4843755,-27.293087,-59.871376,-145.39398,-60.106567,-144.31622,-21.487041,95.697906
3585000000,-11.24814,-42.447941,-59.170235,110.82816,-59.094292,111.53709,-24.194412,99.174011
3590000000,-18.138987,-123.64006,-59.781055,8.0026531,-60.139179,5.9308081,-29.784792,73.633476
3595000000,-5.1341186,-30.86871,-60.201782,-90.378372,-60.756451,-90.267227,-19.908054,84.798508
3600000000,-37.533813,83.697601,-59.865971,166.07805,-60.51479,166.0106,-35.87949,123.46306
3605000000,-6.2287874,-51.238014,-61.451347,52.43214,-60.924576,56.490559,-21.319872,56.639511
3610000000,-12.287142,-38.10918,-60.337875,-48.44796,-60.31115,-47.660255,-22.118933,84.413277
3615000000,-23.862198,-1.8180047,-61.114113,-148.19028,-61.141567,-144.44193,-24.263187,76.564659
3620000000,-8.1435642,-59.25967,-61.224415,101.93024,-61.032803,103.95129,-21.778841,71.959961
3625000000,-9.8495331,-24.968565,-61.289272,4.076416,-61.751587,7.5219398,-22.812315,98.145729
3630000000,-25.589216,-120.04517,-62.238888,-104.17492,-61.843204,-100.98676,-26.927383,84.776039
3635000000,-5.7502036,-60.691914,-62.820015,159.65675,-62.409004,162.36008,-21.342518,54.215557
3640000000,-16.479658,0.099378109,-61.448433,56.494476,-61.550266,57.587021,-22.653141,141.94991
3645000000,-7.9384899,-71.948273,-62.839886,-49.231449,-62.405113,-52.309689,-18.497458,11.754233
3650000000,-14.90802,-36.880051,-62.524212,-146.44743,-62.058132,-145.39253,-19.719141,109.94945
3655000000,-7.8953023,-16.06918,-61.741135,108.15047,-61.556126,106.47112,-22.44026,20.293406
3660000000,-6.4975996,-94.676659,-61.423573,-0.038031049,-62.150829,0.77116454,-22.662523,92.755547
3665000000,-8.2447739,10.192102,-63.287437,-103.82864,-62.884487,-101.80875,-21.867126,64.27858
3670000000,-10.331914,-105.46999,-60.967163,157.00085,-61.400627,156.41736,-31.361767,124.46095
3675000000,-11.253265,-27.694698,-62.818016,45.529739,-62.42564,41.977684,-22.835356,52.757862
3680000000,-7.5643291,-48.047813,-62.939556,-52.758888,-63.66534,-52.689022,-26.09663,123.27848
3685000000,-14.715517,-114.8558,-63.497055,-159.25529,-63.645348,-159.94441,-24.154604,-29.83704
3690000000,-6.0940619,-42.296577,-64.782127,93.198975,-65.24511,91.206779,-19.948133,70.208885
3695000000,-24.643225,-46.330757,-64.465698,-18.781523,-64.184875,-8.4769268,-30.605616,-29.092041
3700000000,-9.3242245,-69.758904,-63.489235,-126.05463,-63.821968,-126.42668,-21.830435,71.087204
3705000000,-7.7641625,-37.262787,-64.159019,138.85658,-64.872696,139.67227,-24.433094,30.624256
3710000000,-18.409323,-117.27412,-64.038307,39.19371,-63.64698,41.089989,-23.345676,134.63736
3715000000,-6.399425,-58.95435,-65.611946,-69.661186,-65.627594,-70.936951,-20.483337,22.219721
3720000000,-11.668345,-42.671303,-65.761047,177.74658,-65.148094,-177.9848,-21.349905,156.93735
3725000000,-20.526852,-102.72337,-64.875961,89.919464,-64.992722,82.998436,-22.58577,2.4798224
3730000000,-4.5463123,-56.565723,-66.297791,-38.24646,-67.204872,-42.744144,-27.734621,91.829582
3735000000,-25.429779,25.046391,-67.67672,-124.21714,-66.835648,-119.52203,-24.994852,88.168312
3740000000,-7.6954751,-68.449715,-66.760925,126.12189,-67.578636,129.83322,-39.732365,27.330563
3745000000,-8.4365864,-76.834969,-67.244598,23.052538,-67.26799,20.224329,-23.115519,96.872154
3750000000,-11.170351,9.5456047,-69.182938,-53.162342,-67.428108,-62.32896,-30.680775,159.51462
3755000000,-4.5214725,-112.88529,-68.777046,-178.35065,-68.9104,-176.38518,-30.604065,38.90287
3760000000,-6.3240647,-3.0149052,-72.481133,84.593475,-71.993065,94.096809,-22.182102,134.83861
3765000000,-5.1766896,-91.930923,-71.649124,-37.321327,-72.741951,-32.874439,-26.148813,-41.375633
3770000000,-13.508374,-107.26003,-68.860649,-137.63062,-69.313721,-143.12129,-22.245356,102.90599
3775000000,-5.492578,-30.1308,-71.66864,123.15504,-71.837891,125.1971,-27.207918,56.77533
3780000000,-10.010496,-140.32077,-69.719536,19.432772,-68.563049,6.7813072,-24.14279,150.23042
3785000000,-5.2454281,-48.408134,-75.981827,-50.971947,-78.454834,-44.547504,-19.449533,56.484741
3790000000,-10.663965,-76.009277,-74.95977,-165.31117,-80.035141,-149.99687,-17.800627,160.67924
3795000000,-9.932848,-113.98078,-76.516525,72.874512,-77.138115,106.32129,-25.950712,38.729385
3800000000,-7.0882101,-50.46949,-85.406914,155.86234,-82.161591,179.43118,-20.345427,140.16144
3805000000,-13.68014,-71.399162,-73.877861,-139.0826,-72.543922,-122.20613,-43.411072,77.665939
3810000000,-8.8826866,-95.107468,-73.155853,167.44109,-73.408127,143.75653,-22.760685,91.231178
3815000000,-4.5540566,-61.706955,-74.909203,35.121925,-76.004112,44.132877,-23.585857,109.76188
3820000000,-13.516972,174.3195,-76.719482,-58.577492,-76.436798,-71.852417,-24.167953,116.10163
3825000000,-3.559303,-64.671402,-82.19677,-100.68257,-82.189911,-93.885643,-21.362116,72.028625
3830000000,-14.896643,-119.24387,-83.783127,43.813068,-79.64698,9.9566126,-16.260233,131.10269
3835000000,-9.5077896,-60.721569,-92.372032,109.8577,-86.971191,126.48444,-56.912712,-25.443266
3840000000,-4.0793114,-101.46761,-81.540962,70.767601,-83.530396,112.19129,-18.77014,112.19409
3845000000,-14.991044,12.242515,-77.098221,167.91434,-79.590355,167.11946,-30.077198,109.31644
3850000000,-3.5580566,-98.733864,-74.265648,170.87801,-74.577438,176.44765,-23.988031,104.30578
3855000000,-12.003116,-95.291374,-77.768166,141.32814,-80.671959,90.925659,-19.530394,72.83374
3860000000,-9.5095835,-62.321392,-80.108475,-18.646109,-76.361755,-36.557163,-22.286106,136.58836
3865000000,-6.0366192,-110.10891,-76.742584,-119.07375,-74.820488,-100.00329,-16.644926,62.465935
3870000000,-7.7563987,-57.111137,-81.889015,140.32678,-82.765686,147.73048,-17.858387,142.27628
3875000000,-7.0622425,-122.71974,-72.666756,17.361536,-74.314056,10.856707,-20.66329,64.466774
3880000000,-9.971632,-94.160019,-79.602425,-60.297123,-77.450607,-91.095871,-22.232166,120.66816
3885000000,-8.5129061,-59.623257,-73.227859,172.49167,-74.463249,173.58163,-19.328794,86.880501
3890000000,-4.8425798,-118.9712,-70.608337,64.32711,-69.417892,65.059654,-41.976589,162.5045
3895000000,-9.0269098,-89.19603,-72.056236,-8.1170311,-72.20192,-0.23208311,-15.598435,61.411713
3900000000,-8.0125198,-86.719879,-71.522614,-125.73645,-69.22831,-129.21393,-20.770393,126.01657
3905000000,-7.8023434,-118.2172,-71.878944,130.84981,-71.607872,138.29907,-18.625679,43.812817
3910000000,-7.1945534,-59.496262,-72.391006,-10.190442,-74.500023,-8.5843019,-16.686918,107.17585
3915000000,-6.5160365,-133.00287,-68.515564,-86.946762,-68.378662,-77.994843,-23.94301,48.291878
3920000000,-7.0577555,-79.192383,-70.455658,173.79053,-71.235489,170.69508,-19.838345,99.225845
3925000000,-7.5856295,-109.59859,-66.876923,62.944134,-67.249992,70.447433,-19.61257,57.041897
3930000000,-16.036789,-140.33664,-67.339905,-26.201841,-68.316071,-17.992561,-24.747885,150.76666
3935000000,-2.7597182,-96.620346,-70.447182,-148.09061,-70.697281,-134.24644,-14.448892,33.60173
3940000000,-23.850233,-109.31433,-67.281128,126.53626,-67.580322,130.40904,-19.274618,129.22424
3945000000,-4.2107511,-120.83401,-67.843903,8.6552258,-68.216537,18.581543,-17.092785,29.999285
3950000000,-8.6444216,-93.156937,-66.355125,-94.634323,-67.463562,-96.131599,-17.953369,90.01284
3955000000,-11.082335,-108.98033,-66.884727,166.94589,-64.741013,174.0164,-26.341064,85.711754
3960000000,-5.6058483,-128.92122,-65.797844,67.680229,-67.034477,70.542183,-19.401703,39.689014
3965000000,-10.625985,-80.748154,-66.401894,-35.469421,-65.553955,-34.540802,-20.72644,98.333725
3970000000,-7.075048,-134.99211,-67.2146,-137.32722,-66.633789,-141.89473,-25.518511,15.961772
3975000000,-5.0620008,-121.14136,-65.28672,104.69763,-67.236847,107.76885,-18.452091,36.456139
3980000000,-11.23152,-93.719269,-65.333305,10.446638,-64.922279,12.672186,-19.970974,98.020233
3985000000,-6.8060141,-140.83871,-63.821053,-103.89284,-63.684685,-99.49437,-19.505646,7.9102187
3990000000,-9.2382107,-109.15643,-64.283035,161.15092,-64.074013,167.05786,-19.419601,90.923409
3995000000,-8.5087433,-106.30116,-64.066521,62.836647,-64.032524,64.10881,-23.150803,39.412773
4000000000,-3.6462643,-157.09299,-64.03434,-41.991947,-63.274311,-45.451473,-34.257053,25.872728
END

