!CSV A.01.01
!Keysight Technologies,N5247A,US56070710,A.10.64.09
!Date: Thursday, November 10, 2022 00:16:25
!Source: Standard

BEGIN CH1_DATA
Freq(Hz),S33(DB),S33(DEG),S34(DB),S34(DEG),S43(DB),S43(DEG),S44(DB),S44(DEG)
3000000000,5.1705914,16.404013,-59.383064,130.53528,-58.547688,121.58091,-16.005688,-135.03922
3005000000,5.6400714,-81.891296,-68.295166,-173.88802,-68.604057,-177.71794,-15.613935,-134.85556
3010000000,6.7993755,176.62292,-71.248726,144.62923,-71.089172,155.22606,-15.732095,-137.50575
3015000000,6.7287464,99.898521,-63.555248,91.968178,-62.644882,101.43095,-15.876262,-141.81677
3020000000,4.905622,-15.542572,-56.761028,-10.150336,-56.753708,-18.025824,-15.553908,-142.39015
3025000000,6.4650025,-112.34373,-58.952591,-98.13134,-58.805313,-93.045921,-15.278731,-143.33925
3030000000,6.1417022,155.16298,-58.349487,166.67645,-59.29314,169.14877,-15.275182,-147.99747
3035000000,7.2703028,63.149101,-66.073807,116.09731,-63.562431,118.31427,-15.362828,-152.61487
3040000000,3.5176356,-41.480541,-63.043766,100.46721,-63.729958,100.50024,-15.308825,-156.64861
3045000000,6.9635863,-143.66031,-72.085114,-140.10002,-70.729668,-137.63707,-15.05208,-159.93806
3050000000,7.0872173,134.35106,-56.626873,27.60626,-56.38866,37.093204,-15.105572,-159.53709
3055000000,6.0288539,35.215244,-56.460941,-24.753641,-55.151569,-29.246523,-15.481675,-160.18565
3060000000,5.1531191,-68.853638,-57.139824,-112.10842,-57.28801,-112.6815,-15.269342,-165.78708
3065000000,7.0858569,-172.84801,-59.835079,159.49844,-59.849236,160.90393,-14.820554,-169.21402
3070000000,6.9413776,113.20797,-56.976944,124.89023,-56.456257,135.85684,-15.224178,-168.40086
3075000000,5.4472742,3.1193156,-74.374229,-16.235281,-72.212814,-30.004379,-15.86086,-171.28383
3080000000,5.5862198,-97.781906,-64.192589,42.075977,-63.776634,44.210464,-15.854824,-174.76524
3085000000,6.2506533,164.0782,-58.703365,1.4586037,-59.707203,-1.8831713,-15.677328,-174.35071
3090000000,7.7809811,82.626053,-55.890823,-63.136753,-53.866619,-56.478821,-15.913535,-174.2494
3095000000,3.7676389,-25.254343,-54.923603,-134.3772,-55.605053,-140.80005,-15.970627,-178.87851
3100000000,6.3707952,-129.81325,-57.462612,145.07506,-56.897018,142.1707,-16.054968,177.06148
3105000000,7.1909556,142.31465,-60.515598,69.72924,-60.466564,79.210663,-16.249481,175.59735
3110000000,6.7053132,51.478683,-70.617233,29.704048,-68.321259,27.988516,-16.451941,174.69221
3115000000,4.0946741,-51.308495,-58.222263,45.900921,-58.452919,44.869423,-16.497719,174.84837
3120000000,7.1535516,-161.37206,-59.046158,-11.938575,-58.605564,-8.7071018,-16.578737,175.1644
3125000000,6.8226662,122.24076,-58.797443,-81.080536,-58.991909,-73.808495,-16.530468,173.37909
3130000000,6.4677973,19.409277,-57.318459,-156.75374,-56.208378,-160.91747,-16.803009,170.07619
3135000000,4.5850301,-82.801765,-55.738506,130.80443,-55.96452,132.03227,-17.34568,166.78978
3140000000,6.329658,172.41544,-70.258751,38.024288,-71.708069,38.941784,-17.60181,165.22675
3145000000,8.3597775,96.004349,-61.970123,-6.9206424,-60.487576,3.7953897,-17.454811,166.05318
3150000000,4.8441997,-7.7824311,-69.691681,-81.500191,-70.003494,-80.402756,-17.403263,166.97578
3155000000,5.9388013,-113.98315,-64.443108,-57.11623,-63.749889,-57.359287,-17.272793,166.22961
3160000000,6.9729981,149.66313,-59.234745,-112.26887,-59.949989,-110.94843,-17.16658,163.73499
3165000000,8.1223421,67.574631,-57.945385,150.77182,-56.349319,153.282,-17.616911,162.26559
3170000000,4.1574516,-34.862534,-60.772285,102.15751,-61.06559,101.90351,-18.041409,162.44347
3175000000,6.3399677,-145.98019,-58.937794,11.307184,-58.2332,11.328341,-17.979082,164.69295
3180000000,7.0950508,132.15244,-63.782257,-43.573025,-64.172516,-37.062561,-18.028244,166.24599
3185000000,8.126647,32.676212,-70.020523,57.195675,-68.810776,50.112843,-18.271425,166.8093
3190000000,4.2251382,-64.663834,-61.429417,-55.0116,-61.840569,-53.976715,-18.272516,163.00758
3195000000,6.5845208,-178.72375,-60.23732,-157.72774,-60.59222,-165.47552,-18.357399,158.42831
3200000000,8.5076313,105.70931,-67.239609,123.83672,-64.20768,132.0412,-18.394657,156.89799
3205000000,5.6248956,4.3967104,-65.566658,58.935772,-64.449394,47.353062,-18.72098,162.285
3210000000,6.7573299,-91.219513,-61.555717,-37.463501,-61.865707,-33.726112,-18.826918,161.92531
3215000000,8.1547203,156.49547,-64.998962,-112.03687,-65.653091,-111.81356,-18.456553,157.19463
3220000000,10.650992,78.887962,-69.064476,-128.70709,-67.362305,-124.69538,-17.534403,157.86418
3225000000,6.3678145,-23.456758,-63.196342,-125.95435,-63.585579,-136.06247,-17.66855,161.27606
3230000000,8.1506195,-130.48755,-58.791275,169.76071,-58.040249,171.53075,-18.57041,158.25743
3235000000,7.6923122,137.05711,-60.998241,131.18279,-62.145916,138.35931,-18.664127,155.67833
3240000000,10.856673,41.328087,-63.389671,47.166615,-60.891979,40.502434,-17.943548,159.58107
3245000000,6.0961094,-48.207302,-66.717842,3.8859746,-67.39476,6.9542928,-17.903055,161.11111
3250000000,7.7263103,-170.39807,-76.983788,-82.37632,-76.417778,-88.411926,-18.1329,157.7982
3255000000,9.5292597,117.88674,-65.624367,-50.73753,-64.888565,-36.958878,-17.943977,155.38412
3260000000,8.9440527,7.1607237,-67.098671,-141.83887,-65.456551,-160.50346,-17.805067,152.96036
3265000000,7.2543354,-79.099281,-65.047173,150.61852,-65.194664,150.43175,-17.811794,151.22495
3270000000,7.9608951,163.20943,-62.8531,35.750607,-63.338417,39.816212,-17.708757,154.60588
3275000000,11.045992,87.899033,-64.159676,-33.29644,-61.309917,-26.310461,-17.601076,155.77635
3280000000,7.2791319,-17.622948,-80.202034,-32.768223,-82.186417,-59.88522,-17.500004,151.24651
3285000000,7.6713181,-113.69659,-65.302879,-30.241533,-65.037651,-22.853533,-17.183748,148.86502
3290000000,7.3192902,142.21671,-64.013039,-115.66529,-64.960045,-108.99675,-17.190355,149.83437
3295000000,11.984541,45.287701,-61.426914,-175.06741,-57.3307,175.11909,-17.566782,146.57622
3300000000,6.7847972,-39.275284,-63.854607,100.42146,-65.351578,103.03075,-17.724989,144.96072
3305000000,8.2497053,-157.82108,-66.377213,-13.674972,-65.182671,-19.948723,-17.539675,146.73216
3310000000,9.4414835,121.47692,-68.967682,-88.227547,-68.116241,-76.596443,-17.364761,142.64632
3315000000,10.044629,14.955379,-93.176163,92.789497,-82.754646,86.052391,-16.915907,137.58046
3320000000,7.0750442,-61.684109,-63.850456,-57.257469,-64.208618,-54.785618,-17.014557,139.45081
3325000000,7.4381547,170.69234,-58.974495,-134.42268,-59.542767,-137.52028,-17.503384,137.03812
3330000000,10.594752,97.710808,-61.96875,151.97649,-60.512863,160.02553,-17.25983,130.2433
3335000000,8.6248932,-7.8935876,-59.591625,62.954552,-59.798771,46.938797,-16.6926,133.90515
3340000000,8.5714912,-97.181488,-65.522255,-32.743629,-65.381424,-23.739119,-16.915854,137.89925
3345000000,6.8392377,151.88701,-74.240913,138.02666,-75.092155,142.3746,-17.402424,130.42455
3350000000,12.926542,58.671558,-65.348587,39.162567,-60.898495,35.980568,-17.110781,123.92974
3355000000,7.4028583,-28.592762,-65.466446,-72.026398,-66.346237,-71.133713,-16.922356,126.21605
3360000000,8.3747635,-138.63087,-56.914604,-153.62527,-56.635284,-160.09167,-17.484116,125.0462
3365000000,8.9539776,131.54825,-59.146271,89.486794,-59.003227,103.718,-17.917135,120.9123
3370000000,11.328453,24.174273,-59.282318,31.478867,-57.665218,13.812922,-17.720007,119.69644
3375000000,8.3691463,-51.07259,-68.354759,-73.475296,-68.474731,-73.450378,-17.371109,117.2848
3380000000,7.50769,-173.44608,-81.209251,-26.201191,-80.715126,-40.955238,-17.426184,113.91375
3385000000,9.8495855,106.6095,-67.109306,16.030848,-65.865448,33.597702,-17.904196,113.03185
3390000000,9.1717205,-4.0779872,-59.607788,-89.263664,-59.714283,-106.44298,-18.247702,109.36111
3395000000,7.9622316,-81.694679,-57.933086,-171.32813,-58.051422,-164.91821,-18.277477,108.15932
3400000000,6.6079164,159.35374,-57.793587,77.746895,-59.242321,76.264572,-18.395859,110.41829
3405000000,12.321054,70.187149,-61.284809,-5.9447212,-57.785393,-6.4074354,-18.928228,109.0825
3410000000,8.0241089,-23.640432,-61.796829,-72.320526,-63.450592,-77.722565,-19.119423,102.71677
3415000000,9.0671682,-124.42986,-68.146286,169.81065,-67.966133,166.49129,-19.265219,100.36257
3420000000,7.7967677,133.27513,-65.543716,-26.942204,-66.744102,-21.81671,-19.904701,98.789047
3425000000,11.660639,32.339367,-59.82621,-121.80701,-57.376144,-130.53998,-20.645424,94.801163
3430000000,8.1439533,-47.15892,-57.911976,152.91481,-58.986092,151.44179,-20.256317,93.568405
3435000000,8.2405052,-163.49164,-56.242741,57.359287,-56.381237,49.489182,-20.085323,94.237442
3440000000,9.060853,113.63382,-61.55711,-30.190676,-61.067593,-16.480368,-20.698408,92.415192
3445000000,10.394608,1.3136848,-61.916504,-133.93295,-61.569469,-154.69592,-21.033979,89.117401
3450000000,8.7509356,-71.151192,-63.866119,125.49041,-64.8116,130.91679,-20.827911,87.525497
3455000000,7.1989465,165.43613,-66.018745,-39.744236,-66.647591,-43.918919,-21.745827,90.44735
3460000000,11.614417,78.143921,-61.742451,-172.96883,-58.657196,-166.05484,-23.096893,96.007217
3465000000,8.8559828,-20.316338,-57.86974,108.62241,-58.64238,98.072952,-23.495441,92.069542
3470000000,9.3885517,-107.06715,-55.954231,16.368797,-55.629082,14.669343,-23.337305,86.387703
3475000000,7.4599166,143.12471,-58.227268,-66.659393,-58.992458,-61.238235,-24.235767,89.764214
3480000000,11.863698,43.613609,-58.976559,-150.785,-56.61438,-163.43765,-25.230188,87.050789
3485000000,9.0579977,-40.881435,-66.838959,36.361214,-67.525375,28.41028,-24.907759,77.873634
3490000000,8.790494,-145.70183,-64.937737,-74.585403,-64.378204,-77.904755,-25.023838,89.518677
3495000000,8.0234051,122.31257,-57.586769,164.50183,-58.422565,175.43974,-25.572851,104.75447
3500000000,11.133764,8.6911631,-57.776493,91.450523,-56.45631,68.291229,-26.510954,96.377541
3505000000,8.2693615,-61.017265,-55.625225,1.9634781,-57.069542,6.128705,-26.515022,87.248154
3510000000,7.5182691,-179.71133,-57.432331,-118.07449,-57.831108,-124.31142,-26.432068,99.886955
3515000000,10.007186,90.740356,-62.787987,159.60614,-60.325024,165.47409,-26.554655,104.25954
3520000000,9.0685596,-12.941449,-67.895531,3.6901078,-68.250397,-6.9809165,-27.81575,107.82824
3525000000,9.436018,-92.014412,-60.724098,-126.06271,-60.817436,-128.98012,-28.267174,121.63441
3530000000,6.8848367,153.1246,-59.484261,114.86671,-60.727047,117.69656,-28.379005,115.65968
3535000000,11.496003,56.45261,-58.398651,49.707577,-55.354019,47.455643,-27.457148,98.772881
3540000000,8.2194262,-34.145882,-55.358448,-49.930317,-57.225536,-60.165417,-27.202036,110.23988
3545000000,9.2186117,-127.60059,-59.422318,-139.81827,-59.145531,-137.8839,-27.512533,119.58736
3550000000,7.0396624,128.63274,-70.577087,123.6638,-70.990868,124.26373,-27.979387,109.03816
3555000000,10.813892,19.615459,-65.005226,-72.981712,-63.698074,-91.73671,-26.667492,116.04752
3560000000,7.7308927,-54.656746,-60.273682,-162.31329,-61.81686,-163.31506,-25.71331,125.80217
3565000000,7.5814281,-168.91962,-58.309422,108.59315,-58.546505,98.229301,-26.205595,114.00177
3570000000,8.6212292,101.18719,-61.296627,18.943121,-60.370937,31.05937,-25.37627,108.25452
3575000000,9.071867,-8.029829,-63.661758,-107.63905,-64.150536,-121.21963,-24.435452,124.81746
3580000000,8.5311203,-79.105904,-61.694958,171.93143,-62.054268,176.08141,-25.738119,132.63371
3585000000,6.9084167,162.32506,-72.544579,143.02461,-72.837372,127.48309,-27.138903,122.15576
3590000000,9.7896709,73.481361,-67.852852,76.681389,-66.678322,74.356636,-25.439465,119.88992
3595000000,8.4579172,-26.745211,-62.133221,137.14917,-62.80851,127.35748,-25.390717,122.94865
3600000000,9.1060171,-111.18916,-61.852829,44.533703,-61.49157,50.027683,-27.26685,108.62112
3605000000,6.3781652,137.62213,-61.342747,-19.310814,-62.378124,-20.287762,-25.818193,101.45836
3610000000,11.045074,37.018429,-67.533829,-68.055283,-65.716583,-73.180809,-24.563185,108.77668
3615000000,8.1040087,-48.724442,-63.178242,-130.3781,-64.525063,-132.82153,-25.158318,115.61436
3620000000,8.6067381,-152.43954,-73.970932,150.64473,-72.331467,135.70769,-25.14921,111.717
3625000000,7.5641317,113.27774,-64.952927,71.698807,-64.663948,80.805794,-24.638861,110.9395
3630000000,10.312215,5.0548701,-79.515717,129.62103,-79.86306,123.24589,-25.494102,108.61071
3635000000,8.4986382,-66.814041,-71.226204,5.6672268,-71.808029,10.509748,-26.38378,103.58902
3640000000,7.4949899,175.90147,-62.731125,-4.3993297,-63.010937,-14.395637,-26.002533,102.46082
3645000000,9.0662766,90.910706,-69.291641,-32.891438,-67.713066,-27.878363,-26.107742,107.44028
3650000000,9.193141,-19.608192,-60.678226,-138.78081,-61.178532,-151.49585,-26.416285,108.77505
3655000000,8.9884348,-93.656456,-64.768593,109.1697,-65.100922,117.33733,-26.619902,104.33853
3660000000,6.7528682,149.86809,-64.341774,22.402071,-64.644394,18.530333,-27.037996,95.862282
3665000000,10.598525,53.142609,-69.510841,-84.078888,-67.430443,-84.977737,-27.045734,91.671074
3670000000,7.9603171,-39.667049,-73.054184,138.00868,-75.449646,119.12981,-27.083916,96.989304
3675000000,9.3139162,-131.18341,-69.421196,-15.025791,-68.996445,-13.948967,-28.088964,105.25748
3680000000,6.8360438,125.80756,-61.641216,-117.55854,-62.508572,-113.49252,-29.091694,107.58516
3685000000,10.793182,21.573879,-57.67844,169.18695,-56.210812,158.57146,-29.054813,102.71327
3690000000,8.6887093,-60.611549,-57.254505,105.99621,-57.970692,106.99147,-29.062756,100.88914
3695000000,7.8337269,-166.78041,-59.267559,7.5851898,-59.00576,5.8104515,-31.272787,101.22136
3700000000,7.5140958,102.57543,-87.088509,-119.79276,-82.802467,-134.38667,-34.303162,96.1754
3705000000,10.013535,-10.369755,-71.856743,11.837628,-72.489342,-4.381206,-34.042957,86.365364
3710000000,7.9823103,-79.822952,-62.926624,-45.180382,-63.530212,-37.17205,-32.214115,98.122643
3715000000,6.544591,163.34547,-63.637295,-134.25494,-64.576408,-136.15788,-32.091255,109.54067
3720000000,9.288516,69.576004,-58.891705,142.10219,-57.406372,147.36418,-32.999767,111.70657
3725000000,8.2402668,-31.283541,-57.769012,58.062557,-59.076019,48.895428,-33.091003,104.06392
3730000000,9.0675745,-112.24815,-59.192322,-15.72542,-58.604515,-13.368924,-33.200573,117.50241
3735000000,5.9561148,136.78322,-70.976105,-24.728716,-71.412231,-21.132198,-33.947239,135.0381
3740000000,10.03099,39.3391,-70.204117,-5.7682843,-67.743187,-6.2163219,-32.387249,139.85039
3745000000,8.6775618,-49.915207,-60.516045,-59.365929,-61.36834,-62.675266,-29.918076,142.49016
3750000000,8.8020315,-145.71638,-58.22485,-155.8976,-57.607285,-156.81288,-29.753513,157.90474
3755000000,6.327714,115.6529,-59.349705,140.85878,-60.45084,150.98386,-32.162758,164.9763
3760000000,10.405799,2.2696128,-60.826962,50.332203,-59.159771,37.144081,-33.123943,153.93411
3765000000,8.1634369,-68.915001,-71.399788,-43.228168,-72.779213,-40.399849,-31.261139,155.25418
3770000000,7.9006171,179.03416,-80.662292,-108.80215,-82.201012,-105.55394,-30.015274,163.01292
3775000000,8.6161346,87.314148,-73.882561,2.4408863,-72.477089,17.185522,-28.986923,155.19446
3780000000,9.5068407,-25.04159,-62.326164,-97.026604,-62.705051,-115.2817,-27.459169,152.21562
3785000000,9.4150181,-91.962189,-62.488564,-166.8347,-62.964237,-162.05232,-27.00416,157.37775
3790000000,7.0776281,150.56186,-58.55526,91.875099,-59.027023,89.642441,-27.005535,158.42229
3795000000,10.005815,60.237686,-62.989368,52.168762,-61.790722,54.568295,-26.315075,157.88943
3800000000,9.1098623,-44.492447,-61.700596,-21.908815,-62.964836,-32.290371,-25.85795,163.12428
3805000000,9.3672552,-125.0695,-68.222145,-67.581985,-67.661797,-60.37463,-25.371033,161.32211
3810000000,6.3562775,125.22022,-70.313599,-32.584206,-70.943558,-30.690809,-24.557322,156.62294
3815000000,11.148677,17.301157,-60.801182,-91.823982,-58.831608,-109.42572,-25.124258,158.9771
3820000000,8.4817276,-61.580517,-61.988682,156.51776,-63.895924,161.228,-26.917795,154.74261
3825000000,9.0436754,-164.5159,-60.097565,96.667198,-59.451099,90.946693,-25.377995,140.81189
3830000000,6.8508673,99.416702,-65.890747,45.600361,-66.692543,57.228653,-23.614601,143.81636
3835000000,10.433167,-14.448927,-63.919575,-33.516308,-63.315876,-50.979847,-23.847769,151.4057
3840000000,9.0653973,-82.60125,-73.660484,158.82004,-77.256668,152.71886,-24.235659,142.89284
3845000000,7.5854721,165.41315,-76.002594,-91.332687,-74.50219,-83.874847,-23.058464,134.96939
3850000000,8.8534346,74.221153,-67.852013,-122.80762,-67.090759,-112.76337,-22.943312,137.47337
3855000000,9.2749996,-36.762604,-64.107124,128.6369,-65.065956,118.01664,-23.425543,138.88327
3860000000,9.7280254,-107.01937,-66.955872,42.797161,-66.883293,53.176533,-22.876007,133.27728
3865000000,6.1120596,138.39977,-63.632107,-29.24029,-65.011208,-30.16242,-22.277094,133.98256
3870000000,10.237276,39.13073,-63.013279,-90.91703,-60.676785,-92.530792,-22.379333,136.56703
3875000000,8.6790838,-55.883244,-70.578819,-157.29254,-71.417702,-151.45863,-22.463129,132.59206
3880000000,9.9988289,-142.09152,-69.41983,122.59676,-68.53817,130.50441,-22.777872,125.27891
3885000000,5.972661,115.25015,-70.162704,103.42451,-70.749359,108.20224,-23.180319,121.72706
3890000000,10.489189,3.3181868,-66.652794,53.931767,-64.873848,41.725197,-22.462481,119.87665
3895000000,8.4809723,-72.641197,-61.755234,13.687956,-63.298473,17.233879,-21.628923,119.86479
3900000000,9.0030708,-175.47023,-61.720913,-54.506489,-60.787415,-56.549034,-21.888382,120.09895
3905000000,7.8656197,87.824501,-67.28437,-96.312927,-67.386131,-90.908928,-22.143747,119.05067
3910000000,10.111041,-25.285852,-63.825592,-169.86766,-63.233643,176.28221,-21.974937,114.72229
3915000000,10.050145,-94.048004,-66.2715,128.86452,-65.227921,133.99675,-22.434446,111.2455
3920000000,7.0579786,152.35796,-63.864929,95.554688,-64.976044,92.477356,-22.905716,111.61771
3925000000,10.003584,58.509827,-68.56459,68.447861,-66.638489,80.289688,-22.872444,111.26782
3930000000,9.0149012,-49.527794,-62.369984,-17.733786,-63.678497,-29.02367,-22.95763,104.91948
3935000000,10.660734,-127.6488,-64.298958,-60.261551,-63.524906,-60.890903,-23.046131,96.998344
3940000000,6.6655984,127.54377,-61.406277,-129.64912,-62.472549,-125.23719,-22.292879,96.658195
3945000000,10.725986,16.099432,-61.957546,-165.06467,-60.467949,-173.54822,-21.930677,97.637756
3950000000,9.6928196,-66.915833,-62.791798,114.03116,-63.534115,116.02093,-23.181204,98.366638
3955000000,9.9201231,-162.31546,-66.699799,79.975883,-66.088768,86.011803,-24.345316,95.68515
3960000000,6.6521935,103.68031,-64.015388,6.1559696,-64.372978,17.552893,-23.24637,91.16629
3965000000,10.309372,-18.973946,-63.028591,-5.4241381,-62.74078,-20.218298,-22.61515,89.360764
3970000000,9.0860062,-85.301094,-65.991882,-60.3223,-68.929848,-52.108707,-24.035686,89.931572
3975000000,7.8706136,165.67418,-63.660931,-130.98038,-63.747688,-137.48828,-24.744432,83.250687
3980000000,8.5810375,72.083755,-62.762241,156.24135,-61.497189,159.93901,-23.847309,77.992821
3985000000,9.0930891,-41.894402,-64.903999,73.08004,-65.567078,64.053566,-24.351179,80.565353
3990000000,10.598665,-113.58965,-62.845142,23.654974,-63.311302,25.977089,-25.17671,83.778824
3995000000,6.5409021,139.81947,-67.900154,-53.829933,-68.393555,-62.207806,-24.115149,79.549141
4000000000,7.6223483,38.155312,-58.641506,-51.203026,-57.223808,-51.029636,-24.057112,78
END

