!CSV A.01.01
!Keysight Technologies,N5247A,US56070710,A.10.64.09
!Date: Thursday, November 10, 2022 00:16:43
!Source: Standard

BEGIN CH1_DATA
Freq(Hz),S33(DB),S33(DEG),S34(DB),S34(DEG),S43(DB),S43(DEG),S44(DB),S44(DEG)
3000000000,5.1501331,16.434649,-59.455585,130.89085,-59.154667,121.11502,-16.00281,-135.01201
3005000000,5.6176324,-81.934402,-67.094536,-179.56963,-67.924454,-177.82295,-15.608274,-134.86087
3010000000,6.7806797,176.57368,-70.156067,157.75873,-70.524788,162.59784,-15.729627,-137.49026
3015000000,6.7142353,99.875748,-62.883213,91.77253,-62.709381,101.31752,-15.879138,-141.7368
3020000000,4.8871899,-15.522671,-56.830418,-9.9885921,-56.752705,-20.129101,-15.55407,-142.38063
3025000000,6.4401355,-112.39455,-58.951366,-98.163261,-59.091465,-97.535149,-15.278581,-143.35466
3030000000,6.1271887,155.12097,-58.36058,166.26442,-59.484207,167.9641,-15.278855,-147.95087
3035000000,7.2525711,63.118645,-65.814468,117.28965,-63.332024,112.75958,-15.367257,-152.62274
3040000000,3.4961045,-41.465843,-63.329826,102.72056,-64.121826,97.22908,-15.306631,-156.70702
3045000000,6.9416475,-143.70123,-70.698875,-142.07051,-70.948532,-143.78612,-15.0486,-159.95111
3050000000,7.0713782,134.29779,-56.425613,28.257408,-55.908871,37.473053,-15.104919,-159.48315
3055000000,6.0119405,35.230495,-56.591015,-27.462145,-55.148533,-30.255436,-15.473484,-160.19073
3060000000,5.1312709,-68.860786,-57.308655,-112.91547,-57.512917,-112.56126,-15.266323,-165.77786
3065000000,7.0637417,-172.89999,-59.739216,158.06186,-59.786034,161.02971,-14.822611,-169.14139
3070000000,6.9268074,113.16698,-57.257183,125.64548,-56.954159,132.96187,-15.226981,-168.36626
3075000000,5.431231,3.1426082,-75.240822,-27.301413,-73.75177,-42.005455,-15.859927,-171.29115
3080000000,5.5599794,-97.822525,-63.682747,42.549847,-63.462006,45.456078,-15.858124,-174.73215
3085000000,6.2330971,164.04457,-58.334721,-2.6590586,-59.277149,-3.5336835,-15.681409,-174.31252
3090000000,7.7642264,82.576752,-55.502438,-62.500664,-53.713337,-56.379814,-15.908228,-174.30144
3095000000,3.7457221,-25.235565,-54.869766,-135.14034,-55.174141,-139.68565,-15.966236,-178.88171
3100000000,6.3456249,-129.85852,-57.103447,143.59758,-56.901615,139.9673,-16.056034,177.11514
3105000000,7.1743026,142.24506,-60.488228,69.714989,-60.839767,81.129494,-16.245611,175.56348
3110000000,6.6872811,51.47221,-69.440102,35.505661,-68.084068,32.190315,-16.446894,174.66968
3115000000,4.0717201,-51.303833,-58.172791,45.998829,-58.692398,44.652195,-16.498314,174.94026
3120000000,7.12781,-161.43681,-59.335571,-13.42567,-59.184235,-14.876511,-16.582844,175.16537
3125000000,6.8087358,122.18163,-58.555084,-81.482986,-59.274307,-72.491096,-16.528297,173.33833
3130000000,6.4509425,19.415936,-57.252548,-156.48146,-55.86145,-162.14426,-16.80896,170.10172
3135000000,4.5555668,-82.823013,-55.861546,130.70453,-55.969955,132.29471,-17.358122,166.83301
3140000000,6.3079782,172.37921,-69.990341,19.368357,-69.590622,21.055389,-17.590242,165.13084
3145000000,8.3434649,95.923424,-62.666626,-6.6950588,-60.726292,4.8242097,-17.454214,166.07144
3150000000,4.8267784,-7.7520676,-69.915588,-72.165314,-69.026138,-77.559906,-17.400232,167.08752
3155000000,5.9100652,-114.00445,-64.932144,-52.246147,-64.410164,-56.972523,-17.262154,166.19232
3160000000,6.9540629,149.60185,-59.787357,-112.90855,-59.72686,-110.39384,-17.162172,163.75749
3165000000,8.1037235,67.535385,-58.493732,150.09021,-56.309341,154.049,-17.620945,162.38652
3170000000,4.1383324,-34.8307,-60.69212,105.58476,-61.247063,100.64353,-18.040869,162.47122
3175000000,6.3105235,-146.00406,-58.81514,11.951363,-58.744461,10.445582,-17.976725,164.61674
3180000000,7.0796776,132.08569,-63.978401,-43.723709,-63.918949,-37.514687,-18.035667,166.30702
3185000000,8.1103811,32.656277,-71.42321,50.251259,-69.148613,49.957638,-18.269632,166.87032
3190000000,4.2000265,-64.641159,-61.768898,-54.71846,-62.340881,-55.584221,-18.26786,162.88734
3195000000,6.5612869,-178.74582,-61.048759,-156.08298,-61.310852,-162.21089,-18.364094,158.4174
3200000000,8.4893751,105.62796,-67.566948,121.96012,-65.391815,132.77145,-18.399609,157.05702
3205000000,5.6099057,4.4130998,-64.699806,57.121136,-64.941429,49.656792,-18.708864,162.20117
3210000000,6.7334151,-91.217674,-62.16317,-33.126232,-62.15556,-33.704117,-18.83629,161.83643
3215000000,8.1339951,156.4496,-65.374695,-112.44263,-65.890991,-109.70962,-18.463068,157.35274
3220000000,10.632702,78.834885,-68.021309,-130.40097,-65.177406,-124.0917,-17.520189,157.87796
3225000000,6.3545084,-23.441874,-64.087105,-132.33047,-64.482124,-141.16211,-17.669113,161.14337
3230000000,8.1197128,-130.50752,-59.193447,171.35654,-58.649803,171.80992,-18.586288,158.38205
3235000000,7.6755786,137.00676,-61.060303,137.48529,-61.891071,146.89825,-18.648293,155.8114
3240000000,10.838842,41.299763,-63.654224,51.720695,-60.84951,47.754387,-17.931196,159.41327
3245000000,6.0780926,-48.185112,-64.0756,5.7775946,-65.168175,11.966495,-17.922451,161.12929
3250000000,7.7018518,-170.40141,-71.331772,-87.676842,-72.644188,-102.3463,-18.123314,158.04414
3255000000,9.5152044,117.78835,-66.970703,-57.707218,-66.776863,-40.964024,-17.919931,155.24632
3260000000,8.9300957,7.1454072,-68.134438,-154.71484,-68.222908,-166.30733,-17.831045,152.84824
3265000000,7.2356801,-79.101761,-67.524422,159.12163,-67.163223,153.16327,-17.823778,151.51901
3270000000,7.9379034,163.16879,-65.29702,46.67255,-65.875458,47.213768,-17.674173,154.59787
3275000000,11.028214,87.802094,-65.687294,-14.932001,-62.522438,-3.0096099,-17.628248,155.4971
3280000000,7.267592,-17.639421,-72.56617,-20.328285,-72.443085,-42.382442,-17.528198,151.49776
3285000000,7.6447039,-113.72055,-65.259727,-55.482025,-65.578377,-50.69117,-17.1404,149.01538
3290000000,7.3028088,142.16095,-65.368889,-132.97391,-66.403046,-131.8282,-17.192091,149.49551
3295000000,11.963694,45.206821,-64.217979,-168.2574,-59.854137,174.7464,-17.619444,146.68622
3300000000,6.7701674,-39.296276,-68.668259,127.95049,-68.695084,122.27173,-17.683292,145.35541
3305000000,8.223774,-157.82956,-71.413994,1.85817,-70.511566,-12.626809,-17.50482,146.33261
3310000000,9.4227543,121.37309,-71.115669,-39.826229,-70.062416,-23.339767,-17.438166,142.47571
3315000000,10.024408,14.918287,-73.057892,-69.36718,-70.42205,-72.585045,-16.904207,138.09789
3320000000,7.0565095,-61.699154,-65.328529,-93.538612,-65.663338,-88.867653,-16.943172,139.22585
3325000000,7.4125781,170.66429,-62.073593,-141.83131,-62.730259,-146.56177,-17.575535,136.62741
3330000000,10.574249,97.608421,-66.636856,161.36038,-64.844398,174.26831,-17.289671,130.8432
3335000000,8.6076384,-7.9230623,-61.744781,76.381195,-62.708801,62.476322,-16.592541,133.92941
3340000000,8.5420017,-97.203438,-67.788712,18.768122,-67.192802,28.51038,-16.980598,137.32738
3345000000,6.818028,151.86,-72.282143,7.9995332,-73.839836,10.412354,-17.481886,130.99634
3350000000,12.90064,58.598087,-72.84539,13.001166,-67.484749,7.3389668,-17.00255,124.27551
3355000000,7.3862524,-28.588882,-73.47361,-102.59804,-74.274872,-107.63773,-16.934608,125.46048
3360000000,8.3492746,-138.58502,-60.149384,-149.52213,-59.794132,-156.08118,-17.598009,125.4433
3365000000,8.9318504,131.4744,-63.301037,90.826035,-62.699268,104.58788,-17.799185,121.53802
3370000000,11.307708,24.166594,-61.143223,52.315563,-59.498684,32.758919,-17.690044,118.84548
3375000000,8.3533525,-51.060883,-70.053917,-0.75125241,-69.925056,3.1738503,-17.500206,117.36232
3380000000,7.4814138,-173.42107,-66.737938,-51.891487,-67.039238,-56.147915,-17.350988,114.70052
3385000000,9.8293571,106.5248,-90.331917,66.936546,-87.576675,88.911827,-17.831821,112.42216
3390000000,9.1580429,-4.0944152,-63.987114,-99.043449,-64.611221,-117.05565,-18.380032,109.13848
3395000000,7.9443555,-81.68132,-61.059162,-156.48962,-61.513023,-149.6245,-18.242559,108.94503
3400000000,6.5891705,159.35506,-60.776768,92.394173,-62.619064,88.982773,-18.300657,109.9593
3405000000,12.299335,70.102386,-63.668373,18.637693,-60.061356,21.580437,-19.04738,108.72503
3410000000,8.0127859,-23.674358,-60.727444,-38.832905,-62.027042,-46.010086,-19.138506,103.45481
3415000000,9.0496721,-124.4289,-64.136086,-123.27611,-63.372009,-126.94037,-19.149408,100.23911
3420000000,7.7793732,133.20506,-80.893089,-111.00247,-79.366562,-98.018089,-19.967829,98.223587
3425000000,11.640987,32.265579,-66.691185,-118.01212,-64.468613,-126.40975,-20.695196,95.373253
3430000000,8.1340351,-47.204834,-62.255955,167.64043,-63.301807,167.86398,-20.149691,93.631126
3435000000,8.2208824,-163.5164,-58.796421,76.545738,-59.115906,71.231682,-20.129068,93.861664
3440000000,9.0443144,113.52487,-61.774765,12.006892,-61.345715,27.024782,-20.769331,92.829216
3445000000,10.375429,1.2497495,-62.738731,-89.822197,-61.78648,-111.97978,-20.945566,89.259247
3450000000,8.7358656,-71.218636,-61.298092,-175.21248,-62.281181,-171.35645,-20.827797,87.179268
3455000000,7.1795187,165.39729,-74.720573,51.01017,-75.74678,58.805588,-21.815641,90.773148
3460000000,11.590884,78.000031,-71.902496,-177.15717,-68.489342,-179.33138,-23.021229,96.068161
3465000000,8.8370485,-20.371918,-63.524288,127.27368,-64.037102,113.63465,-23.499664,91.582405
3470000000,9.3653736,-107.10978,-58.803379,40.599834,-58.444145,37.568348,-23.417114,86.666878
3475000000,7.4346285,143.04456,-58.610779,-36.141068,-59.661572,-30.454359,-24.144411,90.006592
3480000000,11.835234,43.521275,-58.288605,-120.63464,-56.061073,-131.98241,-25.215599,86.501587
3485000000,9.0406656,-40.936504,-68.643852,162.44312,-69.551094,161.16719,-25.019802,78.077927
3490000000,8.7611341,-145.70752,-69.800186,38.175449,-68.798897,34.76992,-24.946884,89.835999
3495000000,7.9994078,122.23211,-63.945347,177.91727,-64.034729,-170.59674,-25.581182,103.95911
3500000000,11.107888,8.6480894,-61.542156,120.43158,-60.018486,100.57696,-26.630718,96.959793
3505000000,8.2501249,-61.044052,-56.906555,29.736927,-58.370449,33.857639,-26.433516,88.228577
3510000000,7.4934664,-179.68677,-58.416069,-82.356422,-59.198975,-87.980682,-26.398489,98.720001
3515000000,9.9776831,90.634972,-60.491634,-153.75851,-58.577805,-144.63248,-26.73101,104.47898
3520000000,9.047226,-12.960133,-65.246948,127.50166,-66.729645,111.96004,-27.645868,109.02184
3525000000,9.4178095,-92.020821,-74.979012,-28.505365,-74.883804,-40.834843,-28.245199,120.04105
3530000000,6.8623857,153.11751,-72.105209,138.21045,-74.857483,140.86328,-28.666473,115.97159
3535000000,11.465233,56.370975,-61.272568,93.017586,-58.171776,91.204384,-27.367764,100.57133
3540000000,8.2041407,-34.180531,-57.558662,-17.042562,-59.182137,-26.808332,-27.025133,108.89097
3545000000,9.1954508,-127.59937,-57.298077,-95.34494,-56.915154,-91.799332,-27.811651,119.15052
3550000000,7.0201936,128.60175,-60.598152,-167.32733,-60.933865,-158.83147,-27.941017,111.29217
3555000000,10.790954,19.563654,-70.315186,117.02927,-68.146103,94.957359,-26.438181,115.16283
3560000000,7.7179079,-54.697269,-68.241127,-82.693314,-69.654816,-73.433693,-25.983196,124.93654
3565000000,7.5641618,-168.91916,-60.74268,158.54196,-60.612419,150.67813,-26.237343,115.96995
3570000000,8.6002922,101.08857,-60.418041,74.709335,-59.153255,85.440269,-25.090939,108.25422
3575000000,9.0521717,-8.0791702,-62.25304,-9.1797447,-62.45438,-27.688721,-24.63834,123.58393
3580000000,8.5177469,-79.174355,-58.538795,-133.03354,-58.933109,-128.49921,-25.830114,134.67276
3585000000,6.8881197,162.28535,-59.04192,149.41676,-59.185192,148.24756,-26.784239,122.30296
3590000000,9.7678642,73.366516,-58.450504,61.440231,-56.752346,66.586868,-25.531548,118.01392
3595000000,8.4413757,-26.810907,-71.911186,-117.71998,-72.914749,-124.17242,-25.601488,124.40511
3600000000,9.0838099,-111.24889,-64.830933,131.31357,-64.425461,137.08011,-26.984739,109.81919
3605000000,6.3572969,137.55003,-59.206055,27.326914,-60.538612,26.795183,-25.696493,99.58075
3610000000,11.017849,36.887924,-58.657131,-40.503536,-56.635117,-46.453613,-24.832716,109.06959
3615000000,8.0870104,-48.800255,-56.233322,-134.00824,-57.874947,-136.75777,-25.004023,116.86842
3620000000,8.5825243,-152.4521,-59.990108,113.41093,-59.601372,105.97483,-24.974613,110.50553
3625000000,7.5387011,113.1835,-59.187374,30.333311,-59.385365,38.61171,-24.877792,110.6231
3630000000,10.281142,4.9783702,-63.770042,-117.7519,-63.118603,-127.86658,-25.503626,109.92022
3635000000,8.480711,-66.884552,-63.821297,119.86655,-64.951218,124.52494,-26.108957,103.08119
3640000000,7.4681158,175.88968,-57.496899,8.7842207,-57.926575,2.5595744,-26.161736,101.31767
3645000000,9.0387907,90.790123,-60.284359,-64.905106,-59.380611,-52.027454,-26.241756,108.7456
3650000000,9.168395,-19.656563,-56.957779,-158.10915,-57.173653,-170.09732,-26.143038,108.9043
3655000000,8.9653301,-93.694962,-59.860905,88.065895,-59.797611,91.717331,-26.645672,102.85471
3660000000,6.7280927,149.85468,-60.285076,-11.915197,-61.402515,-13.998769,-27.271101,96.536446
3665000000,10.564026,53.044853,-63.563847,-123.32417,-60.810818,-123.17204,-26.868807,92.860146
3670000000,7.9383221,-39.701748,-62.563587,101.71877,-64.790428,96.888481,-26.972652,95.909103
3675000000,9.288744,-131.1873,-61.277775,-12.134291,-61.304119,-14.47941,-28.3454,105.5874
3680000000,6.8112135,125.76533,-58.034599,-120.96103,-58.705677,-116.3948,-29.005346,109.14281
3685000000,10.762825,21.518679,-55.227051,160.22229,-53.911686,150.30655,-28.857361,101.71109
3690000000,8.669673,-60.656307,-56.507744,90.33168,-57.458691,90.841415,-29.283676,100.16959
3695000000,7.8083553,-166.75084,-59.165909,-8.1515379,-59.180332,-14.050116,-31.39604,102.99216
3700000000,7.4888616,102.51019,-67.894966,172.47096,-69.369087,-179.03685,-33.900311,95.712357
3705000000,9.9869776,-10.414041,-66.140785,43.220631,-65.483955,23.0427,-34.083424,84.321114
3710000000,7.9636221,-79.859917,-59.484238,-43.494225,-60.241982,-41.223614,-32.447197,99.521591
3715000000,6.5209584,163.34715,-60.515415,-135.51866,-61.830357,-141.45233,-31.831852,109.74282
3720000000,9.2606354,69.481812,-57.30645,133.56961,-55.659153,140.16745,-32.966438,109.99709
3725000000,8.2209311,-31.312132,-56.520012,47.608788,-57.957985,38.675694,-33.363892,105.0498
3730000000,9.0470314,-112.26387,-59.034985,-28.309277,-58.668041,-26.2463,-33.046429,118.33241
3735000000,5.9280453,136.76843,-80.935341,69.64727,-85.239998,77.307327,-33.933487,133.42084
3740000000,9.9987917,39.247509,-64.874641,12.391088,-63.095352,8.1416588,-32.547318,140.62213
3745000000,8.6584148,-49.97493,-58.426899,-64.726494,-59.601574,-66.250992,-29.859045,143.22655
3750000000,8.7799063,-145.72441,-56.562668,-159.87715,-56.092651,-161.66299,-29.748121,157.04597
3755000000,6.3032837,115.61351,-58.86314,132.32991,-59.935818,141.62291,-32.30204,165.20132
3760000000,10.375357,2.2115743,-60.260033,40.536251,-58.926151,25.455893,-33.090073,154.98677
3765000000,8.1455088,-68.968002,-68.717209,-85.79985,-70.044487,-85.463966,-31.206818,154.64156
3770000000,7.8768921,179.03865,-76.894028,120.99596,-74.321869,113.1676,-30.093792,162.51595
3775000000,8.5888414,87.199944,-67.944321,6.1640863,-67.143311,16.367115,-28.984604,155.74713
3780000000,9.4829702,-25.079628,-59.92564,-95.445717,-60.777203,-112.08111,-27.396273,152.34175
3785000000,9.3977003,-92.018303,-60.637066,-175.08067,-61.036983,-168.28166,-27.038399,157.02895
3790000000,7.0532117,150.5629,-57.826397,88.068657,-58.432884,83.501816,-27.026114,158.66789
3795000000,9.9724379,60.13084,-63.491302,41.182999,-61.387753,43.121326,-26.280758,158.17673
3800000000,9.0880842,-44.541367,-63.077351,-33.48843,-63.968357,-44.184052,-25.877684,162.93013
3805000000,9.3429976,-125.10603,-71.518913,-40.589302,-71.320839,-43.134857,-25.393112,161.25301
3810000000,6.3289423,125.1863,-66.159546,-35.906818,-66.946518,-31.825804,-24.537947,156.8297
3815000000,11.115666,17.231365,-59.578136,-99.704353,-57.897373,-112.84599,-25.114826,158.88788
3820000000,8.462162,-61.621189,-60.406071,153.42677,-62.680122,151.63649,-26.933039,154.48717
3825000000,9.0195389,-164.49132,-60.101864,89.898941,-58.725037,81.565468,-25.359667,140.93115
3830000000,6.8214226,99.355461,-68.098297,35.894123,-68.237167,39.494133,-23.593687,143.9447
3835000000,10.40062,-14.488411,-65.765404,-44.083416,-64.879219,-53.76873,-23.850811,151.3546
3840000000,9.0461349,-82.652763,-71.202782,124.41905,-71.718391,132.83699,-24.238497,142.92793
3845000000,7.5604119,165.44348,-70.596779,-75.015862,-71.008087,-75.104401,-23.052069,135.12819
3850000000,8.8222904,74.12381,-65.974365,-128.26541,-64.870247,-117.78812,-22.955915,137.45457
3855000000,9.2509604,-36.813625,-63.287445,120.4241,-64.198814,108.68864,-23.434114,138.82942
3860000000,9.7070885,-107.05832,-66.127991,33.21611,-65.774918,41.706207,-22.872074,133.37506
3865000000,6.0877399,138.42081,-63.473934,-36.622433,-64.7062,-39.030941,-22.288834,133.98141
3870000000,10.197887,39.034283,-63.667931,-97.322334,-61.371689,-99.561081,-22.384893,136.49957
3875000000,8.6574135,-55.935616,-73.551262,-141.64204,-75.332848,-163.49315,-22.450886,132.65521
3880000000,9.9767065,-142.10703,-74.017868,125.70011,-72.301369,130.98413,-22.787033,125.39595
3885000000,5.9457521,115.22468,-69.519928,113.21758,-70.419601,116.41634,-23.193375,121.66333
3890000000,10.451424,3.2724142,-64.743103,55.222912,-63.026508,46.066986,-22.452951,119.89484
3895000000,8.4620667,-72.695862,-61.356243,13.448044,-62.690578,9.8992043,-21.631895,119.95907
3900000000,8.9783459,-175.45482,-61.66872,-62.150009,-60.872604,-61.864929,-21.90654,120.03295
3905000000,7.8374062,87.775482,-70.082481,-103.05733,-69.573448,-103.47621,-22.139927,118.93996
3910000000,10.081755,-25.345072,-64.512093,-173.37799,-64.841141,176.81551,-21.958502,114.74951
3915000000,10.029634,-94.113152,-65.639221,133.13338,-65.871216,150.51903,-22.447592,111.25527
3920000000,7.0399013,152.37976,-63.430447,106.42915,-64.304695,97.84549,-22.904146,111.57398
3925000000,9.9669666,58.424934,-66.808434,57.84816,-65.113091,69.703247,-22.844063,111.32207
3930000000,8.9917164,-49.554401,-61.915585,-23.849819,-63.364727,-33.316502,-22.966619,105.02201
3935000000,10.638214,-127.68661,-64.817757,-64.741982,-63.696224,-70.213089,-23.067816,96.961037
3940000000,6.6388731,127.52599,-62.119461,-129.78323,-62.840488,-129.57249,-22.277231,96.712601
3945000000,10.689838,16.043486,-62.125523,-160.33101,-60.862881,-170.94075,-21.929758,97.691086
3950000000,9.6747599,-66.986183,-62.071098,122.24987,-63.957874,121.49403,-23.210514,98.31974
3955000000,9.8978987,-162.30974,-65.988037,90.608177,-64.9963,88.072319,-24.330704,95.671555
3960000000,6.6242075,103.65017,-62.821533,9.7936707,-63.524113,16.567362,-23.222622,91.210388
3965000000,10.274351,-19.025751,-63.444622,-10.159503,-63.037998,-24.468227,-22.627129,89.347778
3970000000,9.0656967,-85.371994,-67.686134,-62.030415,-69.522141,-56.493687,-24.039206,89.929199
3975000000,7.8512759,165.69293,-64.250778,-128.1125,-64.723465,-136.85419,-24.716551,83.381691
3980000000,8.5466938,72.0112,-63.259083,155.61931,-61.687054,160.93806,-23.852612,78.014671
3985000000,9.0656013,-41.936905,-64.357895,82.302559,-66.262779,64.023918,-24.374725,80.492744
3990000000,10.577107,-113.65162,-62.912453,29.295311,-62.993378,33.019466,-25.163544,83.853569
3995000000,6.5182242,139.84798,-66.895134,-54.809574,-67.684624,-59.007065,-24.103989,79.580444
4000000000,7.5794115,38.104343,-58.425785,-55.438896,-57.278648,-53.515457,-24.084511,77.813919
END

