!CSV A.01.01
!Keysight Technologies,N5247A,US56070710,A.10.64.09
!Date: Thursday, November 10, 2022 02:09:39
!Source: Standard

BEGIN CH1_DATA
Freq(Hz),S33(DB),S33(DEG),S34(DB),S34(DEG),S43(DB),S43(DEG),S44(DB),S44(DEG)
3000000000,6.0376091,23.472406,-59.683414,72.508186,-59.070465,64.377502,-16.064442,-138.68483
3005000000,5.5844445,-75.759972,-60.886887,-21.926687,-60.845379,-18.591866,-15.649213,-138.33711
3010000000,6.6575203,178.01573,-62.532421,-114.42636,-62.623039,-115.40265,-15.761135,-141.05409
3015000000,7.1718707,103.81045,-66.511673,120.3112,-66.468605,128.22554,-15.867631,-145.08611
3020000000,5.5580211,-9.7877016,-76.836609,22.11264,-77.230591,-0.23118627,-15.607347,-145.27858
3025000000,6.2230744,-106.25468,-80.532288,5.0368509,-78.632439,-2.9844768,-15.40077,-146.65465
3030000000,6.6004467,157.99948,-66.904747,86.770584,-68.201256,90.698257,-15.329469,-151.52892
3035000000,8.3201532,67.391655,-65.866302,-24.119009,-62.936466,-20.760645,-15.432103,-155.66283
3040000000,3.6898594,-32.431545,-63.083954,-110.70712,-63.97049,-117.39322,-15.492658,-160.33035
3045000000,6.9950976,-139.66362,-61.604752,147.02406,-61.425732,145.65047,-15.118689,-164.68076
3050000000,7.4725661,134.17332,-60.945412,49.025566,-61.002094,60.035122,-15.00589,-163.58647
3055000000,6.8889933,40.916039,-61.117157,-32.573174,-59.332722,-35.800423,-15.444776,-163.12451
3060000000,5.1285191,-60.384903,-61.144749,-130.93562,-60.750397,-131.67245,-15.370388,-169.12755
3065000000,6.8241973,-169.29173,-59.304081,144.32788,-59.398792,145.20918,-14.849356,-173.05278
3070000000,7.39222,114.42502,-60.679771,48.293663,-60.269463,59.551983,-15.201441,-171.7854
3075000000,5.9056778,5.0360479,-62.126816,-45.462875,-61.105766,-52.42181,-15.916702,-174.33621
3080000000,4.7345328,-93.737572,-64.065742,-132.93762,-64.055885,-128.92592,-15.989435,-178.26418
3085000000,6.1679816,166.15164,-67.693909,112.9577,-69.966057,114.76204,-15.819408,-178.19283
3090000000,8.339016,85.449089,-76.212067,9.9750233,-75.199982,23.023352,-16.053244,-178.66702
3095000000,4.1099186,-16.933256,-69.83683,148.05559,-69.292274,131.90349,-15.985523,176.13924
3100000000,5.9807634,-126.25222,-66.539421,69.085693,-65.658981,68.506866,-15.919205,172.71048
3105000000,7.0591669,141.00168,-62.186455,-39.37632,-62.726463,-29.817984,-16.155237,172.22591
3110000000,7.632863,56.725624,-62.524883,-128.81453,-60.45105,-130.59393,-16.48941,170.99808
3115000000,4.620153,-42.953781,-59.319057,135.79541,-59.781429,132.34953,-16.480972,170.57425
3120000000,6.4406242,-158.19046,-61.575253,41.600803,-62.092033,44.381271,-16.469933,171.51755
3125000000,7.0067825,124.33161,-61.170044,-47.557899,-61.051567,-39.118855,-16.508852,170.56845
3130000000,7.6062264,21.919992,-62.137058,-146.52121,-60.061775,-154.71989,-16.905169,166.85066
3135000000,4.5263977,-74.398338,-63.262554,125.05391,-63.513687,126.13948,-17.448378,163.0524
3140000000,6.2542777,176.18901,-63.012451,34.70364,-63.818958,30.026779,-17.71604,161.29092
3145000000,8.7491579,97.06176,-66.804169,-61.432968,-65.388428,-44.054115,-17.604725,161.39114
3150000000,5.4767637,-0.77595574,-67.900566,-156.63747,-67.450325,-164.91356,-17.441034,161.83331
3155000000,5.731266,-105.46191,-80.61763,123.20294,-78.280045,120.94541,-17.193291,161.6631
3160000000,6.7057858,150.73849,-76.251602,-129.28024,-78.682655,-128.0804,-17.103317,159.72665
3165000000,8.3859911,72.481873,-75.185623,88.848404,-71.172569,107.02711,-17.574842,158.25072
3170000000,4.6758518,-25.721643,-64.874229,38.748539,-65.211266,34.648285,-18.04357,158.57063
3175000000,5.6213126,-140.39674,-62.708317,-65.324417,-62.695538,-64.188972,-18.039616,160.3363
3180000000,7.0678582,132.87582,-60.832672,-140.35844,-61.694515,-130.97285,-17.981766,161.24716
3185000000,8.9673138,34.744476,-61.574398,124.78373,-59.108326,120.10995,-18.08423,163.10696
3190000000,4.2622404,-54.49102,-60.595924,20.669949,-61.56319,21.420954,-18.315147,160.85873
3195000000,5.9821467,-173.87564,-62.644741,-62.919579,-62.949326,-68.204414,-18.704523,154.2674
3200000000,8.3978653,105.37004,-63.222496,-146.99519,-61.421509,-132.26227,-18.502592,150.54436
3205000000,6.4238443,8.015028,-67.339256,109.03989,-67.124763,98.609055,-18.567852,156.65907
3210000000,6.8685899,-82.901131,-69.82383,21.400118,-69.952362,21.267445,-18.72164,157.64894
3215000000,7.9129291,158.6321,-72.837395,-97.196159,-72.561325,-96.952644,-18.435259,152.72153
3220000000,11.0769,82.885239,-77.618774,142.56091,-78.323967,138.49573,-17.451662,153.4821
3225000000,7.245122,-18.693535,-75.46801,-28.754786,-75.002991,-32.458805,-17.594236,157.20796
3230000000,7.5106297,-122.30283,-73.648331,-121.42105,-72.402,-113.32851,-18.504345,153.94745
3235000000,7.2958689,138.94646,-67.923126,129.63165,-68.764366,146.21933,-18.530695,151.67087
3240000000,11.280825,42.757053,-65.598923,38.7202,-62.940735,30.068922,-17.889521,156.35573
3245000000,6.5804744,-40.591228,-63.082291,-56.62738,-63.823429,-58.436607,-18.006327,157.63126
3250000000,7.705018,-161.40523,-62.182434,-151.67885,-62.346481,-162.72063,-18.222811,153.53418
3255000000,9.1277313,121.35545,-64.649368,110.60169,-64.525368,125.35703,-17.98629,151.09917
3260000000,9.554697,13.317024,-64.584732,36.514252,-62.896576,12.939798,-17.878933,148.30391
3265000000,7.5144482,-69.430161,-66.025406,-50.371555,-65.836533,-50.014721,-17.762785,146.05359
3270000000,7.5839562,167.194,-65.700363,-159.04445,-67.382599,-161.44618,-17.571817,150.25293
3275000000,11.277741,91.370949,-73.369141,110.3293,-72.09819,109.8227,-17.636541,152.12993
3280000000,8.1346664,-13.035734,-80.740547,83.179588,-79.968094,63.934814,-17.6138,146.5386
3285000000,7.3071184,-99.355247,-75.683769,76.50367,-77.988831,85.40918,-17.093836,143.60611
3290000000,7.0798779,146.85794,-70.724228,-2.0969551,-71.143967,-2.9196072,-17.065166,145.27853
3295000000,12.302142,45.426888,-75.26429,-82.565742,-70.529999,-95.806023,-17.480686,142.18912
3300000000,7.14328,-32.853542,-65.530197,-151.16129,-66.871597,-155.55072,-17.511337,140.60799
3305000000,8.5155067,-146.7318,-64.676193,97.529442,-64.172707,90.7668,-17.384943,143.3119
3310000000,9.2270136,124.2029,-64.845299,3.08147,-65.085785,24.393942,-17.475512,139.29953
3315000000,10.655452,18.903591,-64.155975,-74.407394,-62.602646,-94.688629,-16.897764,132.92789
3320000000,7.8985605,-52.226524,-65.478745,-175.11699,-66.63205,-169.26942,-16.797333,135.05196
3325000000,7.5756202,178.29933,-66.471718,92.140106,-67.24472,88.311607,-17.509665,134.28833
3330000000,10.619614,101.37316,-69.596817,1.197004,-66.246536,9.6393833,-17.459246,126.31111
3335000000,9.2361679,-6.4776764,-74.90461,-33.74966,-75.825378,-49.250584,-16.674747,127.77862
3340000000,8.665267,-88.468773,-77.15451,-116.05164,-79.467445,-122.57565,-16.762991,132.27164
3345000000,6.6171393,156.34264,-74.999771,-125.48284,-76.318268,-112.32213,-17.160664,126.93687
3350000000,12.918355,59.314449,-70.096222,152.70363,-65.610886,156.16693,-16.88719,120.46615
3355000000,7.673686,-22.653193,-66.516731,83.719353,-67.790085,75.649246,-16.916269,122.2994
3360000000,8.9670973,-124.54742,-63.403149,-12.887978,-62.239796,-22.491489,-17.511082,121.56503
3365000000,8.4842653,133.86447,-61.807014,-117.10253,-61.608852,-103.68334,-17.690947,116.69284
3370000000,11.277349,24.659143,-61.952679,160.61716,-60.140671,142.34375,-17.683943,115.2914
3375000000,8.6685896,-47.304306,-61.792118,54.365383,-62.356098,53.347881,-17.531088,113.74632
3380000000,7.1339002,-164.08276,-62.369286,-46.092403,-62.875038,-50.226879,-17.259892,108.93778
3385000000,9.0882311,112.49815,-64.712303,-161.34158,-64.754791,-144.73372,-17.610144,107.29579
3390000000,9.5978127,1.3370519,-69.945511,90.932167,-69.801689,76.118248,-18.13666,106.14284
3395000000,8.4861526,-69.1604,-67.051262,-57.268429,-67.643372,-53.362911,-18.037519,104.85983
3400000000,6.8170514,167.85922,-64.062256,165.13965,-65.009056,156.52364,-18.112925,105.34119
3405000000,12.589829,75.039818,-63.532784,49.218994,-59.767536,51.504913,-18.870882,106.03829
3410000000,8.7681322,-19.817476,-59.686058,-51.28175,-61.323067,-59.406532,-19.004187,100.37749
3415000000,10.179614,-114.02458,-58.105587,-157.12073,-56.855743,-162.0899,-18.974714,95.70166
3420000000,7.4687681,138.43138,-58.792713,98.762024,-59.414829,106.61864,-19.867756,95.304947
3425000000,11.771128,37.497234,-59.455864,0.77009791,-57.379906,-7.3105292,-20.77713,92.836967
3430000000,8.8758335,-41.059658,-59.797203,-92.814331,-60.778042,-97.585793,-20.09408,87.586983
3435000000,8.7779484,-152.71674,-61.717567,159.68948,-61.753036,150.74532,-19.869627,87.899933
3440000000,8.5442238,119.06211,-65.189468,46.317398,-65.155617,65.99308,-20.482683,90.168709
3445000000,10.608629,3.7693026,-67.481987,-61.164291,-67.612068,-79.761978,-20.725908,85.599854
3450000000,8.9439983,-64.460083,-67.115318,158.07269,-68.049835,163.21561,-20.575014,81.295464
3455000000,7.094842,174.62691,-64.638153,41.21455,-66.317108,28.857256,-21.422157,87.58741
3460000000,10.919749,84.746536,-63.758957,-70.134552,-61.722015,-65.375786,-22.487579,94.992325
3465000000,9.3059483,-15.235308,-61.215977,-172.19403,-61.831665,175.71054,-23.496492,88.185875
3470000000,10.115636,-98.892014,-59.297626,86.492195,-58.625679,85.973816,-23.743389,82.295166
3475000000,6.8972735,149.02045,-59.669678,-16.946106,-60.508511,-13.453512,-23.980316,85.528854
3480000000,11.658266,48.185307,-60.093525,-106.12337,-57.536858,-114.95155,-24.649258,79.28112
3485000000,9.432373,-38.562683,-59.14473,160.30324,-60.206657,155.0932,-24.694033,72.186295
3490000000,8.9087648,-136.79134,-60.197617,52.65543,-59.696686,52.85244,-24.513363,86.408279
3495000000,7.2977672,127.80199,-62.606224,-43.87291,-63.034225,-33.165474,-24.846617,97.107384
3500000000,10.867086,10.950975,-63.399551,-136.43071,-62.099365,-155.96901,-26.01185,90.682739
3505000000,8.3584156,-57.215378,-65.532005,107.35184,-67.08419,114.30283,-25.859159,87.927361
3510000000,7.8444724,-172.77771,-67.269882,-7.3823385,-68.088562,-17.840219,-25.647837,96.763939
3515000000,9.4085779,95.760574,-68.179573,-138.14603,-66.557304,-126.95054,-26.386257,99.184235
3520000000,9.1908569,-7.3622088,-66.003395,123.63479,-66.298157,106.40926,-27.262312,108.47118
3525000000,9.8278084,-83.81987,-62.67498,10.477797,-62.420868,11.573727,-27.520967,121.17589
3530000000,6.446497,160.12077,-62.337296,-96.198257,-63.655918,-96.941856,-29.324329,111.90665
3535000000,10.995491,62.536736,-62.708733,174.20976,-59.402885,175.33975,-27.99316,92.249863
3540000000,8.7674541,-31.029905,-59.69875,82.554459,-61.380802,73.035614,-26.467138,103.10239
3545000000,9.6587839,-117.33517,-60.370003,-25.61834,-59.424099,-21.69265,-27.353317,111.97768
3550000000,6.370831,138.1468,-60.536831,-119.20537,-61.190205,-115.7562,-28.395065,104.30717
3555000000,10.405294,26.038208,-61.720181,153.92061,-59.630177,138.53314,-26.259075,108.85018
3560000000,7.858953,-49.22131,-60.98867,54.718079,-62.416042,54.908287,-25.443012,116.02032
3565000000,8.3411102,-159.76131,-63.0639,-56.082935,-62.879066,-60.627247,-25.953846,107.22316
3570000000,8.078537,108.36689,-64.684669,-160.31871,-64.117531,-150.51633,-24.378241,103.30444
3575000000,9.212018,-2.0684803,-64.594376,101.24099,-65.228676,87.407875,-23.466537,119.40765
3580000000,8.842967,-71.888672,-63.51564,-20.677872,-64.545998,-15.310506,-25.328037,133.37617
3585000000,6.7727733,172.76323,-64.738632,-140.27281,-65.9244,-145.29375,-27.437527,123.44858
3590000000,9.2483311,81.198799,-62.498615,124.87984,-61.239796,128.47037,-25.6576,112.45588
3595000000,8.7378139,-24.269861,-59.145309,25.322599,-60.369392,12.222227,-25.521179,115.33775
3600000000,9.2669764,-102.69604,-58.198502,-90.11293,-58.112003,-86.832741,-26.853926,103.21008
3605000000,5.9059391,146.36632,-58.284775,171.05998,-59.373795,173.34271,-25.207611,95.467628
3610000000,10.109437,42.538074,-57.23048,76.605576,-55.004517,71.679718,-24.367765,102.72582
3615000000,7.910677,-43.427944,-55.770306,-33.344326,-57.039192,-35.117672,-24.823765,109.31828
3620000000,9.3805485,-140.93719,-56.602161,-137.2417,-56.018608,-142.13585,-24.19486,105.41283
3625000000,6.9388852,122.76669,-58.163235,116.70373,-58.529171,126.83142,-23.826752,108.61591
3630000000,9.8435221,16.210024,-58.199341,18.37294,-56.929871,6.8086252,-25.329403,109.06466
3635000000,8.4829025,-58.013287,-58.953262,-94.992477,-60.258621,-94.348381,-26.462894,99.706665
3640000000,7.4681101,-172.53339,-60.462902,145.47633,-60.75108,135.31039,-25.662334,97.15094
3645000000,8.158309,99.437752,-60.546494,31.07958,-59.809669,43.051498,-25.822485,104.76943
3650000000,9.3569651,-14.200005,-59.420197,-72.847122,-59.36142,-88.182549,-26.4228,105.61118
3655000000,9.1842852,-83.353645,-57.646896,171.87068,-58.226387,176.38757,-26.547293,99.348686
3660000000,6.5244017,161.72705,-57.917183,71.824295,-59.039677,68.678055,-27.076101,91.644112
3665000000,9.2830782,59.569996,-57.148804,-27.072212,-55.188709,-23.718166,-27.226934,83.495461
3670000000,7.6873217,-34.123653,-56.43895,-132.99194,-57.937958,-139.34332,-26.486181,85.544083
3675000000,9.7856922,-120.53003,-56.641499,126.09301,-56.019306,126.07301,-26.632544,97.31163
3680000000,6.4846916,135.62619,-57.354355,24.005585,-58.183094,27.10483,-27.89193,105.78286
3685000000,10.373327,29.887838,-58.203159,-72.893929,-56.714058,-79.486671,-28.711918,100.13756
3690000000,8.7455759,-55.58036,-58.155113,-179.52606,-59.064133,179.726,-28.289017,96.049141
3695000000,8.0044718,-155.40234,-59.251118,69.80899,-58.901951,66.593803,-30.024374,100.17976
3700000000,6.7247248,112.40755,-60.152748,-27.406652,-60.583069,-18.02154,-34.039165,100.29429
3705000000,9.8902273,-3.687623,-60.812832,-141.46849,-60.230614,-154.23177,-34.532742,82.909897
3710000000,8.1923981,-70.801109,-60.092331,103.75291,-61.355267,110.01151,-31.95269,90.136475
3715000000,7.215991,174.63716,-59.642872,-9.0407295,-59.922482,-15.448864,-31.574224,101.44942
3720000000,8.5304699,77.009865,-59.542698,-108.76164,-57.625568,-101.27555,-32.389027,106.40321
3725000000,8.4495335,-25.700983,-56.787479,148.33543,-58.163757,138.13033,-32.57233,98.905075
3730000000,9.9360542,-104.17739,-56.614136,43.975475,-56.310917,47.858459,-33.025345,107.5021
3735000000,5.9738836,148.20349,-56.743099,-54.744392,-57.542786,-56.471889,-33.532356,121.72382
3740000000,9.3774672,48.866081,-57.02282,-151.47301,-55.61544,-152.7968,-31.129841,129.35287
3745000000,8.6361704,-45.430271,-57.66209,103.30986,-58.345558,99.222107,-28.961336,137.70041
3750000000,9.0779381,-135.41768,-57.987118,-0.67502183,-57.40778,-1.9459,-29.548416,156.15492
3755000000,5.7618856,127.64061,-59.458786,-109.01345,-60.532562,-101.53268,-32.559647,159.25969
3760000000,10.193006,12.27012,-60.310238,151.9053,-58.154598,138.48647,-32.711803,142.42702
3765000000,8.1942739,-60.582523,-60.277504,39.284939,-61.628551,41.134033,-30.929701,150.74649
3770000000,8.5622683,-167.87674,-60.239494,-74.751991,-60.021809,-83.919266,-30.609776,160.42102
3775000000,7.6158113,95.849297,-61.091343,179.69138,-60.799988,-168.97914,-29.634968,143.09796
3780000000,9.4875698,-17.908987,-59.376137,76.119492,-59.736008,61.667839,-27.115368,139.49852
3785000000,9.9027929,-83.442635,-58.752636,-33.128323,-59.154884,-27.326729,-26.281643,148.99156
3790000000,7.19839,164.51337,-58.361801,-136.14903,-58.646904,-140.37418,-26.296816,152.24834
3795000000,8.4623795,72.930321,-58.084606,126.53514,-57.12962,132.30771,-25.847878,152.87886
3800000000,8.9088373,-39.260567,-57.05666,25.514688,-57.923801,13.814065,-25.71661,159.9958
3805000000,9.6161909,-116.26115,-56.827431,-75.195107,-56.56015,-71.318588,-25.478739,156.39833
3810000000,6.2546101,137.2386,-58.501842,-176.49597,-59.590683,-172.85538,-24.341784,149.39276
3815000000,10.683961,27.333519,-58.630795,93.298798,-56.512001,82.089592,-24.696926,154.9532
3820000000,8.3425102,-55.380863,-59.16584,-23.389551,-60.976627,-23.673353,-27.158482,153.76697
3825000000,9.7944927,-153.14882,-59.984642,-132.23964,-58.709568,-138.05365,-25.734707,132.07474
3830000000,5.88694,109.69265,-60.951782,123.37992,-61.530773,128.51697,-23.254681,135.0522
3835000000,10.008815,-5.0991659,-59.767323,11.123892,-58.905819,1.0452232,-23.331015,146.79559
3840000000,9.4516106,-76.661194,-59.679749,-98.968254,-60.927982,-91.542664,-24.094887,139.26393
3845000000,8.3250561,176.2775,-59.802231,150.11003,-59.210976,144.84158,-22.924732,129.11052
3850000000,8.0424194,87.03595,-59.361958,58.195454,-58.583012,66.730751,-22.681164,132.85414
3855000000,9.3885527,-30.698057,-58.365715,-48.919716,-58.894753,-61.234325,-23.230988,135.38548
3860000000,10.202461,-98.761543,-56.982662,-157.10098,-57.197006,-150.0063,-22.808332,129.04053
3865000000,6.4630461,150.86333,-58.452534,98.87841,-59.205765,95.367607,-22.414158,129.6176
3870000000,8.998867,50.482849,-58.58268,6.6573448,-56.894909,5.2943983,-22.582994,130.96014
3875000000,8.398407,-51.308361,-58.322071,-99.878242,-59.777672,-108.93113,-22.264917,125.62576
3880000000,10.671118,-133.84549,-58.643501,155.14034,-57.798756,157.31462,-22.508659,120.68421
3885000000,6.0401821,127.35738,-60.921452,59.035519,-61.580589,63.533245,-23.480661,116.63766
3890000000,10.373822,16.020763,-61.170193,-44.604782,-58.584606,-53.188778,-22.330687,110.05623
3895000000,8.8334341,-67.775261,-60.859993,-157.42905,-62.603657,-157.89717,-20.68939,111.99483
3900000000,9.6277857,-167.69441,-61.396191,83.495926,-60.437721,86.181656,-21.002806,118.09587
3905000000,7.1862121,96.984329,-61.060825,-16.742964,-60.731045,-9.6690416,-21.906099,118.86894
3910000000,9.7114935,-20.646227,-59.67112,-125.3506,-59.312965,-137.10588,-21.91885,111.82504
3915000000,10.298656,-88.442894,-59.150654,131.66489,-59.212528,139.24889,-22.413115,108.41742
3920000000,7.9789648,161.44997,-58.676426,30.218847,-59.617226,21.588957,-23.136213,108.79041
3925000000,8.6566315,69.50415,-58.952599,-69.599998,-58.039074,-58.568947,-23.01647,106.29682
3930000000,8.6593847,-44.685013,-59.507309,-168.44051,-60.209774,-179.33153,-23.045527,99.383415
3935000000,11.030761,-122.73486,-58.981178,87.180931,-57.99947,86.786987,-23.235611,90.014656
3940000000,6.6434894,138.68443,-60.487686,-14.987397,-61.300217,-15.679594,-22.002853,88.217979
3945000000,10.110153,31.026108,-60.516434,-110.58436,-58.890442,-118.89339,-21.145079,91.018227
3950000000,9.5629587,-62.059658,-61.221153,138.66962,-62.195557,141.07787,-22.420383,95.35804
3955000000,10.373843,-153.35841,-61.239483,24.660732,-60.476032,23.393261,-23.964584,95.040611
3960000000,6.0898476,116.18243,-63.435284,-80.596153,-64.36647,-72.959229,-23.186789,89.115486
3965000000,9.3269615,-9.8409433,-63.117847,166.13713,-61.801304,152.90125,-22.730745,85.474609
3970000000,8.8766346,-79.550606,-62.361931,53.621483,-63.699116,58.612865,-24.086958,84.573975
3975000000,8.9808474,173.47864,-62.597702,-51.839386,-62.75312,-64.267159,-24.381409,78.528961
3980000000,7.8130479,85.671295,-61.165749,-142.89571,-60.284332,-137.45554,-23.660147,74.668686
3985000000,8.2965288,-33.343483,-59.214634,110.57885,-59.904457,98.057899,-24.592527,75.794754
3990000000,10.298348,-106.05264,-59.309875,8.1580029,-59.23518,16.612547,-25.201162,75.606354
3995000000,6.7129526,150.4919,-59.665188,-91.146141,-60.397579,-93.914642,-23.473379,71.721497
4000000000,6.4650702,50.685074,-58.777721,-177.14153,-57.595066,-175.63696,-23.232418,73.069771
END

