!CSV A.01.01
!Keysight Technologies,N5247A,US56070710,A.10.64.09
!Date: Thursday, November 10, 2022 00:48:46
!Source: Standard

BEGIN CH1_DATA
Freq(Hz),S33(DB),S33(DEG),S34(DB),S34(DEG),S43(DB),S43(DEG),S44(DB),S44(DEG)
3000000000,3.8255336,-0.71905929,-78.082527,100.02564,-75.271996,62.25034,-16.026592,-135.92046
3005000000,8.5052328,-74.414543,-67.895493,-113.2086,-68.022652,-110.48048,-15.630486,-135.38255
3010000000,7.7093062,-155.56288,-84.254524,-175.86926,-84.497719,-169.91736,-15.787357,-138.17841
3015000000,1.8269889,111.53533,-70.369949,-36.639778,-68.882851,-31.016132,-15.891695,-142.6526
3020000000,5.5657744,-30.042915,-71.321114,-125.94904,-71.715767,-134.69167,-15.569199,-142.9207
3025000000,9.2222481,-94.833961,-69.913208,166.24435,-71.007202,172.2697,-15.332134,-143.96935
3030000000,5.8354654,-177.21909,-66.342087,94.67205,-67.38018,96.95755,-15.28883,-148.71883
3035000000,2.4449239,57.30336,-76.366501,-22.741356,-78.321754,-21.903772,-15.377693,-153.03064
3040000000,5.7565808,-49.978401,-81.59156,-68.5868,-82.524879,-61.87965,-15.398318,-157.28267
3045000000,9.5783157,-122.53297,-78.25972,-51.749619,-79.155174,-37.059868,-15.102912,-161.15715
3050000000,4.709249,160.75734,-70.976471,-85.846519,-71.015022,-71.507942,-15.077879,-160.54726
3055000000,2.8809631,19.539789,-69.182594,-86.604767,-69.314682,-98.18618,-15.479857,-160.68506
3060000000,7.985918,-67.048134,-73.860023,-169.94107,-73.158928,-175.30588,-15.341234,-166.47296
3065000000,8.7539434,-145.38835,-66.087074,165.44054,-66.34153,167.40948,-14.859767,-170.16327
3070000000,3.2143507,132.89368,-76.633987,13.244946,-75.60524,28.358154,-15.250856,-169.06992
3075000000,4.9177718,-16.312498,-73.441254,55.090191,-72.305183,56.150146,-15.934525,-171.8416
3080000000,8.6078215,-86.619469,-71.575378,21.410511,-71.835655,25.481119,-15.943455,-175.74867
3085000000,6.7096119,-168.86458,-70.925423,38.381767,-72.037888,41.561462,-15.736229,-175.39157
3090000000,2.5862947,89.646713,-71.444641,-55.274994,-74.143692,-51.796101,-15.976847,-175.41992
3095000000,5.204721,-40.337143,-67.200935,166.90503,-68.392891,155.90396,-15.980306,179.68686
3100000000,9.3495836,-111.57116,-67.487038,163.45618,-67.417839,159.64626,-15.978408,175.97635
3105000000,5.6335311,171.66904,-68.505638,132.5815,-68.86235,145.37502,-16.207685,175.04102
3110000000,1.9981412,44.417805,-81.273605,-91.843002,-77.214851,-76.870705,-16.483639,173.96616
3115000000,6.7363777,-57.623596,-69.583313,80.570457,-72.329735,65.727272,-16.496508,173.81697
3120000000,9.4809551,-134.88277,-78.990189,-53.209995,-78.926575,-34.057003,-16.547901,174.49049
3125000000,4.0275331,147.61255,-79.713463,89.633865,-80.402321,98.760429,-16.561148,173.01091
3130000000,4.0177217,2.3121698,-73.142204,159.9088,-72.86956,156.74423,-16.873667,169.31418
3135000000,7.9910202,-78.8564,-68.740311,57.338249,-68.749947,62.033054,-17.382376,165.86931
3140000000,7.7595124,-161.55769,-67.555298,12.348711,-69.185081,9.7254925,-17.655708,164.32198
3145000000,3.7133405,113.21137,-68.428055,71.069138,-68.902199,73.265762,-17.544376,164.73671
3150000000,4.4841228,-26.584303,-79.993416,177.99065,-80.851837,-172.04166,-17.417503,165.49152
3155000000,9.3200073,-101.13457,-68.201744,39.125149,-67.635612,34.535492,-17.272377,165.18845
3160000000,6.7764082,178.65617,-63.450668,-97.367584,-64.541962,-89.081711,-17.21434,162.75388
3165000000,3.0098138,72.732353,-68.310806,174.12502,-68.057533,173.28842,-17.632219,160.92059
3170000000,5.7395215,-47.949722,-71.958038,168.16064,-71.872108,165.82289,-18.036982,161.38234
3175000000,9.5843506,-124.89397,-66.630692,16.462881,-65.996811,11.498181,-18.015478,163.67674
3180000000,5.5013146,158.41472,-68.285332,-104.50346,-68.706383,-105.47296,-18.045977,164.92831
3185000000,4.2812572,25.770845,-68.782295,77.583557,-67.962791,75.488258,-18.23233,165.86485
3190000000,7.0953374,-68.927109,-66.240982,-36.159603,-66.543503,-33.738773,-18.30707,162.49995
3195000000,8.6757355,-155.75748,-87.195145,15.187358,-85.17733,-29.616062,-18.463976,157.26141
3200000000,4.5537581,127.28143,-67.535133,161.95552,-67.424431,169.33754,-18.409241,155.15875
3205000000,3.5836346,-12.434388,-64.893127,137.68495,-64.337219,134.12682,-18.679111,160.88098
3210000000,9.6673021,-84.363525,-64.670853,-25.748472,-65.985146,-21.578642,-18.827047,160.88852
3215000000,8.8511133,-178.91478,-67.593346,174.15277,-68.73008,170.84308,-18.45599,155.90703
3220000000,6.5743308,92.014816,-67.833405,157.91673,-67.104965,169.56709,-17.504753,156.76466
3225000000,6.3104115,-34.870296,-74.824005,4.473177,-74.949852,-10.432024,-17.677177,160.30746
3230000000,11.174809,-114.96709,-69.710014,39.510765,-69.475014,52.396832,-18.583214,156.84229
3235000000,6.971848,159.40544,-68.767479,152.49944,-69.44928,155.63321,-18.588346,154.45348
3240000000,6.932107,45.036713,-67.801636,24.213751,-66.680901,24.65,-17.912003,159.09959
3245000000,7.4660978,-55.547527,-61.704575,-58.711151,-63.040764,-59.076546,-17.978622,160.53992
3250000000,10.371942,-153.1319,-78.550812,-141.01125,-75.265419,-147.02304,-18.206854,156.67133
3255000000,6.8824553,139.09624,-67.277855,153.17195,-67.858704,161.97064,-17.984137,154.32088
3260000000,6.1993899,6.389698,-71.379242,-34.423309,-69.540543,-41.784752,-17.862663,151.79825
3265000000,9.3767223,-77.547447,-70.915588,-8.931531,-70.928642,-17.835335,-17.82996,149.6675
3270000000,9.077774,-174.36528,-65.048683,97.30777,-65.458664,100.91268,-17.693047,153.40143
3275000000,7.6204438,105.62609,-71.94265,-4.2514477,-71.177849,-0.086874485,-17.642635,154.81136
3280000000,6.4175963,-23.440434,-63.503365,-60.433659,-63.938759,-71.94223,-17.553593,149.74673
3285000000,10.466081,-101.38439,-67.80584,-171.51149,-67.994408,-166.0999,-17.145189,147.20703
3290000000,7.3831286,163.72253,-62.035557,140.2085,-64.078468,140.6866,-17.133244,148.62572
3295000000,8.6762686,55.610191,-74.247803,-13.911058,-71.234055,-25.805511,-17.533728,145.32954
3300000000,7.2427897,-47.199394,-73.267265,-143.17635,-75.627686,-153.84207,-17.62464,143.62637
3305000000,10.97947,-144.2982,-66.189041,110.85699,-66.500237,100.33745,-17.42478,146.13832
3310000000,7.8638968,143.14363,-64.307182,-10.407116,-64.023018,-0.1756424,-17.379692,142.35849
3315000000,7.3824406,19.349546,-65.052025,-34.956886,-64.934296,-49.209557,-16.938025,136.61125
3320000000,8.5863638,-65.041718,-61.699276,-178.1499,-62.359184,-172.04315,-16.957287,138.62746
3325000000,9.4085426,-173.5657,-65.688896,85.774193,-65.639351,82.060478,-17.539577,136.81966
3330000000,7.9472437,114.74296,-68.652588,-25.922838,-67.889183,-15.368675,-17.397991,128.99133
3335000000,6.9972658,-10.084308,-67.171005,-119.78896,-67.623955,-134.05174,-16.711323,132.02411
3340000000,10.613139,-93.808945,-70.202087,89.296379,-68.480545,88.019699,-16.862955,136.5274
3345000000,7.3381896,168.66608,-64.521881,31.752033,-66.627357,27.303301,-17.39397,129.20744
3350000000,9.7452478,72.664406,-65.395317,-124.25545,-62.342144,-120.06571,-17.06245,122.4256
3355000000,6.7371221,-34.080036,-60.942223,134.79132,-61.851421,130.01596,-16.846943,125.21964
3360000000,10.788693,-128.64281,-65.453369,68.952995,-63.927921,62.698685,-17.481588,124.11745
3365000000,7.9045782,153.23859,-63.62466,-72.936607,-64.540504,-60.594715,-17.885834,119.482
3370000000,8.7679949,33.809578,-87.104141,-96.584099,-86.829231,-142.91161,-17.653511,118.73222
3375000000,8.64046,-54.809364,-66.52787,95.775787,-66.821388,96.465782,-17.395367,116.48101
3380000000,9.439209,-157.58464,-60.942436,-80.075844,-61.302544,-85.022926,-17.424749,112.28889
3385000000,7.7626204,127.87172,-67.083069,172.39932,-67.111038,-171.40366,-17.757801,111.60204
3390000000,7.4877529,1.2605487,-62.171284,104.48522,-62.049339,90.075768,-18.145296,108.86436
3395000000,9.2648764,-78.182175,-67.679329,-68.441589,-67.267281,-55.201744,-18.263086,107.27837
3400000000,7.6728883,177.08247,-65.448753,-92.434273,-66.987747,-97.618202,-18.320324,109.19228
3405000000,9.7347183,88.936874,-68.54879,97.161522,-66.306099,103.81902,-18.843637,108.28981
3410000000,7.3852234,-23.49402,-65.656738,7.4013295,-67.962448,0.078318186,-19.081882,101.70242
3415000000,11.259628,-116.42618,-66.039749,-106.16267,-65.610336,-111.33489,-19.132162,99.24353
3420000000,7.2718072,152.76057,-68.062256,166.11395,-68.817673,166.10988,-19.754179,98.555489
3425000000,8.8884706,43.111214,-64.082344,64.644104,-62.001293,59.830551,-20.692837,94.471428
3430000000,8.0070028,-48.763359,-67.841431,-76.571175,-68.783852,-70.609703,-20.276279,91.922798
3435000000,10.088404,-150.74544,-63.273472,-135.95985,-62.842388,-140.13626,-19.942101,92.843193
3440000000,7.6716995,131.44293,-68.411682,62.129185,-69.614563,70.125931,-20.620617,91.972977
3445000000,8.9175053,7.627285,-73.749687,-73.602081,-71.951508,-94.33152,-21.088203,87.99157
3450000000,9.3030901,-69.822754,-60.15136,-159.18536,-60.606583,-151.90504,-20.750992,85.760025
3455000000,8.1056213,-179.23598,-60.125378,91.039101,-61.558281,81.616447,-21.578135,89.376389
3460000000,9.0174379,94.577614,-65.032478,2.4339416,-63.337463,7.5276585,-23.013184,95.282333
3465000000,8.0016298,-17.796013,-64.505432,-111.04803,-65.842232,-118.09582,-23.453524,90.693214
3470000000,10.933758,-101.39538,-64.356537,118.57745,-63.893097,115.35318,-23.257463,85.082199
3475000000,7.4810429,160.27835,-60.514351,30.534321,-61.53339,36.33548,-24.153418,88.138451
3480000000,9.676754,54.907135,-63.045139,-85.800797,-60.32972,-88.363686,-25.048069,84.761497
3485000000,8.7549105,-41.884937,-64.128098,155.28648,-64.789635,155.87312,-24.58449,76.403297
3490000000,10.268834,-134.97322,-59.101795,45.346268,-58.832645,43.7211,-24.758604,88.476181
3495000000,6.7821169,138.35406,-61.3284,-68.328011,-61.714752,-55.80854,-25.392168,103.26363
3500000000,9.19069,15.889602,-63.67598,-140.94983,-61.968761,-157.67743,-26.232353,94.595337
3505000000,8.3806171,-60.43816,-57.734325,96.017776,-59.295528,98.332344,-26.122351,86.648857
3510000000,8.6628122,-165.89142,-63.199047,-27.20891,-63.532318,-37.363964,-26.166864,99.917694
3515000000,7.6100469,106.54824,-57.447136,-125.81384,-56.306732,-117.05188,-26.473833,103.96704
3520000000,7.7073088,-8.9262266,-60.199348,115.83918,-60.300545,105.63842,-27.66045,106.87494
3525000000,10.153843,-86.614388,-60.004559,-0.17235015,-59.008022,1.7018695,-28.118597,121.72002
3530000000,6.9728456,170.53258,-59.428051,-104.75228,-60.501846,-105.46961,-28.637398,116.01266
3535000000,8.6901646,69.892792,-57.681389,157.92047,-55.166714,158.21559,-27.624828,95.759636
3540000000,7.5960712,-32.768524,-56.067123,57.746437,-57.547119,46.975643,-27.127138,107.59154
3545000000,10.120697,-115.47492,-57.810665,-67.391846,-57.379944,-64.293747,-27.548321,118.37072
3550000000,5.9485307,148.66499,-56.202648,176.53944,-57.079311,-178.53386,-28.194923,105.90616
3555000000,8.6622925,31.985687,-57.578007,62.250671,-55.840961,53.47678,-26.605696,111.81268
3560000000,7.7987123,-50.9342,-55.265793,-25.43148,-56.900867,-22.664902,-25.545647,122.6024
3565000000,9.2307148,-153.7175,-57.900902,-134.46727,-57.739258,-142.95161,-25.998217,111.14382
3570000000,6.6177459,118.3025,-56.758595,118.4716,-56.679955,128.94466,-25.024801,105.69334
3575000000,7.6805067,-2.6564901,-56.335438,3.3834691,-56.585533,-11.953476,-24.055117,123.61539
3580000000,9.0109205,-73.919037,-55.659794,-115.40106,-56.220207,-112.50511,-25.589081,133.27861
3585000000,7.4848752,-178.3317,-58.026081,125.02611,-58.366482,121.46992,-27.444324,121.26614
3590000000,7.2470531,87.00518,-57.540051,22.292315,-56.221859,27.906736,-25.477238,116.98143
3595000000,7.7441306,-25.832163,-56.58062,-68.78299,-57.458637,-78.667931,-25.240627,120.75359
3600000000,9.8903522,-102.14575,-55.026482,-178.01688,-54.994579,-171.30861,-27.151197,106.76763
3605000000,5.7474942,156.91907,-58.152382,64.410889,-59.050781,62.905708,-25.580595,99.315094
3610000000,8.1768236,48.519199,-59.447605,-58.01416,-57.574169,-60.470753,-24.325247,107.49553
3615000000,7.6467791,-46.559841,-57.958321,-143.97153,-59.341743,-148.0123,-25.063963,114.3722
3620000000,9.7757273,-138.38298,-59.05291,97.488342,-58.499992,89.532928,-24.973915,109.39476
3625000000,5.8144984,131.01468,-59.54232,8.5529671,-59.717369,17.590235,-24.27663,109.81836
3630000000,8.2722445,13.646204,-59.325012,-105.25854,-58.017307,-114.04741,-25.333902,109.2154
3635000000,8.4462299,-61.851372,-58.300873,137.02898,-59.385696,139.64774,-26.464392,102.60095
3640000000,8.178339,-165.36061,-57.636406,33.805866,-57.446232,27.48461,-25.828403,100.73573
3645000000,6.3605299,106.81108,-62.067822,-57.340435,-61.188877,-47.544266,-25.970791,107.35816
3650000000,8.200491,-13.852226,-62.666332,-177.44669,-62.766659,168.98357,-26.613596,108.10563
3655000000,9.5750914,-83.906891,-62.523159,89.630066,-62.343327,97.259041,-26.690592,101.76913
3660000000,6.8127904,169.96123,-59.852207,-11.961742,-60.817951,-18.353933,-26.997047,94.416405
3665000000,7.6958017,66.123604,-61.775948,-159.36711,-60.007626,-156.58629,-27.230179,88.963791
3670000000,7.4708705,-35.946697,-63.561375,122.90468,-65.035896,115.03996,-27.040756,91.839478
3675000000,10.399606,-116.90232,-61.168659,-20.924095,-60.354103,-20.19166,-27.603361,100.76007
3680000000,5.8487015,146.07227,-64.777512,-101.62982,-65.799553,-100.04673,-28.630646,105.3791
3685000000,8.5792542,32.383923,-60.734932,175.0663,-59.652786,170.42128,-28.7523,99.980598
3690000000,8.6385641,-56.558556,-61.495182,62.278343,-62.248154,61.036915,-28.441389,98.166748
3695000000,8.7808752,-148.49893,-65.051689,-33.69952,-64.131027,-37.389214,-30.498055,101.08299
3700000000,5.4320989,121.29849,-71.35096,172.72862,-72.59964,172.7556,-33.918098,97.152397
3705000000,8.6874008,-1.5138299,-63.913651,88.834496,-62.844334,74.933365,-33.707699,85.065659
3710000000,8.2917776,-71.367424,-64.373581,-1.0703285,-65.004631,4.4462252,-31.846285,98.054184
3715000000,7.2620664,-176.5948,-67.465126,-114.02453,-68.318947,-125.8166,-32.044682,110.51839
3720000000,6.6218591,83.064125,-64.944389,142.07716,-63.346794,150.00525,-33.211933,111.18089
3725000000,7.6073189,-26.568867,-66.874489,92.772339,-68.619751,85.6493,-33.112431,102.10574
3730000000,9.9715538,-99.757591,-68.147453,-92.515892,-67.824188,-90.753609,-33.332539,115.68872
3735000000,5.5260468,160.30247,-72.668121,-169.65497,-72.708382,-169.20985,-34.408695,131.45811
3740000000,7.3067446,52.204002,-73.820824,-17.167496,-73.419098,-11.694522,-32.544441,134.41133
3745000000,8.3146324,-46.232067,-67.019218,-15.438883,-67.665108,-18.087933,-29.835209,139.11156
3750000000,9.5673904,-130.66698,-68.519135,-98.567909,-68.864876,-97.278824,-29.875929,155.92879
3755000000,4.8835835,134.71465,-67.93309,-174.67509,-69.227005,-168.06572,-32.611588,160.93091
3760000000,8.8694487,14.062431,-66.545357,0.27783778,-64.624855,-8.2651882,-32.963661,147.70911
3765000000,8.1895189,-60.643387,-82.642159,54.591526,-80.722977,77.401421,-30.981707,153.0733
3770000000,8.8071213,-159.74309,-70.902977,-91.172668,-69.437599,-93.364388,-30.27442,162.68401
3775000000,6.1350694,102.21488,-73.844543,97.947632,-73.556793,108.74622,-29.431482,151.59303
3780000000,8.7353373,-19.062572,-69.414055,123.55378,-69.51593,107.2169,-27.451002,147.60014
3785000000,9.935895,-81.731018,-66.82299,-141.85507,-67.598328,-136.64661,-26.857609,154.42271
3790000000,7.3060546,172.7619,-73.633202,170.0442,-72.744858,171.38968,-26.976969,156.64735
3795000000,6.9143047,75.217964,-69.323875,120.55208,-67.798035,132.63628,-26.361534,156.05298
3800000000,8.6778212,-37.847477,-67.499023,62.207962,-68.384933,53.601509,-25.959356,161.54329
3805000000,9.958993,-109.53563,-70.761215,-15.856651,-69.773575,-8.618434,-25.572781,159.09399
3810000000,5.5391936,146.26349,-72.533272,-74.074661,-72.88485,-73.071381,-24.546839,153.27844
3815000000,9.411871,30.685314,-74.395309,-46.986588,-71.28701,-59.07135,-24.874382,156.80745
3820000000,8.4990387,-54.241783,-71.339302,-86.123726,-74.847221,-75.995735,-26.890266,154.4968
3825000000,10.305952,-144.30162,-67.016136,-104.98231,-64.82019,-111.53551,-25.482763,138.40387
3830000000,4.8186779,117.78651,-79.525795,3.093749,-83.809624,45.849762,-23.42226,141.60077
3835000000,9.2640371,-4.5734763,-66.889145,36.040615,-66.644012,23.836433,-23.65045,151.16483
3840000000,9.3895655,-72.498329,-70.493492,-75.055534,-71.731133,-74.910408,-24.327736,142.53868
3845000000,8.3571377,-172.07829,-71.557434,-171.52797,-72.406357,-174.27176,-23.061249,133.61539
3850000000,6.1698079,89.123817,-74.916061,62.991959,-73.263168,62.011173,-22.940672,137.0378
3855000000,8.921876,-29.735395,-76.578362,115.46388,-76.588531,102.1272,-23.66151,138.16498
3860000000,10.374928,-93.32618,-68.530113,-167.91127,-68.873138,-167.67206,-23.051649,130.73647
3865000000,6.2320585,159.89662,-63.537453,105.95374,-65.003815,102.01363,-22.327999,131.64705
3870000000,7.9266739,52.230347,-66.550064,4.7656102,-65.774048,8.5691357,-22.512623,134.22235
3875000000,8.6610231,-49.259621,-66.612198,-73.992188,-67.924469,-81.216919,-22.468218,129.17513
3880000000,10.895524,-125.00941,-74.885574,177.36095,-75.741989,-176.17325,-22.540462,122.74737
3885000000,4.7080946,134.63269,-75.22538,151.71086,-75.552994,155.66211,-23.079556,120.05365
3890000000,9.0747204,15.033624,-64.617271,-58.030758,-62.73056,-61.556126,-22.348421,117.0158
3895000000,8.8341408,-64.053101,-66.377136,-173.737,-69.214165,-177.89857,-21.219444,117.8474
3900000000,9.8548403,-154.29459,-66.489189,67.763367,-65.946518,69.4739,-21.532965,120.5985
3905000000,5.6223407,102.4474,-67.430397,-3.8201897,-66.236443,3.5235949,-22.143053,119.73434
3910000000,9.4444351,-19.129305,-66.481392,-81.018898,-66.544502,-91.139259,-21.991806,114.11954
3915000000,10.507505,-82.845284,-70.299454,162.82532,-71.662445,164.35919,-22.467581,111.10757
3920000000,7.7899694,171.0303,-65.942108,33.880642,-66.540146,20.558231,-23.141098,110.75219
3925000000,7.4950604,69.964874,-69.457367,-94.94886,-69.620453,-76.648468,-23.016769,108.67542
3930000000,8.794673,-42.869442,-66.321472,-162.39548,-67.051682,-170.08798,-22.940136,102.57135
3935000000,11.238296,-111.82251,-65.134361,106.10933,-64.517845,104.20514,-23.047413,94.267609
3940000000,5.6866503,147.9301,-74.912964,20.289459,-76.52552,11.361887,-22.092377,93.327919
3945000000,9.0089798,27.850346,-64.340942,-128.79871,-63.198505,-136.25645,-21.54542,95.832283
3950000000,9.8662052,-58.969837,-68.059456,151.89995,-68.736954,145.41527,-22.912411,98.260216
3955000000,10.873731,-142.07701,-70.959824,37.452087,-71.219559,50.793381,-24.274513,95.299049
3960000000,4.826262,122.47446,-67.658478,-71.959061,-68.491791,-69.500259,-23.188404,90.289955
3965000000,9.3273611,-9.4585419,-87.068398,-144.39256,-81.543137,176.99146,-22.605249,88.769142
3970000000,9.3275318,-75.084053,-68.295479,74.518051,-69.660706,82.858276,-24.101837,88.791565
3975000000,8.7953339,-175.57748,-67.13327,-48.043495,-66.790474,-56.49482,-24.744917,81.400284
3980000000,6.3643479,85.371414,-73.307449,-117.45154,-72.03595,-122.91096,-23.825764,76.356689
3985000000,8.7436218,-35.273922,-65.30307,111.70596,-65.9533,104.5756,-24.373497,78.265305
3990000000,10.938625,-98.346588,-68.773087,35.327641,-67.879898,31.280842,-25.092283,80.039474
3995000000,6.3257508,160.42688,-68.065033,-67.930901,-68.594795,-70.96199,-23.750105,76.417511
4000000000,5.1177931,47.918205,-65.129608,-149.32776,-64.516975,-147.72041,-23.566109,76.521271
END

