!CSV A.01.01
!Keysight Technologies,N5247A,US56070710,A.10.64.09
!Date: Thursday, November 10, 2022 00:49:00
!Source: Standard

BEGIN CH1_DATA
Freq(Hz),S33(DB),S33(DEG),S34(DB),S34(DEG),S43(DB),S43(DEG),S44(DB),S44(DEG)
3000000000,3.8068235,-0.72685134,-76.902832,78.384521,-76.733353,72.194809,-16.028404,-135.89818
3005000000,8.5000181,-74.477333,-67.573227,-110.6929,-67.669289,-103.70537,-15.62976,-135.42738
3010000000,7.7077045,-155.60168,-84.340675,-154.56522,-83.697662,-152.58864,-15.786928,-138.20049
3015000000,1.8210315,111.63655,-71.302536,-42.244987,-69.219025,-41.25705,-15.895296,-142.63229
3020000000,5.5543337,-30.085888,-70.989594,-133.90309,-70.396339,-144.10864,-15.571147,-142.95644
3025000000,9.2175236,-94.896622,-69.173874,172.23872,-69.605858,178.3461,-15.330849,-144.01564
3030000000,5.838665,-177.22928,-66.661903,100.30192,-67.343445,94.314621,-15.292364,-148.72
3035000000,2.4251666,57.320122,-77.051178,-3.3716156,-77.39209,12.297997,-15.376285,-153.06143
3040000000,5.7450967,-50.029362,-95.425201,-54.991474,-110.90799,-150.07277,-15.39238,-157.33472
3045000000,9.5772715,-122.59041,-74.610626,-52.286556,-75.025108,-53.544857,-15.103097,-161.15837
3050000000,4.7122722,160.75441,-72.149811,-84.651527,-71.127495,-75.298355,-15.077055,-160.54051
3055000000,2.8606677,19.579433,-69.568092,-84.749619,-69.241112,-93.116936,-15.475332,-160.71776
3060000000,7.9797735,-67.100571,-72.937798,-161.24109,-72.931114,-162.66805,-15.346127,-166.5168
3065000000,8.7500467,-145.42857,-66.274796,171.44386,-66.973953,170.9368,-14.868027,-170.19206
3070000000,3.2120771,132.91832,-75.385536,30.873705,-75.477867,27.312315,-15.250319,-169.09711
3075000000,4.9053607,-16.356268,-73.590324,48.062904,-73.144661,34.005924,-15.935081,-171.90172
3080000000,8.6027527,-86.676498,-70.761703,20.06554,-70.151558,27.45989,-15.946987,-175.77531
3085000000,6.7117276,-168.86998,-72.970039,43.39967,-72.600876,38.414124,-15.738256,-175.40419
3090000000,2.5736129,89.69297,-72.515594,-51.785942,-72.096085,-43.508331,-15.974554,-175.47571
3095000000,5.1926928,-40.401665,-68.476433,164.84805,-69.168167,162.84911,-15.980571,179.63084
3100000000,9.3483601,-111.62395,-67.26403,159.30183,-67.097435,152.20795,-15.978906,175.99425
3105000000,5.6327224,171.66174,-67.524933,137.29214,-67.383499,145.50883,-16.201694,175.0029
3110000000,1.9755623,44.508129,-76.461403,-83.121513,-78.808754,-103.10704,-16.481691,173.9073
3115000000,6.7287126,-57.686665,-72.076782,82.498299,-73.235878,81.811005,-16.498802,173.83058
3120000000,9.4759731,-134.94936,-79.595123,-57.177761,-85.155846,-3.9746268,-16.550116,174.44682
3125000000,4.0288849,147.65236,-83.250763,98.156715,-79.841133,88.841415,-16.558973,172.94836
3130000000,4.000576,2.2710593,-73.584602,163.89792,-73.138603,153.76266,-16.881517,169.31723
3135000000,7.983676,-78.925827,-69.130768,51.134388,-68.585938,61.478397,-17.385603,165.87201
3140000000,7.7600327,-161.57776,-67.214684,19.953474,-67.965485,12.135839,-17.647835,164.22296
3145000000,3.7088745,113.25547,-68.962189,72.464645,-68.452568,70.783684,-17.548626,164.75095
3150000000,4.4664946,-26.612411,-77.488861,-160.19188,-80.011765,-151.70744,-17.420963,165.52084
3155000000,9.3174934,-101.19291,-69.123116,35.223377,-67.820602,35.616436,-17.264093,165.13042
3160000000,6.7779474,178.62555,-63.494549,-90.507225,-64.706581,-89.232315,-17.21249,162.70291
3165000000,2.9969532,72.820358,-68.025673,168.6918,-67.070831,173.97098,-17.640568,160.92609
3170000000,5.7271271,-47.995571,-72.180763,175.01924,-73.016426,173.30058,-18.028246,161.32726
3175000000,9.5793877,-124.95363,-65.98127,7.2220383,-65.725327,11.72635,-18.010254,163.57124
3180000000,5.5046983,158.41484,-66.632553,-110.41444,-67.925652,-100.08333,-18.056454,164.94525
3185000000,4.2690425,25.792933,-69.838905,80.194252,-68.148323,75.054764,-18.225351,165.89304
3190000000,7.0864129,-68.97316,-64.81369,-29.838608,-65.982407,-32.930664,-18.298561,162.39806
3195000000,8.674839,-155.79729,-84.015129,-37.868305,-94.758156,-43.632423,-18.482323,157.20685
3200000000,4.5508456,127.29674,-66.894279,168.74493,-65.746231,175.10657,-18.411432,155.22821
3205000000,3.5632851,-12.442368,-64.630287,130.21393,-65.171127,122.37526,-18.664003,160.75391
3210000000,9.6612463,-84.419312,-64.711533,-26.398045,-65.117142,-21.16135,-18.835665,160.79956
3215000000,8.8487425,-178.94301,-66.48288,173.95331,-67.409912,169.7144,-18.464613,156.01898
3220000000,6.5678759,92.069382,-68.482826,157.19296,-67.073845,165.50244,-17.48823,156.75484
3225000000,6.3001637,-34.878422,-73.522827,6.7347074,-74.286545,-9.1549568,-17.678799,160.15302
3230000000,11.167153,-115.03114,-73.429886,31.162714,-72.616081,52.11594,-18.602833,156.92027
3235000000,6.9714036,159.39177,-67.29274,143.15411,-69.250549,149.33194,-18.574511,154.54872
3240000000,6.9253922,45.032475,-67.150879,21.950342,-65.792694,17.981905,-17.903265,158.883
3245000000,7.4589562,-55.572693,-61.803013,-59.902203,-62.367146,-60.598633,-18.005461,160.52362
3250000000,10.367729,-153.1496,-78.307045,166.23875,-77.416359,172.65807,-18.201611,156.83208
3255000000,6.8765969,139.08231,-67.838196,138.35202,-67.77565,163.77969,-17.960739,154.11481
3260000000,6.1852088,6.3859839,-69.415451,-43.15509,-69.275352,-52.428322,-17.88796,151.62361
3265000000,9.3730507,-77.595528,-72.18708,-1.3600876,-73.416679,4.588903,-17.845627,149.90161
3270000000,9.0739174,-174.38579,-64.122971,96.092636,-64.830513,92.224915,-17.655272,153.31555
3275000000,7.6106243,105.6602,-70.660606,-33.119404,-70.041885,-6.6198978,-17.661259,154.51619
3280000000,6.4073334,-23.465757,-63.67778,-70.921982,-64.691414,-82.033531,-17.583456,149.96518
3285000000,10.459878,-101.43887,-66.870094,172.98499,-67.64666,175.68948,-17.103561,147.32779
3290000000,7.3840828,163.72292,-64.659996,139.35406,-65.295753,141.20157,-17.130756,148.25815
3295000000,8.6674976,55.598419,-76.548744,-69.230789,-74.858459,-52.732204,-17.586462,145.42641
3300000000,7.2330813,-47.24559,-72.094666,175.05406,-72.6605,162.92957,-17.583992,143.98573
3305000000,10.976885,-144.32248,-67.458466,80.290237,-66.818382,78.760193,-17.387163,145.69014
3310000000,7.8602462,143.1377,-64.327965,-30.595877,-64.370026,-13.710499,-17.450523,142.21022
3315000000,7.3666868,19.366634,-70.374466,-36.629139,-69.928711,-47.37812,-16.933746,137.08873
3320000000,8.5817871,-65.092026,-64.482437,173.63939,-65.681923,179.96588,-16.886379,138.36571
3325000000,9.4076309,-173.60172,-71.658508,73.810303,-70.936745,69.212982,-17.612011,136.38179
3330000000,7.9443722,114.79311,-80.753708,-118.45061,-76.719353,-99.383934,-17.439758,129.55388
3335000000,6.9879417,-10.083054,-75.900215,-124.32995,-76.66198,-126.10035,-16.612972,131.98181
3340000000,10.604522,-93.876038,-74.059326,16.010229,-71.486115,15.491576,-16.920601,135.85291
3345000000,7.3383126,168.64363,-73.777985,64.765633,-75.385658,56.347046,-17.471359,129.68976
3350000000,9.7435474,72.647346,-72.023315,-161.09428,-69.603424,-144.90042,-16.955441,122.74618
3355000000,6.7268853,-34.092949,-66.394592,108.88369,-67.223816,106.87075,-16.85387,124.44286
3360000000,10.783244,-128.66373,-71.081375,146.45097,-70.676468,133.40569,-17.591394,124.48893
3365000000,7.9015183,153.20435,-75.612015,-41.17786,-78.013016,-25.544724,-17.778976,120.07321
3370000000,8.7581711,33.817211,-64.938049,3.1979301,-63.733086,-8.6952448,-17.626968,117.81468
3375000000,8.6350451,-54.842476,-69.646103,-166.25327,-70.338165,-163.5703,-17.524616,116.52524
3380000000,9.4317684,-157.59982,-65.6213,-118.062,-66.948906,-121.61899,-17.359968,113.02546
3385000000,7.7581954,127.86983,-72.183403,58.543629,-70.847549,64.515015,-17.685457,110.90784
3390000000,7.4794545,1.254535,-71.446419,129.0668,-71.890678,118.15871,-18.264856,108.58492
3395000000,9.2564096,-78.210281,-66.859917,-156.17516,-66.457489,-150.28366,-18.227316,108.05082
3400000000,7.6707301,177.09256,-68.655067,-12.181435,-71.315559,-18.368402,-18.227221,108.6416
3405000000,9.726613,88.931061,-70.615234,-26.510174,-67.837975,-21.39624,-18.948845,107.86257
3410000000,7.3796177,-23.496763,-73.408096,-101.26222,-75.732254,-99.878883,-19.103289,102.47697
3415000000,11.257376,-116.44384,-72.076355,114.55527,-71.08316,123.57761,-19.024729,99.099403
3420000000,7.2668896,152.75198,-70.857956,-17.035597,-71.570808,-20.518429,-19.812939,97.96582
3425000000,8.8741207,43.105793,-79.193321,147.20998,-81.250565,171.13858,-20.740938,95.071075
3430000000,8.0027895,-48.79567,-67.550873,146.504,-68.709152,152.5977,-20.178976,91.940643
3435000000,10.086318,-150.75436,-65.756264,-45.018341,-65.838051,-54.426548,-19.980698,92.367752
3440000000,7.6683908,131.46008,-66.683929,-74.781136,-66.943253,-63.669605,-20.682453,92.348351
3445000000,8.9091311,7.6098666,-62.013702,171.36366,-61.757969,157.16087,-20.999811,88.100647
3450000000,9.2984514,-69.869446,-67.437935,135.07501,-67.798103,143.49463,-20.7498,85.341858
3455000000,8.1042023,-179.24149,-67.849976,23.714642,-69.706978,14.406593,-21.634172,89.642174
3460000000,9.0084438,94.572891,-71.061905,-153.76947,-67.747543,-149.36838,-22.930918,95.338287
3465000000,7.9933653,-17.801395,-69.063751,94.845169,-69.594994,82.733902,-23.472525,90.227371
3470000000,10.932249,-101.4287,-64.382439,4.1065001,-64.050629,6.9293332,-23.328974,85.309982
3475000000,7.4788413,160.27237,-83.561081,-74.059738,-83.77507,-66.313026,-24.066959,88.375275
3480000000,9.6681833,54.914181,-71.713516,154.52161,-68.811028,150.26183,-25.032749,84.093079
3485000000,8.750351,-41.939434,-65.119987,35.75526,-65.591576,32.234344,-24.680635,76.488914
3490000000,10.264124,-135.00911,-68.816185,-35.981247,-68.197433,-34.217487,-24.675623,88.812431
3495000000,6.7796984,138.35889,-67.167091,-155.21552,-68.589607,-152.35783,-25.40033,102.4143
3500000000,9.1793785,15.866451,-70.383301,50.937096,-69.020752,27.804489,-26.334707,94.968628
3505000000,8.3741083,-60.475021,-71.494049,63.977196,-72.611481,55.008724,-26.018097,87.626625
3510000000,8.6626635,-165.91745,-66.614456,-161.70059,-66.678757,-165.81685,-26.150715,98.741074
3515000000,7.6038527,106.53626,-69.713127,-163.99408,-67.182014,-149.61646,-26.640764,104.07793
3520000000,7.6970067,-8.9269648,-67.168877,23.887983,-68.884155,11.625349,-27.478659,108.0949
3525000000,10.149717,-86.652763,-64.439049,-87.945076,-63.743717,-90.211975,-28.109629,120.23071
3530000000,6.9699187,170.50992,-67.597328,158.97513,-68.373573,158.95688,-28.942831,116.29816
3535000000,8.6821356,69.881027,-68.910706,112.628,-66.296654,112.75708,-27.549162,97.594231
3540000000,7.5914388,-32.799961,-68.459389,32.63134,-69.82505,20.855843,-26.958839,106.19412
3545000000,10.114408,-115.52493,-70.488716,-161.87607,-70.538841,-165.05815,-27.850664,117.7498
3550000000,5.9435506,148.66519,-64.667397,134.63873,-65.431366,137.67076,-28.161184,108.23974
3555000000,8.6484804,31.956974,-63.706375,0.12682153,-62.282898,-10.304466,-26.376932,110.97112
3560000000,7.7922235,-50.959988,-68.22081,-44.395618,-68.842819,-41.935123,-25.79468,121.51746
3565000000,9.2295494,-153.73277,-93.773628,122.194,-84.506966,-133.59303,-26.043726,113.07465
3570000000,6.608386,118.30272,-71.571671,127.44058,-71.331604,134.5224,-24.750261,105.76298
3575000000,7.6681161,-2.6616828,-69.855156,-43.319519,-68.271667,-54.120068,-24.241495,122.26125
3580000000,9.0078278,-73.958565,-65.557442,-150.14151,-65.731186,-144.892,-25.666937,135.21758
3585000000,7.480763,-178.34491,-67.223557,56.264793,-67.748878,50.636318,-27.073765,121.37363
3590000000,7.2363009,87.000313,-68.035751,-17.140329,-66.501282,-13.841825,-25.563953,114.92326
3595000000,7.7384014,-25.865107,-66.796593,-75.334724,-68.527283,-82.120796,-25.453964,122.04871
3600000000,9.8862371,-102.16941,-64.037048,-165.27173,-63.76329,-161.53006,-26.867123,107.994
3605000000,5.7438912,156.94423,-69.214897,51.552723,-69.545601,51.796097,-25.45697,97.410027
3610000000,8.1620073,48.472481,-67.771095,-106.44046,-66.839783,-101.61007,-24.580662,107.65814
3615000000,7.6404157,-46.614174,-68.260422,-171.43808,-70.359467,-171.82643,-24.913015,115.63773
3620000000,9.7779322,-138.41098,-73.726776,68.647255,-72.95993,65.601318,-24.792528,108.14607
3625000000,5.8091521,131.02638,-71.485748,41.490047,-71.93428,48.886444,-24.488321,109.39919
3630000000,8.2550716,13.654438,-72.211983,-119.07955,-70.829124,-125.43796,-25.330675,110.6549
3635000000,8.4429522,-61.916286,-67.949059,110.9062,-68.898186,112.3009,-26.187759,102.08785
3640000000,8.1759596,-165.39227,-65.795151,30.470253,-66.161804,23.3549,-25.96224,99.460617
3645000000,6.3528419,106.82822,-73.038918,26.911125,-71.883492,49.042706,-26.08732,108.69768
3650000000,8.1878757,-13.87052,-79.57238,-9.5749016,-78.095673,-29.451681,-26.332272,108.20395
3655000000,9.5688438,-83.949776,-73.232346,-159.7816,-74.831444,-164.61134,-26.709002,100.1591
3660000000,6.8106389,169.95532,-65.53701,32.690586,-66.893211,32.576702,-27.218494,95.023727
3665000000,7.6838322,66.104446,-76.646492,152.34131,-74.823334,142.93736,-27.075426,90.25853
3670000000,7.4627995,-35.967693,-73.087486,-139.71637,-74.947968,-133.2325,-26.933664,90.586021
3675000000,10.398714,-116.93836,-75.04792,-73.404694,-73.510841,-74.089836,-27.841042,100.84224
3680000000,5.8452253,146.08022,-74.389824,1.6879209,-74.703171,13.387906,-28.543354,106.90397
3685000000,8.5655794,32.359398,-65.531715,-142.45667,-64.815536,-144.96474,-28.567083,98.940811
3690000000,8.6330376,-56.626949,-67.701675,107.71488,-68.169502,114.39677,-28.629435,97.340851
3695000000,8.7759113,-148.52615,-68.299316,30.538214,-67.016846,31.249062,-30.584707,102.83047
3700000000,5.4255972,121.32851,-69.820885,-3.4995694,-70.309052,6.9716301,-33.542198,96.769569
3705000000,8.6738443,-1.5394917,-71.842522,136.15443,-71.284851,120.96169,-33.749275,83.040352
3710000000,8.2859793,-71.393333,-68.327957,62.436974,-70.853897,59.954006,-32.06694,99.502357
3715000000,7.2624564,-176.59911,-70.932594,-19.160419,-72.746994,-31.859438,-31.797729,110.64865
3720000000,6.6075554,83.018738,-67.765602,-171.17029,-66.998817,-161.62958,-33.186935,109.21246
3725000000,7.5981722,-26.609161,-63.666679,140.26826,-64.936226,130.24661,-33.370686,102.82139
3730000000,9.9701109,-99.817215,-74.638855,15.261208,-74.390709,19.914083,-33.152641,116.43128
3735000000,5.5208225,160.33168,-70.982285,-79.805214,-71.118095,-82.316521,-34.360741,129.44302
3740000000,7.2894573,52.193447,-68.701256,-112.33797,-67.215904,-113.1889,-32.727272,134.82039
3745000000,8.3058701,-46.289249,-68.024368,43.578175,-68.778252,38.896957,-29.765888,139.72502
3750000000,9.5620136,-130.71062,-66.853912,-51.326122,-66.419968,-50.418396,-29.856441,155.02414
3755000000,4.8777442,134.75566,-64.048973,-137.46947,-66.390015,-135.21519,-32.755013,161.02046
3760000000,8.8537035,14.033881,-69.758415,45.842968,-69.463753,29.46081,-32.928936,148.62604
3765000000,8.1820269,-60.675339,-68.637512,52.541485,-70.660202,53.654148,-30.908024,152.57425
3770000000,8.8069849,-159.74759,-63.917873,-69.283737,-64.024765,-80.777557,-30.355074,162.44357
3775000000,6.1245093,102.20832,-69.365486,143.54788,-69.478226,158.42281,-29.450212,152.23203
3780000000,8.7236242,-19.092163,-64.313675,107.5578,-65.282799,90.676582,-27.399006,147.61667
3785000000,9.9360685,-81.779594,-68.318077,-101.14064,-69.124336,-87.055084,-26.88254,154.03889
3790000000,7.3013186,172.77156,-67.234535,-159.29236,-67.095688,-167.25081,-27.007591,156.85847
3795000000,6.894547,75.235672,-64.148163,126.68739,-63.287766,132.20044,-26.32605,156.12779
3800000000,8.6677532,-37.898663,-64.167938,45.866867,-65.28521,34.660557,-25.962622,161.21423
3805000000,9.9553432,-109.58717,-67.044563,-48.182861,-67.012184,-44.7229,-25.59796,159.05092
3810000000,5.5351648,146.30048,-72.643021,-133.7261,-74.501785,-122.95705,-24.53651,153.37943
3815000000,9.3994484,30.658052,-71.560646,5.4307599,-71.727936,-4.6160774,-24.848375,156.6366
3820000000,8.4911451,-54.28014,-67.439522,-69.513351,-69.829346,-62.792503,-26.911356,154.38258
3825000000,10.305041,-144.32616,-64.101311,-120.73052,-62.593723,-128.58029,-25.495241,138.4541
3830000000,4.805737,117.8036,-73.069771,72.4786,-73.131256,81.378647,-23.409002,141.56259
3835000000,9.2444029,-4.6109967,-64.402122,24.916956,-63.464355,11.859997,-23.653637,151.06242
3840000000,9.3865929,-72.558823,-66.220734,-89.162857,-67.512329,-88.452843,-24.349495,142.52686
3845000000,8.3559084,-172.07458,-69.211258,167.35051,-68.606209,158.56178,-23.051271,133.61418
3850000000,6.1545663,89.164291,-69.905228,45.175701,-69.26165,53.757324,-22.934965,136.94914
3855000000,8.9081221,-29.769131,-88.85463,-21.546824,-93.259735,-16.577391,-23.667915,138.08472
3860000000,10.37137,-93.387848,-66.112724,-175.76328,-66.162178,-162.74591,-23.044781,130.68834
3865000000,6.2324438,159.89717,-62.639004,101.23939,-63.449364,92.568718,-22.325651,131.59924
3870000000,7.9110317,52.212154,-65.103455,-1.7817379,-63.387695,1.1926806,-22.517775,134.17912
3875000000,8.6513577,-49.295254,-65.20282,-89.490784,-66.694122,-95.178192,-22.466114,129.15367
3880000000,10.89175,-125.04733,-71.757401,153.9823,-72.046471,154.84813,-22.538082,122.71159
3885000000,4.7001848,134.64877,-77.649124,124.93851,-78.437187,125.26042,-23.086979,120.00784
3890000000,9.0554428,14.988647,-63.374157,-58.544632,-62.490677,-65.863945,-22.34281,116.96522
3895000000,8.8302679,-64.106499,-64.882393,179.98729,-66.562798,177.4035,-21.213596,117.7599
3900000000,9.8526735,-154.30722,-65.4356,63.026501,-63.86285,66.262611,-21.528488,120.53082
3905000000,5.6102257,102.49792,-65.294228,-7.3055158,-65.824928,-3.5111744,-22.137352,119.74486
3910000000,9.4291697,-19.176348,-66.146263,-94.852974,-65.435616,-103.29905,-21.986662,114.13239
3915000000,10.503824,-82.908691,-68.933197,143.55701,-70.176903,152.9115,-22.468138,111.08652
3920000000,7.790267,171.01157,-64.890526,24.747141,-66.1334,15.041866,-23.146084,110.82039
3925000000,7.4768791,69.940315,-67.757919,-91.726303,-66.469833,-84.426247,-23.019634,108.65438
3930000000,8.7828255,-42.917244,-65.27578,-166.24332,-66.213997,177.1799,-22.950525,102.45136
3935000000,11.235948,-111.87483,-64.896851,93.915375,-64.668846,96.828316,-23.058491,94.227402
3940000000,5.6770983,147.96277,-74.764122,-14.262623,-75.08049,-0.92700589,-22.08968,93.317612
3945000000,8.9868946,27.830797,-63.368984,-134.58736,-62.293385,-140.37871,-21.540531,95.686119
3950000000,9.8607807,-59.035336,-67.63102,141.94768,-67.72538,135.79787,-22.905117,98.232681
3955000000,10.87404,-142.10371,-70.585831,36.316261,-69.507683,32.613235,-24.270985,95.413338
3960000000,4.8210859,122.54778,-67.388992,-76.629585,-68.250214,-70.433701,-23.18018,90.194321
3965000000,9.3062725,-9.5119543,-77.015999,157.64124,-76.005974,156.35808,-22.602879,88.709969
3970000000,9.3208542,-75.146072,-67.685822,66.430389,-69.692001,74.135162,-24.117495,88.896065
3975000000,8.7981768,-175.61252,-66.549202,-52.075722,-66.186829,-60.712746,-24.735235,81.349342
3980000000,6.3521705,85.383514,-71.140648,-133.51413,-71.182663,-127.44952,-23.816727,76.257851
3985000000,8.7274685,-35.316811,-64.470161,109.99627,-65.517357,97.711662,-24.394667,78.255615
3990000000,10.931883,-98.413803,-67.419937,29.303232,-67.901314,31.15027,-25.093023,80.019058
3995000000,6.3199954,160.43977,-68.721382,-71.827744,-69.557556,-79.252625,-23.726877,76.265793
4000000000,5.0974107,47.932579,-65.653191,-152.27654,-64.511612,-149.20337,-23.566637,76.409714
END

