!CSV A.01.01
!Keysight Technologies,N5247A,US56070710,A.10.64.09
!Date: Saturday, November 19, 2022 23:29:59
!Source: Standard

BEGIN CH1_DATA
Freq(Hz),S33(DB),S33(DEG),S34(DB),S34(DEG),S43(DB),S43(DEG),S44(DB),S44(DEG)
3000000000,-12.633577,164.36084,-59.795135,176.52739,-59.812492,178.0507,-18.135023,-158.8699
3005000000,-14.319349,80.25396,-61.682644,54.220974,-61.862789,52.686256,-17.317438,-152.89233
3010000000,-12.158811,139.94421,-59.075848,-35.680367,-59.005966,-37.187767,-15.526177,-166.75604
3015000000,-12.760589,156.36864,-59.215847,-127.47893,-59.125851,-126.87881,-15.874157,-153.97739
3020000000,-18.640612,83.502251,-61.748222,120.63261,-61.603386,119.7512,-16.469311,-173.99522
3025000000,-8.2515297,134.85338,-58.649536,30.242527,-58.548344,28.281233,-14.607087,-160.89439
3030000000,-28.387535,77.798119,-62.795288,-77.36219,-62.48558,-75.321136,-18.574759,-178.50935
3035000000,-12.751424,100.62413,-63.09877,177.39655,-63.640999,174.95137,-14.045916,-172.31204
3040000000,-9.3259192,140.67004,-61.263882,65.707031,-62.46183,64.723083,-18.278509,177.80554
3045000000,-26.065685,136.04367,-59.036781,-38.797726,-59.493942,-36.333092,-15.606288,176.64058
3050000000,-9.6603403,96.136459,-59.114128,-141.6559,-59.079975,-143.00337,-14.501335,168.55316
3055000000,-10.613739,138.94112,-59.058952,113.6882,-59.16293,112.88902,-16.024704,-173.53719
3060000000,-17.865767,51.827225,-57.950611,26.757046,-58.253216,26.378969,-14.99194,159.65375
3065000000,-7.9148192,116.08146,-60.711941,-72.013077,-60.441967,-74.313187,-15.620822,-174.09387
3070000000,-16.068201,154.39185,-60.389938,169.35023,-60.86097,163.81413,-16.904127,155.4404
3075000000,-10.856956,79.413918,-60.269325,62.289886,-59.581757,64.712227,-16.195393,166.14568
3080000000,-7.0204372,117.8422,-61.115799,-42.750248,-60.935612,-43.795975,-16.36869,157.26698
3085000000,-23.451925,-159.59998,-58.901711,-148.24936,-59.123489,-149.97368,-17.103025,155.15878
3090000000,-7.5875916,87.292625,-61.128735,109.6522,-61.364822,111.98923,-13.987738,150.34518
3095000000,-12.408154,145.00906,-59.551243,15.966821,-59.554108,12.55017,-17.768179,170.73227
3100000000,-13.295637,93.816811,-59.931129,-82.687263,-60.113083,-84.04026,-14.787458,141.74123
3105000000,-8.3815575,88.057358,-61.115788,176.16605,-61.871895,177.89018,-16.691893,170.67917
3110000000,-10.423952,138.65063,-59.255859,73.030357,-59.272289,70.650482,-17.351149,134.9489
3115000000,-12.50998,38.633617,-59.594467,-42.525166,-59.211643,-42.067345,-17.069193,156.36917
3120000000,-7.0370226,111.65281,-59.585976,-140.61519,-59.298412,-141.39337,-16.824776,132.61797
3125000000,-16.444847,127.97249,-58.91803,114.2722,-58.526524,110.58764,-17.433559,150.6832
3130000000,-8.4793396,66.997978,-59.753696,20.650986,-59.439972,20.255455,-15.607401,128.98517
3135000000,-8.6574907,107.00832,-58.923134,-87.416092,-59.225727,-86.262459,-17.575035,163.25479
3140000000,-17.401676,95.12326,-59.165997,167.84203,-59.345257,165.79138,-16.099665,121.89149
3145000000,-9.0423889,66.103859,-59.679276,64.972755,-59.63702,64.344177,-17.309965,154.88083
3150000000,-8.2337551,122.78736,-58.632675,-54.151031,-58.677422,-54.743568,-18.114998,138.86464
3155000000,-11.633751,57.922428,-58.74435,-150.72099,-58.842712,-151.65623,-19.429394,127.03513
3160000000,-8.1429777,81.327057,-57.503399,109.21955,-57.433052,107.48518,-16.420187,139.81941
3165000000,-11.979403,101.63805,-57.407173,6.5989766,-57.163261,3.320446,-19.363245,119.60323
3170000000,-13.00868,67.924637,-58.019001,-91.07119,-58.511494,-90.170265,-15.673617,136.51868
3175000000,-8.6530504,93.02903,-58.409691,164.36504,-58.748283,164.23183,-18.120848,141.55972
3180000000,-15.775408,73.310944,-57.962086,56.836964,-57.684845,56.895618,-18.139442,128.67244
3185000000,-6.9814491,59.901192,-60.816357,-52.900219,-60.259613,-54.484417,-16.868908,150.70808
3190000000,-10.366394,89.165543,-57.873791,-160.19125,-57.528027,-160.62346,-20.666416,136.58183
3195000000,-14.787288,57.553211,-56.982883,96.308174,-56.980953,98.569931,-21.666433,127.15533
3200000000,-7.0353417,65.389572,-57.244259,-4.9907961,-57.065525,-6.9566126,-15.925689,124.28249
3205000000,-8.8239622,112.00336,-58.381374,-99.834885,-58.297291,-100.88944,-25.149405,138.64487
3210000000,-9.0446138,26.364368,-58.773907,156.79501,-59.353268,155.37787,-14.214727,118.17284
3215000000,-8.6348152,73.575974,-59.528801,51.486725,-59.534599,50.938065,-21.618626,142.20494
3220000000,-12.011598,82.502151,-59.59314,-58.964462,-59.536846,-56.398907,-15.7389,129.70575
3225000000,-10.028807,36.772648,-59.692215,-162.27892,-59.554028,-163.15132,-19.093266,131.29817
3230000000,-7.488451,79.209129,-58.493118,90.530334,-58.335438,88.462082,-17.897713,146.38612
3235000000,-13.987836,68.392189,-58.072247,-15.075979,-58.427681,-14.386414,-20.419809,113.03228
3240000000,-5.1840377,39.692703,-58.299416,-116.93758,-58.531151,-118.63875,-16.905243,129.32057
3245000000,-13.031982,104.91555,-58.121109,149.65178,-58.264164,147.49281,-20.002968,140.22157
3250000000,-10.64005,42.330868,-58.955078,37.82029,-58.705021,37.930618,-17.333939,105.38245
3255000000,-7.4989705,56.020565,-59.751858,-75.744827,-60.077278,-75.428879,-17.63006,139.94484
3260000000,-11.355021,76.574699,-59.35733,-173.30719,-59.681377,-173.97478,-16.278128,111.91
3265000000,-8.1114044,22.376303,-58.797215,72.880173,-59.506187,72.660149,-18.385742,139.37051
3270000000,-7.3739457,67.494415,-58.932343,-27.607784,-59.435566,-26.13559,-16.589769,123.66644
3275000000,-17.311813,32.32991,-58.165451,-130.38744,-58.132999,-130.68602,-21.201117,113.41833
3280000000,-8.306819,48.052879,-59.313389,133.04636,-59.277973,130.65146,-14.692387,120.96449
3285000000,-7.9813528,63.794712,-59.734566,30.266228,-59.676334,31.103271,-20.491138,123.22989
3290000000,-13.830264,-0.30687276,-59.556622,-77.406456,-60.022099,-75.944359,-16.068705,110.56555
3295000000,-6.669714,32.072605,-60.630077,173.91606,-60.428635,171.67329,-15.777914,119.04286
3300000000,-10.719925,73.980263,-60.092354,64.129311,-60.253719,65.798355,-17.631535,125.49287
3305000000,-10.019104,7.2213116,-59.327469,-39.558613,-59.162632,-37.620975,-16.590755,112.47594
3310000000,-7.506072,49.927002,-59.060596,-137.9106,-58.939106,-137.99788,-16.994291,125.93176
3315000000,-11.781671,51.078758,-59.556202,119.21968,-59.624184,115.16781,-19.978384,103.39408
3320000000,-8.9087563,6.4881654,-59.906834,18.108561,-59.724674,18.294888,-15.191434,107.03092
3325000000,-8.4553719,42.950752,-60.72504,-85.880241,-60.614811,-89.118195,-19.474062,106.04099
3330000000,-21.647282,-30.011499,-60.221428,162.55681,-60.918594,165.45889,-14.356189,101.96611
3335000000,-4.5079517,25.450964,-62.209438,51.505318,-61.451107,49.654716,-17.805847,107.33999
3340000000,-11.379277,42.133156,-60.703606,-63.495392,-60.884342,-57.476383,-14.870119,110.43845
3345000000,-12.189226,5.3694406,-60.974968,-159.93257,-61.136124,-159.94983,-19.430143,94.930748
3350000000,-5.8609767,15.433969,-60.545361,98.374748,-60.424454,98.902969,-14.928539,111.4997
3355000000,-14.469737,71.939705,-61.113449,-2.2457302,-61.530495,1.0453405,-21.84273,80.45047
3360000000,-9.4841022,-8.7851973,-63.41539,-105.12194,-63.386234,-99.055618,-15.153303,96.075706
3365000000,-6.1374426,29.614796,-63.898849,143.75638,-63.773678,149.59424,-19.192482,77.6231
3370000000,-12.781338,7.0284171,-64.310539,32.889709,-63.845894,42.073414,-15.083576,91.671593
3375000000,-7.0283084,0.53950191,-64.773964,-71.534004,-65.123634,-66.521179,-16.972782,85.35482
3380000000,-10.568956,44.926003,-63.448013,-171.15013,-63.489105,-174.63277,-17.427284,99.801048
3385000000,-15.597591,16.577221,-63.986889,89.755623,-63.110645,86.967102,-17.639849,75.731972
3390000000,-5.1373177,0.75809485,-63.573662,-9.1210775,-63.641468,-9.1232729,-17.250744,88.146317
3395000000,-13.936682,64.649277,-63.978531,-103.41862,-64.669289,-101.72175,-18.843111,77.674927
3400000000,-7.2898822,-22.593288,-65.676025,155.47079,-64.954803,153.60118,-17.084961,75.727875
3405000000,-9.4315424,-3.3809671,-66.093781,28.819117,-65.772133,27.14953,-19.352501,72.439255
3410000000,-10.569219,50.232586,-64.311829,-82.878693,-64.034729,-83.205803,-15.856192,71.141571
3415000000,-5.5606394,-24.880604,-62.627529,177.35226,-62.500843,179.73981,-19.274197,74.654243
3420000000,-8.8087397,39.343559,-61.841595,65.487312,-61.740398,68.666969,-16.835768,86.618851
3425000000,-12.331102,-17.86455,-61.666382,-31.856504,-61.809345,-33.607929,-21.413977,47.523239
3430000000,-7.7048845,-16.760069,-63.051823,-130.0833,-62.748352,-131.3705,-17.610733,85.090645
3435000000,-12.915491,23.736305,-63.551849,114.38495,-63.433182,115.8597,-21.778116,47.525135
3440000000,-11.72638,-23.85754,-66.737373,5.2689939,-65.731544,3.6031327,-20.757475,58.28503
3445000000,-5.9088798,-0.77149069,-66.990852,-116.80383,-67.285789,-112.73271,-17.214184,55.850681
3450000000,-12.376128,-4.0481868,-65.845818,126.68569,-66.112427,127.89378,-22.434134,68.648682
3455000000,-10.986527,-41.607006,-64.828857,37.268494,-63.993736,40.009861,-18.405352,58.569263
3460000000,-8.4599447,10.712739,-65.071121,-67.264656,-64.290482,-63.301502,-20.481834,71.844032
3465000000,-12.618545,-16.474764,-65.120964,-145.49977,-64.568237,-151.77301,-25.28401,66.572014
3470000000,-8.3457661,-25.286274,-65.649757,88.699295,-65.6838,89.769386,-18.589447,62.010036
3475000000,-8.3105211,8.3426123,-67.341812,-13.517313,-67.013695,-12.321692,-34.538311,97.038223
3480000000,-12.184242,-73.142479,-71.555473,-121.31763,-69.371193,-122.86732,-20.371881,46.684399
3485000000,-5.2949948,-3.8480506,-66.154381,111.34247,-65.847748,114.07497,-22.090008,41.208664
3490000000,-22.005856,-16.740286,-65.195694,14.108177,-65.159294,8.3900919,-22.529127,102.16856
3495000000,-9.4935551,-14.224393,-64.852974,-105.18446,-64.628654,-98.911263,-18.56382,16.640879
3500000000,-6.4034691,-26.849308,-64.454018,169.41681,-64.852318,168.86063,-18.38677,110.75298
3505000000,-21.137529,67.969925,-64.44313,59.051037,-65.498718,57.846607,-24.263931,18.529947
3510000000,-5.6163387,-40.670269,-66.328072,-45.885906,-65.659042,-50.831215,-22.734062,99.581123
3515000000,-10.871964,13.799423,-65.250473,-159.08618,-64.714737,-154.94231,-28.420496,55.506405
3520000000,-16.117388,-44.843567,-64.663231,70.779961,-65.136353,73.244438,-27.22308,33.194756
3525000000,-8.1379347,-32.167519,-64.704445,-23.979286,-66.199829,-23.097134,-21.10136,61.012222
3530000000,-9.2113771,-9.692174,-63.446556,-131.2686,-64.10598,-138.88303,-22.769287,92.336342
3535000000,-12.768894,-80.800453,-63.025513,125.56048,-62.85627,122.70018,-27.197302,47.191288
3540000000,-8.0306025,-21.372295,-64.860123,22.319735,-65.08252,13.207717,-18.394146,97.335739
3545000000,-13.080676,13.998755,-63.777763,-100.46832,-64.157181,-102.83549,-37.842968,-126.16555
3550000000,-7.5750403,-53.574306,-64.424232,156.00066,-64.323357,155.60017,-19.687384,85.613228
3555000000,-11.104088,4.8716455,-62.861217,43.530186,-63.930668,42.963375,-44.635151,126.87183
3560000000,-11.834886,-47.83783,-63.04298,-51.917797,-62.783913,-57.885582,-23.251963,89.576363
3565000000,-12.341623,-77.570007,-64.39389,-172.99838,-65.099991,-168.43221,-25.414032,42.261929
3570000000,-6.0550942,3.64903,-63.018482,81.86805,-63.58107,83.417107,-22.424875,94.360008
3575000000,-12.410239,-105.24161,-65.169678,-18.737652,-65.828331,-17.114859,-23.183792,63.157551
3580000000,-7.3985519,-25.115168,-63.694489,-139.3624,-64.409294,-139.95526,-21.711386,97.406166
3585000000,-11.016181,-39.319065,-65.126266,126.71235,-65.017448,126.16374,-23.639566,98.259109
3590000000,-19.732529,-121.12627,-65.722359,-11.99108,-66.221626,-6.2424097,-30.716312,69.534332
3595000000,-5.1535153,-28.808044,-63.706993,-95.154991,-63.812714,-93.944962,-19.783697,86.181351
3600000000,-31.049496,37.402653,-67.488564,156.14322,-65.815186,158.76884,-35.570827,123.99059
3605000000,-6.2546821,-48.54459,-65.650246,60.322525,-66.268341,63.167591,-21.271646,57.378117
3610000000,-12.30382,-35.765602,-67.362564,-30.073763,-66.911369,-25.836397,-22.402359,84.620201
3615000000,-22.148296,9.4923468,-68.856651,-176.53963,-70.634148,-169.9527,-24.146322,79.798447
3620000000,-8.1247768,-56.551914,-67.723053,94.507141,-67.097321,98.19178,-21.842285,70.668144
3625000000,-9.6416836,-22.733223,-69.66069,-2.2245281,-70.11657,4.7415032,-22.794924,98.608345
3630000000,-27.402073,-101.51937,-67.603271,-97.265106,-66.894341,-94.552422,-27.289,86.371094
3635000000,-5.8995481,-58.318546,-66.845108,171.20482,-67.233032,178.1718,-21.121834,55.024296
3640000000,-15.531927,2.0556738,-67.373283,75.204124,-68.291321,73.710289,-22.747816,141.82339
3645000000,-8.1447954,-68.910934,-65.266258,-34.107765,-65.663231,-36.903454,-18.65222,11.76185
3650000000,-14.837632,-30.629465,-67.984573,-122.29897,-67.789856,-123.54536,-19.53054,110.17526
3655000000,-7.6553001,-14.620503,-67.849159,119.50391,-68.474411,128.00148,-22.476408,19.737808
3660000000,-6.7348104,-93.237129,-65.952789,17.165472,-66.201263,15.667945,-22.638445,93.746468
3665000000,-8.0546894,10.924968,-64.655968,-83.163696,-64.664597,-82.346596,-22.059671,64.174767
3670000000,-10.826507,-101.85986,-64.62809,172.93199,-65.066505,-178.69804,-30.492138,122.91521
3675000000,-10.921022,-24.6049,-65.672127,82.656166,-65.120911,77.505402,-22.962378,49.894062
3680000000,-7.4247379,-45.877003,-63.234669,-25.950296,-63.173367,-24.240725,-25.489529,124.16241
3685000000,-15.521921,-110.69955,-63.905045,-128.64603,-64.667526,-130.93555,-24.057903,-29.74098
3690000000,-6.1167083,-39.642406,-65.705856,132.26898,-64.827209,129.21358,-19.895531,71.117813
3695000000,-22.901411,-33.904037,-64.139076,17.822664,-64.166222,24.191126,-30.354895,-30.675224
3700000000,-9.4473162,-65.378937,-63.737877,-95.510292,-64.283195,-90.275475,-21.882151,73.228592
3705000000,-7.7470169,-35.662796,-62.431931,172.80464,-62.053711,166.70189,-24.133356,30.111115
3710000000,-19.761608,-109.57342,-63.390709,60.148048,-63.589428,62.235905,-23.267788,136.88882
3715000000,-6.3693018,-56.650375,-63.112839,-43.157352,-62.774715,-45.426067,-20.376995,22.1222
3720000000,-11.495942,-40.884281,-63.149281,-140.71547,-62.948887,-140.27327,-21.143127,156.81061
3725000000,-21.166607,-86.278107,-64.446915,113.13007,-63.627689,112.28272,-22.410837,2.2276094
3730000000,-4.5744801,-54.450058,-63.096992,5.875411,-63.676662,7.3857245,-27.824102,95.245667
3735000000,-22.785559,18.54215,-63.739117,-91.077736,-63.966057,-93.096901,-24.892162,88.047676
3740000000,-7.7783809,-64.750404,-62.991909,157.10719,-62.777214,158.05359,-40.766754,25.534817
3745000000,-8.608654,-73.902206,-63.346283,59.704933,-63.716461,59.852322,-23.237467,96.210716
3750000000,-10.748667,9.0709906,-62.60638,-40.314442,-62.090328,-39.91811,-30.198259,160.66147
3755000000,-4.860815,-111.11674,-63.22221,-144.63065,-62.77293,-140.49036,-30.224562,37.831394
3760000000,-5.9641223,-2.454057,-63.872971,111.45339,-63.332207,108.73495,-22.142294,135.2693
3765000000,-5.2384448,-89.535759,-62.54493,1.6975241,-63.190994,0.3691504,-26.211596,-41.776314
3770000000,-14.282069,-102.2734,-63.734966,-106.46495,-63.568836,-108.38342,-22.175755,103.9592
3775000000,-5.299161,-28.665703,-61.852493,154.38455,-62.101715,158.45044,-27.173523,56.322479
3780000000,-10.694633,-136.92653,-62.453178,42.01408,-62.936626,46.627419,-23.98378,152.48712
3785000000,-5.1704803,-46.038815,-62.279305,-54.539047,-62.009632,-51.313042,-19.470406,56.310162
3790000000,-10.440943,-71.904739,-62.821354,-154.75261,-62.723583,-152.4464,-17.761578,160.80757
3795000000,-10.409428,-110.46342,-63.402939,102.99435,-63.148624,106.71753,-26.073772,36.976242
3800000000,-6.9342003,-47.982437,-63.291603,5.6772923,-62.837158,4.848083,-20.251881,140.04892
3805000000,-13.56532,-65.399689,-63.795864,-105.68714,-64.967438,-109.20238,-44.651569,84.306061
3810000000,-8.8743944,-90.985535,-63.280758,147.29022,-63.039597,150.17194,-22.6339,91.334427
3815000000,-4.4865756,-60.311123,-63.208359,52.291615,-62.967163,52.505955,-23.839989,111.74548
3820000000,-14.954665,175.30373,-64.452553,-49.074287,-64.161789,-57.915024,-23.842934,116.70766
3825000000,-3.5218105,-62.291805,-62.704361,-151.27423,-62.573643,-156.49933,-21.683821,70.766991
3830000000,-15.418229,-111.52441,-63.822937,99.869141,-63.855164,104.3622,-16.143297,131.03955
3835000000,-9.1165295,-56.727356,-63.64286,-7.1730227,-63.29108,-7.7473617,-48.25882,-56.665619
3840000000,-4.1808043,-99.131271,-63.43745,-99.189392,-62.986019,-94.710449,-18.566725,112.40458
3845000000,-13.793449,10.176735,-63.748722,154.27596,-63.116238,154.8598,-30.352108,106.9978
3850000000,-3.6432631,-96.134293,-62.24955,48.398323,-61.846432,47.505249,-23.765842,107.74867
3855000000,-12.050004,-89.486732,-63.286003,-49.527428,-62.905708,-49.665802,-19.502346,72.408554
3860000000,-9.0641136,-58.829102,-62.062225,-157.02016,-62.605381,-154.84273,-22.006271,138.58675
3865000000,-6.2154717,-106.71062,-62.049751,105.30543,-62.544834,108.22585,-16.701044,61.936348
3870000000,-7.4312329,-54.647064,-63.156353,1.1513799,-63.194618,0.016864348,-17.721264,143.29671
3875000000,-7.3270445,-118.84031,-63.456245,-104.49066,-63.251106,-107.02958,-20.604137,63.469711
3880000000,-10.096286,-89.640358,-62.19516,158.40218,-61.806606,154.53397,-22.128141,122.41722
3885000000,-8.0470619,-57.183376,-61.840538,42.919609,-61.821655,45.418335,-19.273766,85.855141
3890000000,-4.9218254,-116.47627,-62.686714,-55.343185,-63.153938,-56.611977,-37.622334,165.02379
3895000000,-8.8286552,-84.473869,-61.680042,-157.19801,-61.573898,-154.16296,-15.557199,60.45121
3900000000,-7.7541509,-82.620506,-61.538826,96.380066,-61.747906,101.11323,-20.401686,128.28267
3905000000,-7.9496202,-114.0041,-62.325584,-7.0126939,-62.445244,-4.520741,-18.645473,42.902935
3910000000,-6.8743987,-57.427994,-61.792068,-116.86757,-62.567211,-111.8681,-16.601141,107.97894
3915000000,-6.7997279,-128.2739,-61.883568,147.56947,-62.160744,150.99323,-24.036922,47.728279
3920000000,-6.8417211,-75.664932,-62.079853,39.537357,-61.71273,43.00761,-19.838387,99.688919
3925000000,-7.5843897,-106.17699,-61.724148,-63.126686,-61.918018,-58.904339,-19.576496,57.7393
3930000000,-16.525476,-128.87259,-61.514637,-163.07162,-61.709656,-167.53259,-24.641066,150.58322
3935000000,-2.729152,-94.205894,-61.90094,93.677452,-61.607307,95.3899,-14.543417,33.723034
3940000000,-21.90299,-84.094261,-61.482445,-5.5218077,-61.576645,-6.6566925,-19.09918,128.75676
3945000000,-4.3363171,-117.29224,-62.203259,-116.83816,-62.404839,-117.16293,-17.32107,29.554197
3950000000,-8.4119062,-89.713554,-62.508591,141.32263,-61.913334,145.42921,-17.804037,89.241028
3955000000,-10.826894,-103.19308,-62.349297,35.625519,-61.470074,35.345211,-26.760599,90.255066
3960000000,-5.8167892,-125.19048,-61.820652,-71.807892,-61.411686,-73.753464,-19.14724,39.455936
3965000000,-10.063119,-76.785797,-62.403183,-167.18393,-61.657429,-165.41458,-20.665028,100.02054
3970000000,-7.0921268,-129.88803,-61.570786,86.164795,-61.683792,86.176506,-25.42695,15.99684
3975000000,-5.110815,-118.46765,-61.516731,-9.6547222,-60.939999,-13.628266,-18.523676,37.444626
3980000000,-10.655404,-89.35704,-62.351734,-120.73645,-63.12212,-114.60239,-19.952551,98.168915
3985000000,-7.0261674,-136.44,-61.818096,137.16115,-62.278572,142.16425,-19.63125,7.9281807
3990000000,-8.8300085,-103.66087,-62.837025,36.526737,-62.668343,36.636719,-19.439381,91.044914
3995000000,-8.0134315,-102.35979,-62.07098,-72.896492,-62.643261,-74.009117,-23.129982,40.230171
4000000000,-3.9633148,-154.18475,-62.119129,-177.45305,-62.239166,-177.64763,-34.279884,23.591915
END

