!CSV A.01.01
!Keysight Technologies,N5247A,US56070710,A.10.64.09
!Date: Saturday, November 19, 2022 00:37:07
!Source: Standard

BEGIN CH1_DATA
Freq(Hz),S33(DB),S33(DEG),S34(DB),S34(DEG),S43(DB),S43(DEG),S44(DB),S44(DEG)
3000000000,-13.033237,-150.02119,-83.596382,130.40398,-91.427414,146.35471,-13.554517,-143.89702
3005000000,-11.792254,127.94456,-79.763741,60.233738,-75.303917,41.322151,-16.682055,-146.71912
3010000000,-15.491762,163.5219,-70.239296,-80.690842,-71.120201,-87.656143,-17.328814,172.66457
3015000000,-10.491564,161.50322,-68.72963,-142.64345,-69.187271,-147.0377,-11.832009,-150.60403
3020000000,-16.899155,90.574112,-68.633179,116.91053,-68.019417,114.30699,-22.885153,-153.03676
3025000000,-11.351586,167.92551,-70.373299,73.086853,-72.363403,74.280914,-12.228281,-176.29248
3030000000,-16.969934,132.24222,-72.498642,-44.364853,-73.062752,-48.55191,-15.868073,-160.159
3035000000,-17.770967,144.60027,-75.114944,-120.6557,-72.933914,-121.61871,-19.922102,-162.09326
3040000000,-7.5606341,152.81538,-76.865578,146.75401,-78.429016,129.09914,-11.570654,172.41786
3045000000,-18.265852,74.180214,-80.434189,-120.93671,-80.012688,-94.724838,-18.967348,-154.34689
3050000000,-12.322742,148.0675,-78.960205,-133.91747,-76.69191,-105.41488,-14.071468,160.33006
3055000000,-12.40337,133.66786,-72.156593,127.22155,-72.363945,124.30906,-13.828552,-178.2478
3060000000,-19.991718,173.98691,-68.235962,33.223957,-68.84819,32.821144,-15.799253,-170.28229
3065000000,-6.9795146,128.55522,-67.979301,-53.761395,-67.902031,-54.9072,-14.379545,144.86591
3070000000,-25.92617,142.94299,-67.138542,-117.81803,-67.152725,-122.3513,-14.204455,-158.65256
3075000000,-10.05592,130.12299,-67.971619,134.88475,-67.101479,129.04167,-16.389135,146.93893
3080000000,-10.791718,114.56542,-71.023209,45.234512,-69.688805,43.789288,-14.397295,154.75725
3085000000,-13.884837,-160.26476,-74.537872,-39.479805,-72.132355,-53.565483,-15.047729,-174.32756
3090000000,-7.062726,107.45047,-80.574638,63.50856,-78.54818,89.633858,-17.113161,128.34877
3095000000,-15.945239,169.05968,-75.355515,35.274651,-76.571129,36.046261,-12.196031,169.51413
3100000000,-9.2943125,122.63315,-75.575676,-57.382408,-74.751396,-65.803345,-19.240765,146.63911
3105000000,-12.026016,88.258347,-68.86631,-166.32169,-68.520218,-162.59709,-17.502838,154.12766
3110000000,-10.221292,162.48491,-65.887321,91.823555,-65.511688,87.57682,-12.454496,157.858
3115000000,-12.47628,87.164085,-70.003136,20.593185,-69.642838,18.952232,-28.133198,136.48143
3120000000,-9.3024282,133.10066,-67.684219,-84.963799,-66.884598,-87.829842,-13.147686,138.50717
3125000000,-10.38797,126.10633,-73.762367,-154.50403,-72.611786,-161.46968,-17.075285,165.61894
3130000000,-10.350157,65.721581,-71.325043,82.552887,-71.612633,79.969307,-18.118282,137.42058
3135000000,-9.6397514,146.93779,-69.29097,-45.233166,-70.847923,-43.170143,-13.671767,133.48166
3140000000,-12.937208,102.77741,-70.418671,-163.91841,-71.004395,-174.10269,-19.044073,-168.78641
3145000000,-11.68404,117.73546,-65.588066,86.383698,-65.403488,84.822189,-14.371493,126.15076
3150000000,-6.8676181,115.6193,-67.131607,-14.580559,-67.243034,-19.214161,-17.32811,146.52737
3155000000,-14.004517,49.229855,-64.667709,-90.510803,-64.568672,-94.753014,-19.526594,166.71185
3160000000,-9.4763012,121.95193,-65.148621,171.96112,-65.428711,166.93291,-15.328823,111.91196
3165000000,-12.45126,96.972046,-64.209999,64.725113,-63.805206,64.644135,-14.961493,164.46281
3170000000,-10.803046,131.69783,-67.804466,-41.486446,-68.169937,-46.971634,-18.658033,109.31786
3175000000,-6.6628175,89.390556,-66.872467,-129.60591,-67.363144,-131.70483,-16.925062,144.53842
3180000000,-20.694365,105.90205,-66.487923,83.323746,-66.134529,84.69928,-14.052651,154.43913
3185000000,-7.3247123,86.264381,-65.417831,-16.536989,-64.982918,-20.240185,-23.412794,81.267876
3190000000,-15.961539,103.88175,-65.303391,-125.43475,-65.388916,-128.84625,-13.557137,152.58707
3195000000,-10.701997,124.15256,-62.998924,154.53586,-63.228298,149.44768,-25.40377,138.49394
3200000000,-6.07235,78.994347,-62.217438,53.125858,-62.215431,47.604099,-16.575418,123.44514
3205000000,-12.072881,114.0923,-64.248367,-54.133266,-63.810497,-62.469757,-16.337496,137.47282
3210000000,-10.074679,58.721485,-69.068367,-142.45262,-68.214653,-147.62715,-25.173626,165.7422
3215000000,-14.79862,99.600029,-68.841011,95.218391,-67.071198,94.810463,-13.286362,121.73042
3220000000,-8.2952023,113.92911,-71.241241,-34.140911,-71.275459,-34.403446,-19.864672,153.74133
3225000000,-7.9353685,65.540451,-67.805283,-146.49547,-68.158112,-147.37164,-20.018412,146.28098
3230000000,-10.812089,85.085587,-65.537529,119.33472,-65.919174,120.64246,-15.012858,120.82568
3235000000,-10.266068,79.979477,-64.045975,15.638483,-64.200233,12.206494,-18.958551,172.14902
3240000000,-11.676945,49.893288,-64.221092,-74.534897,-65.163322,-80.400208,-16.480158,101.94338
3245000000,-8.1597948,115.66274,-67.868034,175.89224,-68.276169,173.86612,-16.816301,155.8752
3250000000,-9.9405575,55.866035,-66.341461,98.276817,-66.206612,89.806534,-17.179953,131.79927
3255000000,-7.8635182,89.392014,-71.253113,-26.471422,-70.491089,-14.954776,-18.499779,94.750763
3260000000,-7.9056058,51.321861,-72.182564,-147.81682,-71.408012,-151.6796,-13.367812,153.59372
3265000000,-21.226089,24.435629,-71.290054,73.807228,-70.784775,79.096359,-21.034767,105.53088
3270000000,-5.940167,92.720299,-69.406258,-22.512367,-69.270508,-30.482698,-15.843105,129.89413
3275000000,-12.716552,53.001637,-66.782829,-117.72295,-67.041107,-120.96358,-17.534424,132.46049
3280000000,-7.4368763,80.103424,-67.645172,156.91817,-68.204002,154.63751,-21.450556,122.56818
3285000000,-7.7604547,45.726101,-66.769318,65.715927,-66.357391,63.656292,-12.858635,118.48454
3290000000,-29.769453,41.136726,-68.325478,-38.091675,-68.791389,-40.986504,-21.92211,137.65359
3295000000,-7.0445194,66.575058,-70.109108,-124.46037,-72.79422,-128.19087,-16.17428,123.85917
3300000000,-11.621418,75.886604,-77.365303,80.082779,-79.10537,83.59597,-14.165257,113.57796
3305000000,-8.7542238,59.098881,-82.570915,-74.938416,-84.347969,-92.138435,-19.270996,157.77196
3310000000,-7.6293569,42.918396,-71.655884,173.65793,-70.98288,177.3864,-14.271647,98.749901
3315000000,-16.926472,74.168983,-70.107124,114.09193,-70.253906,109.96208,-16.969097,151.74394
3320000000,-8.3482676,50.420418,-67.71785,16.275229,-68.511147,12.078366,-15.990301,99.639343
3325000000,-14.021864,63.349888,-70.621437,-62.782848,-71.650772,-61.820221,-17.956911,95.345207
3330000000,-8.6138134,66.485252,-73.551247,-148.91147,-74.380013,-141.44043,-13.331178,131.9133
3335000000,-6.1955504,22.401781,-80.62162,156.58185,-78.923164,145.03827,-17.642832,75.463554
3340000000,-13.324213,80.519096,-74.788071,94.425079,-75.69101,90.581329,-13.657409,121.50289
3345000000,-8.9418297,28.841854,-76.363739,88.98494,-78.022697,99.214096,-18.740999,119.87583
3350000000,-12.444222,49.538498,-77.45163,-10.326445,-78.759796,0.52522564,-17.621111,88.193451
3355000000,-6.9432664,67.758255,-76.369858,-56.24786,-75.043518,-56.582588,-14.05335,114.43878
3360000000,-9.3010721,-0.97248769,-74.119728,-153.7058,-74.222893,-139.79259,-23.725386,62.150009
3365000000,-7.2254281,59.058693,-74.38588,152.80624,-74.844444,156.80573,-13.587922,98.824783
3370000000,-10.196198,-1.0226247,-76.306412,135.05095,-73.250351,120.55602,-15.938993,94.604485
3375000000,-11.776875,62.45277,-77.197083,46.579021,-76.67823,34.645199,-22.430065,105.71944
3380000000,-7.4202247,46.283546,-72.008408,-36.435974,-71.30127,-35.61747,-12.513753,90.254929
3385000000,-13.765138,27.034552,-77.928772,-119.58276,-75.503822,-111.72818,-23.871273,126.03635
3390000000,-6.2671771,24.026751,-75.996025,178.85661,-75.112434,-169.94704,-15.518393,78.36174
3395000000,-14.129742,24.733356,-77.428192,175.07635,-76.825287,178.57228,-16.956148,87.123657
3400000000,-14.532083,26.474979,-74.067657,96.177803,-75.582863,111.67358,-20.02099,120.02055
3405000000,-7.568665,30.221569,-73.536446,27.364634,-75.292549,21.048996,-13.60452,50.150192
3410000000,-11.200629,43.397762,-70.098907,-49.64024,-70.46637,-49.55022,-17.37158,126.20077
3415000000,-6.9744301,10.686841,-74.93531,-140.35539,-73.861153,-132.18845,-16.309698,65.696983
3420000000,-10.039173,11.679713,-80.706421,132.42252,-78.926308,146.60703,-19.25971,63.112518
3425000000,-18.260799,66.42498,-79.594002,103.56741,-84.202057,108.73922,-16.057848,110.6925
3430000000,-6.6603856,20.855291,-80.035805,159.78879,-79.277802,150.61337,-18.932255,20.878555
3435000000,-13.579212,29.874781,-76.840675,25.511623,-75.823936,20.487495,-15.929126,99.627441
3440000000,-7.1500764,13.521142,-69.313141,-42.166389,-67.955605,-43.617863,-21.019382,35.852966
3445000000,-10.849598,-18.196735,-70.647354,-128.74466,-70.106491,-126.14511,-21.953468,72.170372
3450000000,-9.2598457,53.049995,-69.14061,134.78348,-69.376167,128.21526,-14.884822,76.075516
3455000000,-9.1865606,-18.09952,-80.022789,40.686214,-80.70713,17.96104,-31.414316,-39.898304
3460000000,-9.9384804,48.068798,-72.916748,-65.772408,-75.694359,-66.924072,-15.44325,74.207176
3465000000,-6.7824554,-1.2710123,-81.395088,123.60892,-83.875626,79.49881,-24.263958,91.06636
3470000000,-15.577387,-23.250624,-74.432785,17.75589,-74.668518,16.893135,-28.040987,56.164043
3475000000,-7.8210206,30.118649,-71.791084,-88.907845,-72.386108,-93.223,-18.476158,60.470459
3480000000,-10.938681,-28.671246,-69.596237,173.20752,-69.752991,173.20883,-31.039608,153.97342
3485000000,-9.1273174,21.963827,-68.66851,94.52803,-69.232101,101.74339,-17.305321,48.965973
3490000000,-11.141842,6.004878,-69.11515,7.606338,-69.662231,2.6156149,-27.14843,62.600903
3495000000,-11.843812,-0.9387728,-70.567276,-98.699234,-69.932152,-94.803024,-21.387463,110.69014
3500000000,-7.715879,5.6382775,-73.057816,176.09767,-71.843773,175.39253,-18.269621,30.71685
3505000000,-15.698558,-21.993771,-72.818031,52.036884,-71.603561,45.613396,-19.178392,137.11917
3510000000,-10.61309,-0.29139075,-73.826141,-70.100746,-73.585571,-86.199738,-24.695429,24.068993
3515000000,-9.4691954,12.93027,-72.608734,-169.51247,-72.757408,-171.27983,-26.993698,104.71258
3520000000,-16.195524,6.6347923,-69.121811,73.458511,-70.294075,64.315063,-20.581724,75.673813
3525000000,-6.2392545,-7.9732838,-68.931709,-3.2272534,-69.222588,-13.043692,-26.426783,-53.235325
3530000000,-15.767782,-41.765491,-67.722382,-111.29084,-67.230179,-111.1498,-15.809669,91.393127
3535000000,-12.105265,11.516312,-68.501183,156.93617,-68.923622,149.15021,-36.197834,37.930645
3540000000,-9.7130051,-17.725576,-72.394196,48.45816,-72.403,40.403351,-23.75824,107.04804
3545000000,-10.715357,43.980526,-71.034019,-65.587128,-72.807274,-71.30584,-21.526613,83.263374
3550000000,-5.1246848,-27.252728,-71.067093,175.26964,-71.872993,-179.06967,-24.034256,166.64771
3555000000,-25.343281,-6.7494035,-69.52269,63.793953,-70.511108,53.28231,-20.172304,52.292233
3560000000,-10.598165,-7.9145136,-68.729721,-42.419388,-69.901207,-49.003872,-27.618938,156.17874
3565000000,-17.463963,-28.422441,-67.795395,-141.51659,-66.953423,-141.66251,-21.721167,102.25334
3570000000,-6.1921797,17.527184,-66.69622,127.28872,-66.737778,124.21442,-20.068205,28.463631
3575000000,-10.166164,-47.72604,-66.720459,25.476919,-67.735161,27.328411,-17.115559,135.46448
3580000000,-11.913452,-25.872625,-69.14389,-67.759277,-67.674728,-71.570778,-24.084879,27.676723
3585000000,-12.458857,-0.93297577,-69.079979,-169.26636,-68.287369,-171.22156,-19.015385,117.23048
3590000000,-20.746733,-55.160168,-71.296722,75.007538,-70.153374,71.598114,-26.230463,79.328941
3595000000,-6.4762397,8.7933168,-69.774948,-60.661732,-69.449928,-53.326416,-39.143745,78.534042
3600000000,-9.4796085,-34.767807,-68.688293,-149.70178,-67.565903,-154.01358,-17.06237,100.87457
3605000000,-11.988698,-47.057922,-66.792236,111.72925,-66.793884,104.79463,-27.597427,-22.377077
3610000000,-11.144138,-6.8005376,-67.577087,13.433405,-67.296417,15.719307,-21.255383,88.405319
3615000000,-27.562235,40.530937,-66.217941,-95.447525,-66.844048,-101.33902,-18.888157,85.39193
3620000000,-6.3910112,2.6485946,-67.278915,-171.61055,-67.171028,-177.9872,-31.444462,170.60501
3625000000,-7.9987555,-48.713528,-69.376366,86.236389,-70.347603,74.109306,-16.321289,69.412643
3630000000,-17.870573,39.815655,-68.284836,-36.616096,-69.092094,-40.62241,-24.427668,-165.42836
3635000000,-7.1954403,-53.977581,-70.35054,-155.08234,-69.661934,-151.07478,-17.846394,82.918472
3640000000,-13.65042,58.765125,-70.768272,109.5909,-70.278442,103.73876,-26.71887,25.076172
3645000000,-6.145802,-24.760969,-68.076859,-6.0471258,-67.892517,-3.1595681,-21.569136,149.68317
3650000000,-16.183712,-43.878662,-68.427269,-89.712952,-67.6334,-94.481903,-17.785212,29.574818
3655000000,-7.0712776,-3.269351,-66.486748,164.13609,-67.187325,159.31189,-22.208761,127.89095
3660000000,-7.9478059,-81.249199,-68.616241,78.968163,-67.532745,71.260506,-21.684235,56.194462
3665000000,-10.038957,53.217323,-67.788765,-20.916874,-68.037643,-20.865395,-32.44846,2.8221731
3670000000,-8.6049709,-25.873529,-68.788223,-139.27097,-68.802361,-141.386,-15.253654,105.24019
3675000000,-11.331312,-30.424931,-71.526924,128.28865,-72.487984,125.9934,-19.789354,-46.668976
3680000000,-8.7251396,-28.719191,-70.593369,11.313252,-71.387306,14.589677,-18.338192,116.02791
3685000000,-12.835618,-77.4179,-72.288681,-107.53951,-71.10379,-119.97784,-25.199764,8.9323044
3690000000,-12.093275,15.679769,-69.405853,140.13753,-69.04303,144.20247,-39.50816,84.673622
3695000000,-7.5981803,-16.751068,-69.706047,48.507061,-70.141579,44.619434,-17.95155,59.015671
3700000000,-13.031564,-64.004898,-69.89785,-29.608774,-70.453445,-32.447113,-23.691916,-143.69235
3705000000,-6.7016273,-14.886998,-68.681709,-136.00313,-69.364998,-138.87735,-17.724913,65.846527
3710000000,-13.569268,-104.49982,-70.154839,123.89829,-69.858063,128.1712,-36.941879,-11.890784
3715000000,-8.0584641,2.538666,-71.280655,33.438099,-71.700859,36.742691,-23.566761,149.43065
3720000000,-8.2040596,-46.934887,-71.820526,-73.698952,-74.171623,-76.623444,-21.637272,37.323475
3725000000,-20.724508,27.142189,-75.787079,176.65994,-75.460732,-179.85027,-26.124554,170.79762
3730000000,-4.6041751,-32.539902,-71.848442,63.587116,-70.741173,65.214439,-23.751474,43.185791
3735000000,-22.586971,-96.181717,-72.017296,-47.854305,-71.74025,-45.962082,-31.603502,135.34569
3740000000,-7.9270897,-21.011993,-70.909065,-138.35698,-69.877693,-130.45482,-20.299316,118.70965
3745000000,-9.9254971,-62.565693,-71.667252,137.21167,-71.811188,137.23448,-22.016964,-30.843243
3750000000,-10.897093,22.882618,-68.951195,37.186199,-69.742912,28.789145,-17.910423,138.45044
3755000000,-6.6405015,-56.215687,-71.436012,-37.600826,-70.571968,-34.453396,-28.365685,40.387318
3760000000,-11.709061,-20.753246,-71.374023,-154.72441,-71.888847,-155.49954,-26.824184,-171.93649
3765000000,-8.4952087,-48.667892,-76.076202,112.17403,-75.954796,109.81996,-22.708109,85.780991
3770000000,-14.079781,-75.790329,-74.3825,5.466032,-74.470528,-7.1697025,-24.232714,-129.53036
3775000000,-7.2120085,6.1492858,-77.134247,-122.08399,-75.425392,-136.49289,-17.095173,86.011078
3780000000,-7.2264528,-61.779778,-74.587212,140.18497,-74.486565,128.63091,-27.637125,-125.45877
3785000000,-11.122704,-43.785591,-70.698769,28.799524,-70.644608,21.797026,-20.843884,135.13078
3790000000,-8.8689585,-34.591843,-70.035782,-51.86594,-69.760696,-50.060612,-21.47138,73.200203
3795000000,-11.333243,-93.75605,-68.513512,-157.77298,-69.372444,-164.67064,-19.514666,177.1799
3800000000,-6.8079629,-0.4347474,-70.315544,112.39617,-69.964012,115.79467,-24.045021,71.508728
3805000000,-6.5906277,-58.590099,-68.786255,12.588884,-69.807098,14.593651,-22.663984,167.944
3810000000,-15.611789,-52.599979,-71.917,-96.861794,-72.51474,-103.93327,-19.967472,104.75076
3815000000,-4.6476178,-49.191952,-70.501648,174.19786,-70.192696,174.7218,-28.709492,-35.828571
3820000000,-18.682667,167.1884,-73.237267,53.509026,-73.834831,61.464012,-15.256873,127.5845
3825000000,-3.7196722,-29.592339,-70.809227,-48.151104,-69.702728,-47.748657,-25.508495,47.573032
3830000000,-10.911901,-84.805061,-69.339912,-159.62938,-69.673645,-158.40753,-17.528503,135.43486
3835000000,-9.3612719,-31.79851,-69.446877,119.03998,-69.649185,113.84776,-23.323141,126.65621
3840000000,-6.2219687,-73.323929,-68.14563,5.6199403,-68.207909,5.9867291,-25.469931,178.009
3845000000,-17.491684,-4.2533994,-69.68737,-95.787575,-69.81929,-99.077286,-17.00326,90.098427
3850000000,-5.3304362,-56.116444,-67.778481,168.64673,-68.11554,166.18427,-27.141312,-142.02356
3855000000,-11.555673,-70.520554,-70.016792,81.261688,-70.85482,71.1605,-19.296253,104.8767
3860000000,-7.8295517,-40.389065,-69.070763,-49.254627,-69.989204,-52.711472,-18.71022,72.529366
3865000000,-7.4531045,-75.138977,-71.022911,-145.48875,-70.952286,-152.96808,-20.977453,145.63623
3870000000,-11.942353,-42.560337,-70.597107,107.82447,-70.774849,110.12325,-17.573536,80.861031
3875000000,-6.785676,-60.091602,-67.070442,6.1859574,-67.051636,5.6324325,-20.134478,147.11357
3880000000,-11.933734,-92.252113,-68.324448,-86.97644,-68.619507,-86.331879,-18.548206,92.644402
3885000000,-6.096621,-29.964382,-68.722008,172.25343,-67.829132,167.59673,-28.498152,51.277443
3890000000,-4.9650655,-95.275002,-67.737289,69.578941,-67.310097,68.393387,-15.772461,138.56264
3895000000,-12.890128,-28.76066,-70.759491,-44.561314,-70.255226,-39.807701,-16.298344,20.823761
3900000000,-4.7228942,-67.363884,-69.380318,-138.4825,-69.370132,-130.15613,-16.720135,127.64915
3905000000,-14.095749,-93.141502,-70.333618,116.24638,-70.700371,114.46252,-20.211882,63.639797
3910000000,-5.632977,-39.766487,-70.422379,7.7792988,-69.946541,8.2705584,-23.632381,100.1487
3915000000,-6.6592269,-103.83994,-69.619659,-104.75489,-69.006012,-96.570969,-14.955316,90.046227
3920000000,-7.2758098,-37.980293,-68.237289,159.67419,-67.74588,156.13168,-30.217127,-56.208992
3925000000,-6.0795655,-91.318237,-68.651146,55.536442,-68.351257,60.642574,-15.475964,105.16426
3930000000,-19.231508,-50.819458,-68.080414,-34.213707,-68.631813,-36.477154,-20.770464,37.521923
3935000000,-4.0283399,-66.962936,-68.114029,-146.38814,-68.738441,-147.44925,-27.969898,122.87473
3940000000,-14.098272,-91.882919,-69.880821,125.19604,-69.6633,118.60462,-14.673686,63.362598
3945000000,-5.2609248,-71.912895,-69.586533,5.4351072,-69.936951,1.3390378,-25.264662,159.30894
3950000000,-8.1406403,-97.201736,-69.751129,-98.083389,-69.918869,-103.79108,-14.694029,63.771088
3955000000,-12.836843,-62.475494,-68.708435,162.36176,-68.453415,157.64375,-49.675423,147.93216
3960000000,-6.3564248,-72.24353,-69.896545,50.393238,-69.489044,44.586697,-17.210182,99.582481
3965000000,-9.320385,-92.124924,-68.716011,-36.195415,-69.396988,-47.47031,-19.571192,31.127594
3970000000,-7.7093592,-71.064598,-69.416855,-146.94414,-68.58754,-152.18983,-25.405884,135.23672
3975000000,-4.4273982,-110.37594,-70.703842,114.87254,-70.764969,110.18604,-19.01325,47.245064
3980000000,-14.211165,-18.629517,-70.174347,13.108093,-69.251862,9.9918709,-26.320894,49.407379
3985000000,-4.670548,-86.808304,-72.032578,-102.41986,-70.235847,-111.73112,-17.004881,77.076546
3990000000,-11.107198,-91.995163,-74.088112,169.31277,-72.420273,161.12946,-24.456419,-33.310394
3995000000,-6.0251026,-78.07048,-71.844856,32.400036,-70.81572,43.917553,-17.162874,99.269699
4000000000,-5.7013531,-132.95114,-69.064468,-52.493004,-70.241783,-56.124657,-19.422224,18.797001
END

