!CSV A.01.01
!Keysight Technologies,N5247A,US56070710,A.10.64.09
!Date: Friday, November 18, 2022 21:52:54
!Source: Standard

BEGIN CH1_DATA
Freq(Hz),S33(DB),S33(DEG),S34(DB),S34(DEG),S43(DB),S43(DEG),S44(DB),S44(DEG)
3000000000,-3.7110195,-76.292305,-72.987564,136.6669,-73.691795,136.52739,-15.235655,-130.44662
3005000000,-7.0571876,-96.760887,-70.875572,41.222462,-71.130943,37.558697,-17.290581,-147.88353
3010000000,-6.7698512,-68.447159,-70.468773,-70.698303,-70.776367,-76.261307,-15.087334,-151.96916
3015000000,-4.4382768,-95.395119,-74.314713,175.17401,-73.452065,165.62483,-15.586685,-141.51341
3020000000,-8.8824396,-72.038582,-72.129044,74.073372,-72.531136,68.363815,-17.09716,-155.9574
3025000000,-4.4352064,-84.416237,-74.270248,-39.832874,-73.313164,-48.555534,-13.739519,-154.46237
3030000000,-7.1010513,-96.048981,-73.107147,-141.31729,-74.212013,-142.09508,-16.48378,-147.05092
3035000000,-5.8880773,-71.989372,-71.386726,101.98161,-71.853004,104.68123,-14.461013,-167.00349
3040000000,-5.2620063,-103.79661,-72.153313,-9.8897371,-72.487289,-11.185152,-15.141329,-159.23308
3045000000,-7.8823566,-69.281136,-71.136436,-104.78822,-71.820374,-104.25334,-16.465796,-166.4263
3050000000,-4.0827961,-88.990822,-73.357079,174.483,-75.409004,179.47429,-14.52097,-179.14102
3055000000,-8.3105097,-105.76028,-72.8601,34.019905,-73.090744,29.529131,-14.866983,-157.93082
3060000000,-4.7957721,-71.121346,-73.697487,-55.200928,-75.115898,-63.151962,-15.512911,174.41039
3065000000,-5.902648,-113.9537,-75.67067,-147.05107,-76.72963,-152.19279,-14.346975,-169.86363
3070000000,-6.4825306,-70.978516,-75.767639,148.26596,-77.86763,147.71349,-15.623316,-178.20558
3075000000,-4.5888023,-97.908768,-72.52092,11.163853,-72.841614,7.837399,-16.596848,172.45541
3080000000,-10.735188,-96.069786,-74.639458,-107.97596,-73.91185,-112.23267,-14.236385,178.58891
3085000000,-3.1408718,-85.596985,-73.366325,171.69516,-73.059181,175.80174,-18.494232,178.87048
3090000000,-9.4937,-117.87969,-73.340614,36.461826,-73.33194,36.791489,-14.211773,165.17621
3095000000,-5.3462071,-78.471878,-75.288757,-69.583435,-75.673111,-75.418304,-16.002003,-179.25415
3100000000,-5.4535604,-107.17263,-75.417496,-169.06488,-74.19413,-168.14388,-16.233788,161.0824
3105000000,-9.7124586,-82.701401,-69.93,88.736328,-70.601135,84.029091,-15.368885,167.97881
3110000000,-3.8971162,-98.766846,-71.370514,-25.463388,-71.1166,-31.691044,-16.720459,169.7177
3115000000,-9.7066822,-102.04638,-73.074654,-115.33254,-74.486282,-124.8391,-17.617483,159.38283
3120000000,-6.342206,-88.730873,-71.255043,132.35208,-71.387199,127.03493,-15.083887,164.3214
3125000000,-5.4332285,-112.56661,-75.225182,26.915134,-75.18692,25.725639,-17.891806,165.66408
3130000000,-9.292717,-72.349014,-76.79261,-63.194504,-73.896675,-76.470383,-16.039673,151.88522
3135000000,-4.1210852,-110.1098,-74.684067,-164.47514,-75.755569,-159.19365,-16.16264,162.23514
3140000000,-10.647916,-106.23748,-73.588196,71.748459,-73.114113,64.283531,-19.404242,158.06131
3145000000,-5.1228738,-84.335495,-72.442482,-30.039417,-73.757919,-25.582426,-15.541024,147.4444
3150000000,-6.7049899,-133.47951,-75.131889,-137.08635,-74.588387,-133.45752,-17.718691,174.02341
3155000000,-7.3469057,-71.772339,-73.011635,110.33009,-71.983879,114.21957,-17.918667,144.93387
3160000000,-4.8412457,-118.57217,-72.803017,18.520699,-75.034164,11.787754,-16.424259,152.65021
3165000000,-12.126867,-98.749435,-71.323715,-88.74501,-73.10392,-95.011124,-18.617807,160.83803
3170000000,-4.7936625,-97.605438,-75.011612,158.53716,-74.280479,168.53114,-17.878187,136.45064
3175000000,-10.125607,-136.66023,-75.921959,70.151711,-73.126938,58.507114,-16.788521,160.23006
3180000000,-5.7257543,-85.370987,-70.745461,-32.553478,-71.571533,-31.741808,-18.682495,151.66241
3185000000,-7.70506,-131.49191,-72.346336,-146.10159,-72.084007,-151.80965,-17.928221,149.92838
3190000000,-10.533909,-86.831802,-73.92334,106.88518,-73.501556,115.48704,-16.164846,158.98666
3195000000,-4.7585921,-113.02207,-72.779716,6.3233109,-72.910324,-8.6288586,-23.099489,148.99524
3200000000,-14.699149,-128.21599,-74.459969,-92.461815,-75.59668,-92.089287,-15.536361,138.73303
3205000000,-6.5811276,-100.94295,-72.260132,150.82747,-72.507492,152.59209,-20.012581,175.68829
3210000000,-8.522481,-126.9992,-75.174789,29.907593,-74.182137,27.71678,-17.691322,129.48894
3215000000,-10.720689,-91.677788,-72.942108,-52.639027,-72.969284,-53.380936,-17.076479,155.61928
3220000000,-5.9934111,-124.71158,-70.861366,-165.95197,-70.755852,-171.92979,-18.277384,151.2294
3225000000,-15.994217,-114.21243,-71.485199,82.877403,-72.72113,87.785202,-18.717392,135.64218
3230000000,-6.4863811,-103.44311,-69.95652,-5.9135308,-71.451897,-3.2216785,-15.714804,155.03146
3235000000,-9.513526,-150.61569,-70.712868,-97.235107,-70.344521,-102.68913,-23.728889,146.10991
3240000000,-9.0229158,-71.33741,-71.250282,134.55084,-72.36692,146.04591,-15.505842,141.95491
3245000000,-5.0141273,-145.31068,-74.957352,35.612633,-74.172005,37.303368,-18.854923,160.26624
3250000000,-18.609373,-57.501923,-73.665726,-27.983868,-73.980309,-33.933533,-18.969324,139.0986
3255000000,-6.0879116,-114.17401,-74.827225,-149.65025,-74.560524,-160.34502,-16.15189,135.59175
3260000000,-13.715785,-163.37967,-77.093216,96.249634,-77.331848,116.04795,-17.921635,161.12106
3265000000,-7.2835989,-92.211845,-74.826309,-17.015724,-74.134552,-5.8841262,-17.802145,123.29341
3270000000,-9.3922176,-169.22784,-76.646797,-130.78503,-77.044678,-146.30145,-16.164043,156.53357
3275000000,-11.064228,-71.385262,-79.474731,111.65315,-80.595253,115.0239,-19.463758,137.85643
3280000000,-6.9038997,-136.35466,-74.161072,30.306568,-73.486954,36.472355,-16.433771,134.29349
3285000000,-27.209085,178.88452,-71.468605,-82.20369,-71.698624,-86.258881,-16.379263,143.44406
3290000000,-7.2525878,-102.16027,-73.535248,179.16953,-73.037888,179.58505,-19.827656,133.10805
3295000000,-11.773959,-179.19408,-69.996315,75.948112,-69.505295,75.00901,-15.189684,128.64101
3300000000,-12.532379,-77.064415,-69.432144,-28.053577,-69.446968,-34.998978,-18.265755,145.87563
3305000000,-8.1870451,-137.36584,-72.704712,-107.07011,-72.656693,-115.81281,-16.991091,129.93695
3310000000,-24.288078,92.159981,-71.088799,154.37476,-70.866241,148.48477,-16.068821,129.0184
3315000000,-7.6559153,-111.91322,-73.748917,34.545555,-74.218521,32.864445,-17.311737,144.74193
3320000000,-17.125271,166.04083,-75.400063,-70.502747,-74.586784,-72.845062,-16.543118,103.86139
3325000000,-12.900141,-79.986908,-75.925919,164.39104,-75.923508,171.41756,-15.933538,143.23798
3330000000,-8.2366638,-159.45937,-75.589569,37.567184,-75.859467,50.060326,-17.024591,108.21558
3335000000,-13.773873,10.799253,-76.32029,-43.743965,-75.655685,-42.294758,-17.44735,131.34564
3340000000,-7.3747921,-128.28752,-72.964973,-153.62506,-72.977722,-151.74976,-14.624664,118.59394
3345000000,-17.063534,107.87808,-70.811737,118.24639,-71.428497,114.1506,-20.852688,132.55473
3350000000,-10.561593,-91.15435,-70.602684,14.73244,-71.032516,10.026639,-13.72809,106.42146
3355000000,-11.283045,163.88501,-70.275948,-88.314575,-70.934578,-84.428185,-19.950863,137.08153
3360000000,-11.91309,-41.108177,-72.910591,170.00928,-72.712822,166.72147,-16.195505,101.18266
3365000000,-11.117983,-158.83583,-70.94841,66.3722,-71.411346,69.114189,-17.544704,110.47229
3370000000,-23.684353,22.295897,-72.142082,-32.354908,-72.7108,-28.189348,-16.6959,115.88327
3375000000,-12.112741,-100.17794,-74.320183,-130.1989,-73.679306,-141.88103,-17.515875,90.924988
3380000000,-14.049814,124.74629,-72.368828,100.07259,-73.107529,104.31325,-14.95996,115.76156
3385000000,-12.756518,-68.25666,-72.652031,-6.534234,-71.794991,-8.1197014,-21.491697,86.579475
3390000000,-16.524803,-158.35471,-73.990738,-107.23748,-72.912453,-111.84087,-15.635675,98.557549
3395000000,-19.067043,33.871788,-72.439598,144.27679,-72.664063,143.48172,-18.938595,105.88388
3400000000,-11.517348,-105.96606,-69.286331,36.546623,-70.540611,30.35096,-20.136919,97.225151
3405000000,-15.85901,81.099648,-70.548347,-70.777214,-72.522087,-66.183273,-15.951995,83.558029
3410000000,-13.056736,-67.616432,-71.06015,-168.19307,-71.520561,-163.85445,-19.711388,115.79512
3415000000,-18.034277,162.81277,-69.699104,80.324791,-70.834427,80.909966,-17.164728,67.703346
3420000000,-12.575582,-3.8295867,-71.046616,-4.5049982,-71.671768,-5.530654,-18.573215,103.79609
3425000000,-11.918156,-133.62756,-68.986244,-107.4525,-69.446648,-100.70326,-20.429401,85.563004
3430000000,-11.04572,31.968138,-72.045273,144.56291,-71.782936,145.51834,-19.885769,69.36705
3435000000,-12.306044,-90.949677,-72.237358,42.797878,-72.404068,46.876522,-17.167965,106.04745
3440000000,-14.372651,99.133041,-70.773499,-70.68721,-70.73864,-68.946625,-24.300367,37.220295
3445000000,-8.071249,-31.09889,-75.604279,-174.14568,-73.581856,172.08388,-16.492456,83.106743
3450000000,-13.693007,173.0062,-69.763817,66.167084,-70.723846,62.811424,-25.18503,79.470734
3455000000,-10.184614,-2.3722548,-70.206337,-46.882652,-69.41861,-41.440678,-21.89781,73.263748
3460000000,-17.171078,-100.52493,-70.663429,-161.12007,-71.532761,-165.45256,-18.828381,68.762688
3465000000,-12.354982,46.86293,-71.391235,117.07565,-69.813194,114.61978,-22.882339,133.92802
3470000000,-10.060835,-57.680653,-68.972122,2.4430871,-68.615562,-2.9591935,-18.90634,38.686489
3475000000,-18.145817,105.96159,-69.90255,-98.817505,-69.871475,-102.80141,-19.915619,119.30319
3480000000,-10.15032,-17.86071,-73.978493,156.78062,-72.254936,154.04837,-23.93993,16.305702
3485000000,-20.259237,-85.504463,-69.657341,41.299889,-70.292839,43.651031,-21.788563,78.645866
3490000000,-12.711327,39.839088,-71.538185,-47.011101,-70.375946,-47.758228,-22.506025,95.992584
3495000000,-9.1826677,-52.764793,-70.554359,-145.80554,-71.472328,-140.8069,-32.621441,-1.5882095
3500000000,-17.90229,87.544533,-73.044922,107.35287,-72.444275,113.26903,-17.386312,79.301308
3505000000,-9.6022568,-21.23167,-73.354195,2.1758907,-73.032295,2.9028399,-28.877827,176.13457
3510000000,-18.741611,-121.65115,-72.430206,-103.22295,-72.272667,-103.03446,-21.482431,60.746002
3515000000,-7.1429553,17.426216,-75.272919,141.29726,-73.37262,134.9635,-27.788891,109.07488
3520000000,-9.1398144,-93.273758,-74.684219,29.54146,-74.855042,23.117907,-27.478046,118.25074
3525000000,-10.425891,54.050419,-74.973503,-82.687279,-74.309593,-83.170151,-24.252302,35.865147
3530000000,-7.3488417,-42.032871,-71.595673,-179.06931,-72.181427,171.38593,-18.982752,117.86039
3535000000,-22.684795,143.00186,-72.304512,72.448212,-71.960358,64.117691,-34.522987,-28.738096
3540000000,-6.897572,-13.348324,-72.678474,-33.19659,-73.392799,-39.840782,-19.785908,89.162148
3545000000,-18.040174,-115.76257,-73.539444,-129.64604,-73.214211,-123.44215,-27.443731,148.1442
3550000000,-8.188796,6.3361473,-72.466507,123.72626,-71.674316,129.93367,-30.398869,98.8414
3555000000,-10.911444,-59.491718,-70.843651,29.468246,-71.617653,28.602531,-22.882404,90.768417
3560000000,-18.537598,44.139614,-72.574326,-62.892384,-73.155533,-66.12616,-24.231838,150.96584
3565000000,-7.8507323,-28.683319,-73.164406,-149.08192,-73.711388,-152.15956,-24.865877,53.977272
3570000000,-22.475214,-36.552097,-73.087875,99.826637,-73.392792,92.179062,-22.603819,113.67899
3575000000,-9.5932016,-5.8513088,-75.971207,-15.61095,-75.310226,-17.407572,-25.770142,112.46426
3580000000,-10.640001,-60.907784,-81.965279,-95.131447,-78.184036,-117.38081,-29.752071,66.198875
3585000000,-12.853603,33.506161,-80.558578,130.71289,-76.752136,133.34433,-18.052114,114.78459
3590000000,-7.9424005,-43.658253,-81.945724,22.79541,-82.719368,17.414192,-30.73082,-104.87373
3595000000,-23.03698,4.348732,-79.857422,-105.00969,-78.029861,-117.21748,-18.079937,83.797813
3600000000,-7.6095467,-5.4569693,-76.21209,177.60493,-76.011978,160.57532,-26.362152,146.46828
3605000000,-9.8140316,-82.441643,-73.191193,66.390762,-71.703354,54.430386,-27.208574,86.25177
3610000000,-8.7475405,30.634802,-70.378807,-29.241629,-70.669922,-27.750364,-22.082439,70.17186
3615000000,-7.9393873,-61.807354,-69.150574,-138.15402,-69.24157,-140.00842,-20.862179,138.70854
3620000000,-15.701118,43.089596,-70.619362,131.27766,-70.182289,124.8353,-23.499077,31.58952
3625000000,-5.0077615,-25.216682,-68.681274,38.5229,-69.011513,34.983524,-17.862129,111.78716
3630000000,-16.563044,-137.47137,-71.21067,-71.571129,-70.618301,-73.317902,-44.452694,162.32704
3635000000,-6.2689219,-2.9294193,-70.169098,-170.10527,-70.877937,-164.59364,-21.455305,68.308823
3640000000,-12.449805,-66.512497,-72.339676,85.469276,-73.414497,78.426643,-21.437889,119.2574
3645000000,-11.111656,16.603964,-73.614052,-29.018715,-72.096199,-32.624851,-42.81834,-68.672699
3650000000,-6.8879809,-44.006409,-73.459,-158.36841,-73.614792,-153.49911,-19.217087,73.287483
3655000000,-24.118227,16.594284,-72.28009,107.9639,-71.156509,105.22635,-27.279015,141.15904
3660000000,-7.3672566,-19.253437,-69.643021,-5.2395797,-70.291161,-17.500441,-24.485771,57.984749
3665000000,-13.46041,-47.589607,-70.46994,-108.40472,-70.553978,-112.75349,-24.415497,71.418755
3670000000,-11.132912,5.0503869,-68.90609,139.34706,-69.362099,140.86324,-22.350388,130.38348
3675000000,-7.1304674,-44.834515,-69.653915,35.996868,-69.368675,31.157038,-24.071144,-4.3411298
3680000000,-18.082054,41.365906,-68.287224,-53.150387,-68.522255,-54.12389,-18.199686,114.44125
3685000000,-5.9292154,-24.903061,-69.615463,-161.6226,-69.513512,-165.82498,-27.220446,-67.309044
3690000000,-15.570841,-71.661377,-69.272667,89.238792,-69.483498,105.89932,-21.894215,65.280037
3695000000,-7.2789764,11.584052,-71.239021,-17.640898,-71.382072,-17.777168,-27.37125,93.533554
3700000000,-7.8317194,-68.597076,-71.738457,-120.66652,-73.079956,-115.11239,-35.747456,-136.84839
3705000000,-9.9238529,31.495054,-73.769341,126.52486,-74.610008,112.5964,-20.388824,51.666241
3710000000,-5.7650118,-42.213356,-72.025467,-5.3002081,-72.668045,7.0012898,-22.631519,166.03584
3715000000,-26.995214,-5.598187,-71.072624,-92.182114,-71.032516,-93.46299,-24.050941,18.209013
3720000000,-5.1116023,-11.525412,-69.911102,161.76712,-70.749863,162.41891,-23.454018,121.14886
3725000000,-14.859182,-85.435921,-69.759117,47.553917,-69.722923,53.18026,-39.482876,-173.26434
3730000000,-5.2301545,3.2032833,-72.119156,-39.368671,-71.213181,-44.260624,-29.478775,-1.6715531
3735000000,-8.7795458,-65.077408,-72.823158,-143.5184,-71.747932,-136.26813,-20.448668,112.0871
3740000000,-13.327928,25.501097,-72.388206,107.12239,-72.286896,110.17513,-25.241117,-119.61861
3745000000,-4.7884951,-24.020008,-73.711197,10.810438,-73.425186,18.207148,-23.172615,69.856354
3750000000,-17.257784,-50.731106,-75.717316,-61.587856,-73.504585,-72.785774,-26.14447,158.80765
3755000000,-7.0613976,-6.9161468,-73.456139,152.39557,-74.432236,162.97498,-34.465279,-175.35951
3760000000,-8.4080763,-45.122597,-75.599297,61.555237,-75.353012,56.692799,-26.583153,67.204277
3765000000,-12.110547,9.9957542,-72.407761,-54.141422,-71.047806,-48.585007,-20.721766,178.06389
3770000000,-5.8889585,-29.544319,-74.400368,-156.75073,-75.076767,-159.74794,-27.704365,-3.9784572
3775000000,-13.691887,-23.071264,-72.122833,102.97787,-72.769913,99.365814,-20.681231,123.70813
3780000000,-6.1780119,-10.717498,-72.485588,-14.021461,-71.699974,-11.596799,-26.809412,-173.91388
3785000000,-9.4064159,-62.933632,-73.589157,-105.47517,-73.34819,-114.67467,-32.635204,40.841095
3790000000,-6.5499125,21.214476,-73.9095,145.14876,-75.461983,165.22296,-18.73996,124.70434
3795000000,-4.4968858,-54.829597,-74.794098,47.595184,-72.591019,43.552311,-23.008808,-135.82933
3800000000,-11.789223,25.287872,-72.510292,-68.322914,-72.161385,-67.843895,-22.005816,89.46756
3805000000,-4.7056241,-27.911499,-75.158676,-163.35419,-75.613182,173.85297,-21.397074,165.56131
3810000000,-15.493439,-49.270023,-74.133392,86.153564,-73.128159,96.911545,-28.519007,114.15376
3815000000,-3.3232934,-6.2904878,-72.883369,-16.880716,-72.400734,-10.128519,-26.017273,110.5775
3820000000,-8.5696287,-72.212509,-75.839828,-108.78345,-76.369957,-117.56217,-19.04241,145.33795
3825000000,-7.020256,11.34936,-73.970131,147.41078,-73.932816,160.45584,-34.827885,-23.335978
3830000000,-4.7716322,-37.076542,-73.685509,35.517952,-74.618637,30.602119,-15.202661,119.63032
3835000000,-13.476561,-9.2957373,-76.187691,-64.614174,-75.01976,-63.800468,-21.562738,-151.9194
3840000000,-3.637923,-25.244194,-73.614845,-170.08736,-73.947739,-170.25058,-21.978016,100.08247
3845000000,-12.135756,-48.092213,-74.720978,86.776596,-76.0755,96.205093,-21.8948,115.00047
3850000000,-5.7113991,-5.2624211,-73.765495,-3.4368093,-73.924355,-10.706333,-21.557945,171.61914
3855000000,-4.8581505,-44.304161,-76.902565,-134.86235,-75.125366,-126.724,-20.325581,58.761894
3860000000,-11.213573,8.9755116,-76.564392,141.69753,-76.65419,130.49614,-16.730865,147.13377
3865000000,-2.9288392,-33.10936,-74.256355,35.131462,-74.205322,29.562418,-26.805117,57.591732
3870000000,-12.143907,-46.975346,-77.587326,-90.306671,-74.926926,-82.120277,-18.48835,116.48895
3875000000,-4.5559578,-5.3574047,-77.533325,-179.16563,-78.107796,177.9576,-20.163141,126.14705
3880000000,-5.1737528,-57.359909,-72.864021,77.068863,-73.084351,98.542328,-33.289471,103.53687
3885000000,-6.7228408,11.066216,-72.020035,-38.492966,-71.281258,-19.262688,-16.684858,97.900726
3890000000,-2.5887377,-49.105602,-75.077866,-109.66113,-74.439606,-127.96958,-21.203621,176.36998
3895000000,-17.664394,-8.0457163,-74.489365,156.09502,-73.529488,148.59872,-19.128302,55.108521
3900000000,-1.2623808,-18.170782,-73.710754,35.39481,-73.618195,51.385326,-16.911007,118.98846
3905000000,-7.6140084,-78.470581,-75.866478,-58.561249,-75.346161,-74.777428,-30.600134,130.98865
3910000000,-3.4583814,2.4582281,-74.030334,179.64,-74.089546,173.68852,-17.629309,70.696533
3915000000,-3.7922311,-62.435841,-75.501564,80.390831,-75.452263,86.737335,-18.048885,132.06636
3920000000,-8.6817379,4.1363487,-73.675858,-54.344578,-75.223618,-38.250198,-26.720751,34.22797
3925000000,-1.8727785,-34.288109,-80.074501,-146.59468,-74.692711,-163.63956,-17.042879,96.639519
3930000000,-10.847349,-61.485043,-74.424774,127.04218,-74.128059,117.12142,-23.497393,121.66369
3935000000,-3.4135935,-18.760593,-73.171783,25.38826,-73.072998,19.066048,-24.691175,42.277233
3940000000,-5.0957451,-46.983181,-73.761749,-94.604347,-74.54821,-85.667145,-15.891197,83.931633
3945000000,-8.1644621,-16.695532,-73.920471,174.24318,-72.49749,167.94994,-27.100454,172.26305
3950000000,-1.6695282,-40.497009,-72.279327,66.66288,-72.540764,64.510803,-16.168034,53.054405
3955000000,-13.359647,-62.722099,-72.085693,-41.462879,-72.539955,-50.976379,-19.307199,134.73625
3960000000,-2.2185476,-16.674644,-73.218216,-141.50296,-73.543823,-148.66307,-23.502871,44.865421
3965000000,-3.9930675,-63.723843,-73.20166,112.99419,-73.537186,106.17493,-19.644585,76.475815
3970000000,-6.7450213,-7.3430543,-75.789246,14.050397,-73.433258,-2.9950676,-22.546751,110.79845
3975000000,-1.5763314,-54.313705,-73.227371,-98.533493,-74.489128,-104.93696,-24.366632,8.3279495
3980000000,-13.892736,-3.6310344,-74.802727,137.07495,-73.912186,133.05075,-17.261587,78.592255
3985000000,-0.76811808,-32.689915,-75.71051,51.327839,-75.391243,55.691147,-30.799536,122.24606
3990000000,-6.3971124,-75.701042,-74.746223,-60.496838,-74.453056,-57.08427,-22.470421,41.420307
3995000000,-3.5386786,-13.004136,-72.808037,-159.77246,-72.300781,-162.84497,-18.905926,80.36824
4000000000,-3.8900321,-68.498802,-73.872032,83.631569,-73.395973,80.694221,-38.318344,177.40472
END

