!CSV A.01.01
!Keysight Technologies,N5247A,US56070710,A.10.64.09
!Date: Thursday, November 10, 2022 01:17:34
!Source: Standard

BEGIN CH1_DATA
Freq(Hz),S33(DB),S33(DEG),S34(DB),S34(DEG),S43(DB),S43(DEG),S44(DB),S44(DEG)
3000000000,6.1710262,23.64131,-59.624023,-107.00763,-58.565384,-116.42507,-16.061579,-137.58041
3005000000,5.6040196,-74.831413,-62.782356,172.4129,-63.241467,173.53262,-15.668982,-137.35738
3010000000,6.8019485,177.8445,-66.8069,54.966465,-68.013313,50.366737,-15.758713,-140.11501
3015000000,7.3636298,103.51857,-64.643982,-100.77251,-62.759048,-89.428391,-15.879204,-144.12378
3020000000,5.7741199,-8.962368,-62.19817,120.3387,-61.814487,111.66968,-15.61589,-144.52663
3025000000,6.2823553,-105.48003,-60.277004,50.956604,-60.112774,49.93531,-15.366518,-145.78555
3030000000,6.5527129,157.40686,-59.669746,-42.974724,-60.886997,-44.766544,-15.317084,-150.45227
3035000000,8.4518147,66.935371,-61.199688,-101.63315,-58.278671,-98.054832,-15.433711,-154.84497
3040000000,3.8664243,-33.090694,-72.781387,176.34201,-73.168922,179.50688,-15.445537,-159.33693
3045000000,6.9341245,-140.0898,-68.65062,-12.416082,-68.501236,-12.856277,-15.116656,-163.28017
3050000000,7.474659,134.62772,-70.815346,-132.54831,-70.164391,-136.19356,-15.060369,-162.56784
3055000000,6.981905,42.026783,-60.926785,147.41997,-59.936958,144.31599,-15.449704,-162.45267
3060000000,5.0896292,-59.532341,-61.763947,65.40152,-61.716953,59.797302,-15.345031,-168.07475
3065000000,6.8396683,-170.20395,-64.125359,-29.874962,-64.244873,-34.129993,-14.874052,-172.00148
3070000000,7.5335016,113.6696,-75.787804,152.81311,-73.158394,151.6763,-15.223528,-171.009
3075000000,6.2088094,5.8044848,-65.938034,39.824451,-64.833893,28.740839,-15.910422,-173.42076
3080000000,4.7599478,-92.440407,-64.768684,-47.590015,-64.921516,-44.546707,-15.990182,-177.33162
3085000000,6.0808992,165.79744,-58.922443,-123.90285,-59.670101,-123.54823,-15.796579,-177.36635
3090000000,8.4832983,85.769676,-61.796181,167.47289,-59.855335,176.35555,-16.01227,-177.53717
3095000000,4.5631747,-15.793606,-66.225632,77.965469,-66.501549,74.584038,-15.999341,177.47913
3100000000,6.0831189,-124.28417,-68.128761,-125.79694,-68.354095,-121.23804,-15.948886,173.73553
3105000000,7.1273422,141.21198,-63.658775,125.91763,-63.761993,138.13661,-16.160908,173.14072
3110000000,7.6521149,55.514114,-62.702194,53.137466,-60.576321,48.873299,-16.495586,172.1265
3115000000,4.6435299,-42.391598,-63.09185,-36.32534,-63.674709,-41.672554,-16.494566,171.64493
3120000000,6.6484613,-157.48303,-71.465698,-69.276451,-70.089577,-71.742027,-16.481638,172.50545
3125000000,7.1527672,123.9183,-64.814377,139.49904,-64.777718,142.55855,-16.540833,171.50406
3130000000,7.6602521,22.205675,-65.374428,43.06559,-64.733086,39.583359,-16.914932,167.60149
3135000000,4.3430896,-73.963562,-68.303673,-117.25454,-68.492889,-108.21783,-17.405712,163.94292
3140000000,6.0136681,175.6087,-63.385033,141.16386,-63.825954,136.91943,-17.69552,162.42987
3145000000,8.7029448,96.92662,-65.944473,35.11636,-64.798515,42.324818,-17.61092,162.51802
3150000000,5.7236896,0.22336233,-63.438354,-30.124454,-64.042595,-40.137012,-17.4158,163.05486
3155000000,5.7404976,-103.75388,-66.691109,-113.10866,-66.531754,-113.78476,-17.220026,162.98116
3160000000,6.7044029,150.9433,-78.118065,28.996012,-77.571098,27.927263,-17.17523,160.73256
3165000000,8.5489693,71.420357,-66.367722,-98.734772,-65.486443,-99.193672,-17.583673,159.08051
3170000000,4.8161464,-26.191378,-64.431183,-165.16968,-64.84137,-173.54105,-18.019506,159.66286
3175000000,5.6436048,-140.47923,-64.818619,136.14613,-64.133827,133.12938,-18.060331,161.51834
3180000000,7.0989122,132.57448,-65.197624,60.427307,-65.477524,75.333862,-18.01564,162.44514
3185000000,9.2029009,34.416836,-69.336617,-17.753513,-67.114616,-29.67972,-18.119095,164.11258
3190000000,4.3932104,-54.233044,-73.817322,3.435189,-73.870934,24.621685,-18.33135,161.31883
3195000000,5.7988701,-173.54007,-64.171783,-69.008614,-63.975803,-69.743988,-18.619394,155.15837
3200000000,8.4193373,105.01698,-64.020432,-124.45202,-62.422855,-112.37272,-18.44902,152.38118
3205000000,6.5675206,7.972898,-68.277626,-175.93579,-68.021179,168.19168,-18.631182,158.1925
3210000000,6.8054018,-80.432251,-69.608391,155.74326,-68.737358,163.66298,-18.788252,158.49541
3215000000,7.8430367,160.09325,-83.304649,55.501663,-85.982727,90.443878,-18.421297,153.91391
3220000000,11.220154,83.017654,-91.087013,80.354721,-81.359222,78.479797,-17.476576,154.78621
3225000000,7.4302621,-19.512039,-69.512238,8.8839693,-69.785439,-4.5853834,-17.650274,158.01889
3230000000,7.6603656,-123.45828,-68.746445,-44.012573,-67.624825,-39.091408,-18.513004,154.90855
3235000000,7.2244277,138.08455,-70.972549,169.77092,-71.956322,176.80305,-18.542458,152.94246
3240000000,11.223673,42.442383,-80.28257,-42.602829,-75.58567,-67.584068,-17.926352,157.11482
3245000000,6.5298729,-40.366737,-70.19017,-142.87634,-71.459244,-148.29247,-17.993925,158.43002
3250000000,7.48564,-160.60942,-71.673088,125.43106,-70.08049,109.93008,-18.195154,154.93745
3255000000,9.2149162,120.82904,-65.893845,93.012596,-65.637566,116.96593,-18.001791,152.18124
3260000000,9.593689,11.052729,-84.445335,16.029083,-83.160233,-6.5141711,-17.877575,149.22833
3265000000,7.5263205,-69.142914,-71.062302,167.7619,-70.788681,159.83847,-17.78854,147.55692
3270000000,7.6568632,168.03114,-72.045425,83.96994,-72.286003,83.191811,-17.628126,151.40466
3275000000,11.471609,91.080864,-72.882538,-48.68898,-69.285065,-35.913132,-17.639023,152.68752
3280000000,8.3540878,-13.635575,-70.950516,-164.56961,-71.946693,177.9765,-17.591887,147.78801
3285000000,7.5658927,-99.538902,-66.345512,153.13748,-66.753807,153.8575,-17.130264,145.0618
3290000000,7.0162907,146.83176,-66.605476,10.74297,-68.508423,13.994925,-17.078451,146.10799
3295000000,12.451079,46.856945,-72.047905,-108.98526,-67.334221,-128.54625,-17.496504,143.2634
3300000000,7.4777479,-32.214783,-69.314049,146.3988,-69.593117,144.05981,-17.587423,141.99657
3305000000,8.5578175,-145.94678,-66.124878,29.381578,-67.282112,26.934904,-17.391861,144.02267
3310000000,9.1844645,124.78424,-72.753227,-71.292267,-72.911507,-49.209488,-17.414097,140.13431
3315000000,10.802444,17.833956,-66.177132,-168.61472,-65.346992,174.28285,-16.948647,134.56474
3320000000,7.8225369,-52.585484,-67.090866,88.931458,-68.640266,94.668465,-16.865408,136.26541
3325000000,7.3157263,178.52695,-62.880299,-16.524193,-63.407318,-21.101063,-17.487246,134.73466
3330000000,10.392907,99.905861,-67.931755,-152.78537,-65.49749,-145.12495,-17.459208,127.39729
3335000000,9.0532589,-6.2620049,-70.633301,115.99895,-69.570358,100.3917,-16.704115,129.56395
3340000000,8.5681438,-85.840462,-62.786942,-20.30121,-62.217537,-16.785692,-16.775482,133.51164
3345000000,6.5598097,157.78442,-62.077682,-106.40008,-64.084778,-107.52323,-17.270258,127.59843
3350000000,12.950388,59.409779,-70.562508,-163.66106,-65.380531,-159.76228,-16.97847,121.31515
3355000000,7.8316393,-24.076059,-64.913803,51.682041,-66.325386,43.282726,-16.844751,123.24915
3360000000,8.7714481,-126.63866,-64.836143,-74.564758,-63.975716,-79.447166,-17.50642,122.24853
3365000000,8.1443729,133.67606,-71.418411,122.20345,-71.601135,132.80803,-17.822626,117.78195
3370000000,11.436877,26.2533,-62.421619,46.889675,-60.704662,29.527155,-17.62851,116.5547
3375000000,9.1255169,-46.525482,-62.273396,-55.862221,-62.963154,-54.298302,-17.446814,114.56822
3380000000,7.7057514,-164.92661,-65.336761,-124.50182,-65.938271,-131.16357,-17.379971,110.07975
3385000000,9.4208298,110.79066,-66.761864,142.75288,-65.037544,157.91937,-17.660452,108.88833
3390000000,9.5133934,-0.73144329,-71.051598,139.86476,-71.475235,110.92844,-18.085012,107.1186
3395000000,8.2924538,-70.291252,-69.556335,176.65541,-69.444801,-179.34143,-18.15737,105.57292
3400000000,6.6339869,167.58438,-66.805611,85.856049,-67.419182,85.954849,-18.222755,106.63612
3405000000,12.371758,74.309181,-66.456985,34.990711,-63.20871,38.123848,-18.806536,107.06662
3410000000,8.8062449,-18.679241,-68.181953,-20.313454,-69.684555,-29.789579,-19.021048,100.63157
3415000000,10.328137,-111.49596,-67.098236,-60.032425,-65.406929,-60.319832,-19.09054,96.444328
3420000000,7.2509398,139.40414,-75.159653,-168.23506,-74.055885,-158.54086,-19.809118,96.974556
3425000000,11.59942,37.716972,-84.043945,149.76642,-79.619431,115.78631,-20.664118,93.529785
3430000000,8.9143896,-41.365654,-77.205627,-167.43634,-76.605995,-173.27477,-20.206541,88.268326
3435000000,8.7908306,-153.00621,-69.87056,107.11954,-70.946678,105.10174,-19.953928,90.199577
3440000000,8.4592419,118.78139,-64.194252,83.794022,-63.523277,98.002853,-20.436581,91.332489
3445000000,10.592299,3.4421184,-67.420822,28.860466,-66.704071,6.9650812,-20.84923,85.219147
3450000000,8.9961748,-64.720253,-68.555153,-101.46566,-68.879311,-93.297462,-20.749191,83.006676
3455000000,7.0280166,174.2507,-83.157394,113.23431,-82.527725,117.1781,-21.407646,89.393448
3460000000,10.850052,82.558205,-67.265839,-17.738569,-65.043243,-19.905678,-22.623024,93.543938
3465000000,9.2504768,-16.504654,-65.934181,-109.00724,-67.309196,-122.2605,-23.627501,88.287224
3470000000,10.422797,-99.322029,-63.316845,157.74872,-62.637882,159.59497,-23.530439,85.394386
3475000000,7.1619086,148.44498,-71.005592,50.024639,-72.298401,58.107746,-23.876204,85.661263
3480000000,11.529585,46.37841,-67.323372,-25.332125,-64.927917,-41.293339,-24.937395,79.068184
3485000000,9.3242397,-38.620083,-70.227501,-153.94533,-70.856277,-152.82117,-24.786415,75.912949
3490000000,9.0963211,-137.05519,-67.697433,64.435249,-66.754715,60.481812,-24.370193,87.539543
3495000000,7.4561124,127.79562,-66.221558,-30.64139,-66.425629,-19.262217,-25.248177,96.616539
3500000000,11.141505,11.631953,-65.085709,-146.12129,-63.082222,-164.37509,-26.281256,93.803139
3505000000,8.6836109,-56.133251,-67.870735,136.69868,-69.845009,136.38699,-25.665165,89.191582
3510000000,7.9197459,-171.71042,-75.210602,33.552719,-74.89389,16.422541,-25.884159,94.82962
3515000000,9.2188177,95.611214,-67.752953,-81.684738,-65.663277,-73.446892,-26.758793,101.80441
3520000000,9.0881844,-8.2947636,-70.306587,148.81709,-70.537376,136.70018,-27.016813,110.38894
3525000000,9.8605576,-83.919525,-66.198715,45.081509,-65.588814,44.191486,-27.773392,117.6471
3530000000,6.5614352,161.26651,-63.659451,-88.559326,-64.437149,-90.41378,-29.615412,113.33549
3535000000,10.991532,63.273937,-67.320732,-122.68092,-64.342438,-123.88316,-27.719,97.856354
3540000000,8.6909008,-30.899828,-68.861084,84.96769,-69.850677,81.13237,-26.455582,102.58329
3545000000,9.5639153,-116.97498,-71.805077,34.486275,-72.227989,37.384373,-27.919851,112.36991
3550000000,6.2949085,137.20895,-78.765366,-173.1646,-76.763412,-150.42151,-28.237436,109.19077
3555000000,10.372868,24.332541,-69.09745,77.219521,-66.549431,55.667782,-26.032545,109.01235
3560000000,7.9824772,-50.426407,-71.452507,-37.303257,-73.194977,-35.407757,-25.850601,116.04131
3565000000,8.3961515,-160.90184,-68.888107,-92.309799,-69.650169,-99.684608,-26.066935,111.44983
3570000000,8.0806332,107.52016,-69.6576,-134.18394,-69.338791,-118.35023,-24.300396,104.78664
3575000000,9.2468996,-3.8817728,-73.425774,150.44386,-72.510086,135.90082,-23.900434,118.66498
3580000000,8.9561348,-73.82151,-70.943703,125.38004,-72.736786,133.32779,-25.533689,135.21239
3585000000,6.734684,171.80818,-81.090874,136.73936,-79.957306,112.77844,-26.975252,123.52817
3590000000,9.1076984,80.787865,-74.174545,11.1203,-72.21936,24.087347,-25.62528,111.46607
3595000000,8.7901278,-24.471281,-71.534752,31.652479,-73.018555,22.587078,-25.699694,118.15047
3600000000,9.5894728,-103.00162,-67.196373,4.2074881,-67.122192,9.9946098,-26.777626,106.76804
3605000000,6.1595225,147.41689,-71.08461,-111.24443,-72.26725,-106.28326,-25.169767,95.269493
3610000000,10.359256,44.281689,-70.600296,-160.34802,-68.663963,-172.78728,-24.551229,103.92505
3615000000,8.040431,-43.7686,-70.328827,75.408882,-72.286659,71.3955,-24.882309,113.0816
3620000000,9.3291788,-142.21898,-75.086815,-122.58066,-73.230553,-128.93744,-24.330921,105.97357
3625000000,6.9930029,121.49539,-68.589928,-153.99066,-69.32251,-146.71318,-24.110712,107.7279
3630000000,10.008083,14.2035,-65.818336,109.20233,-65.38781,98.74054,-25.389023,110.65829
3635000000,8.6245441,-59.010883,-71.868614,23.549883,-74.218285,17.455904,-26.285492,100.9603
3640000000,7.4982219,-172.00714,-67.211624,-121.62738,-67.042213,-133.91647,-25.695242,96.745918
3645000000,7.826323,99.394722,-69.676384,131.36974,-69.607025,144.4893,-26.013086,106.6304
3650000000,9.194561,-13.83971,-68.437714,13.885666,-68.510735,-4.8440928,-26.407793,107.38947
3655000000,9.2093849,-84.197159,-68.382408,-53.648083,-69.690262,-57.081982,-26.49168,98.513443
3660000000,6.5898795,161.69807,-68.250008,154.92043,-69.522064,155.70537,-27.15373,92.505478
3665000000,9.5732336,60.180996,-67.797264,72.378517,-65.790459,72.834351,-27.308939,87.060417
3670000000,7.8574963,-35.133457,-61.717113,-36.329254,-63.742016,-43.67392,-26.532181,87.059242
3675000000,9.8172121,-121.17151,-66.760338,-150.26526,-66.199196,-150.35002,-27.054144,97.701073
3680000000,6.4066901,134.98392,-66.268082,138.25017,-66.957993,143.79218,-28.263075,107.13886
3685000000,10.332586,28.499685,-71.878265,-14.621022,-69.884605,-16.624153,-28.553522,99.477821
3690000000,8.9725657,-56.598686,-73.000648,-121.93268,-72.377419,-124.09505,-28.313576,95.758766
3695000000,8.3889322,-156.48537,-65.417778,146.24205,-65.226097,140.96446,-30.415482,102.10185
3700000000,6.7642341,112.59207,-63.658173,36.01199,-64.200478,43.629635,-33.838318,98.921608
3705000000,9.8433456,-4.3036995,-64.467766,-45.736172,-63.400917,-58.636066,-33.827087,82.237663
3710000000,8.2106962,-72.898689,-67.017365,-128.2459,-68.682663,-125.26242,-32.162754,94.223503
3715000000,7.1271162,173.5609,-67.026344,62.417042,-67.845673,55.709164,-31.84409,105.21127
3720000000,8.6021967,77.23439,-65.788849,-37.66391,-64.367867,-32.393787,-32.407558,105.83776
3725000000,8.4091749,-26.2626,-62.698982,-135.65175,-63.838192,-147.34811,-32.861248,100.71694
3730000000,9.8160172,-104.02849,-60.914879,127.3177,-59.942852,129.18098,-33.382652,111.90916
3735000000,5.9585896,149.1232,-61.751049,37.791084,-62.712784,36.779961,-33.752987,122.5851
3740000000,9.2968502,49.652321,-70.165085,-97.288712,-67.709984,-90.259819,-31.594143,130.70917
3745000000,8.7415352,-44.436066,-64.908318,173.62178,-65.103889,173.19354,-29.353016,139.79234
3750000000,9.3819513,-135.23941,-63.765644,31.08618,-63.538677,30.606686,-29.74024,155.1134
3755000000,5.8965335,126.37222,-62.453789,-54.150364,-63.577007,-50.326195,-32.580738,158.09616
3760000000,10.223289,9.1428785,-60.363834,-133.63675,-58.82798,-147.88237,-32.8111,146.19514
3765000000,8.2620525,-63.273304,-61.199528,117.43635,-62.802059,120.12485,-31.001877,151.47884
3770000000,8.3942881,-169.23605,-66.191628,-2.900682,-66.679886,-12.578496,-30.489544,159.5491
3775000000,7.4019809,95.42498,-66.334114,-115.20319,-65.543404,-106.11039,-29.545158,147.1185
3780000000,9.3567905,-18.996634,-61.849285,125.59756,-62.400455,111.53195,-27.280748,142.88496
3785000000,9.9341288,-84.427353,-60.13583,43.659996,-60.754364,50.070045,-26.478493,150.02483
3790000000,7.4424105,163.78664,-61.58572,-46.414146,-62.074287,-51.01255,-26.540541,153.99373
3795000000,8.6006184,72.681946,-60.521793,-154.19966,-59.330444,-148.54907,-26.079378,154.49763
3800000000,8.97264,-39.514549,-64.400826,79.889084,-64.570847,71.518509,-25.812172,159.69542
3805000000,9.9003029,-116.67981,-61.718689,-25.056265,-61.359924,-18.562773,-25.485395,157.24147
3810000000,6.425921,136.70532,-60.953419,-149.80249,-62.459282,-144.20119,-24.467756,151.377
3815000000,10.736028,26.070841,-62.213619,130.55402,-60.531364,116.95879,-24.783028,155.04079
3820000000,8.4083834,-56.5905,-59.979046,29.059912,-61.922279,29.010229,-26.99098,153.34428
3825000000,9.9263268,-154.55478,-62.637081,-81.542442,-61.795586,-90.493523,-25.696014,135.07039
3830000000,5.9987001,110.36938,-63.914829,-171.37158,-65.211746,-159.58861,-23.347406,137.32625
3835000000,9.993206,-5.4991035,-60.331959,44.428043,-59.490829,31.978281,-23.42375,147.84178
3840000000,9.4380894,-77.158363,-60.471355,-41.615253,-61.665676,-39.436352,-24.205168,140.69389
3845000000,8.444993,175.81691,-59.217182,-152.39589,-59.297886,-156.94504,-23.000523,130.80357
3850000000,8.137845,86.605911,-61.818695,110.54731,-61.258125,119.11634,-22.739347,133.98747
3855000000,9.3563967,-30.731979,-61.674618,19.712688,-62.511089,3.634531,-23.416168,136.38043
3860000000,10.265827,-98.724464,-62.692795,-104.96732,-62.454391,-95.033417,-22.941833,129.66913
3865000000,6.5862164,151.06816,-63.704048,142.86478,-64.404015,138.05379,-22.337505,130.08665
3870000000,9.1805773,50.043633,-62.520634,49.289078,-60.502171,54.303207,-22.560385,132.07431
3875000000,8.5188961,-51.939346,-60.960327,-73.463112,-63.000172,-78.961266,-22.402897,126.89102
3880000000,11.04705,-134.28229,-60.900227,-173.22249,-60.253242,-174.56264,-22.468592,121.22519
3885000000,6.2417469,126.68944,-62.165955,84.493835,-62.691135,87.055756,-23.27906,117.90353
3890000000,10.181437,13.539444,-62.807621,-4.0073919,-61.088612,-14.300654,-22.413776,112.61008
3895000000,8.7142057,-68.747223,-63.55798,-121.70278,-64.733643,-120.74649,-20.887968,114.03056
3900000000,9.8540611,-166.9377,-61.480938,116.123,-60.186077,118.15243,-21.159208,118.9559
3905000000,7.3793197,99.243111,-63.602604,23.356285,-63.406101,29.981228,-22.06348,119.04438
3910000000,9.7960081,-20.100868,-61.77813,-82.977638,-61.513718,-92.952927,-21.962959,112.42853
3915000000,10.342762,-89.965652,-60.789387,167.4014,-61.531219,176.46948,-22.359985,109.4501
3920000000,7.9120655,160.71825,-62.13736,79.589561,-63.608891,69.511765,-23.171562,109.36446
3925000000,8.7025757,70.28067,-62.702572,-44.112267,-61.797455,-34.686165,-23.066275,106.83118
3930000000,8.7187738,-44.833412,-60.787243,-154.57381,-61.667538,-164.74106,-22.94619,100.75201
3935000000,11.148332,-122.49218,-61.922909,95.772797,-61.22261,98.675903,-23.163214,91.575813
3940000000,6.767282,139.37283,-60.646626,2.8912492,-61.768246,3.3336542,-22.077925,89.703331
3945000000,10.000371,31.585073,-59.289921,-82.332779,-57.768726,-89.272896,-21.27717,92.96756
3950000000,9.5537529,-61.996475,-60.742809,164.74574,-61.441933,164.77142,-22.607038,96.483131
3955000000,10.621387,-154.3177,-61.152222,43.536156,-60.091034,43.008282,-24.128597,94.23687
3960000000,6.3017578,116.61945,-61.1166,-62.004288,-62.0518,-53.442673,-23.134151,89.457367
3965000000,9.4407759,-9.4259443,-60.33757,-157.99733,-59.512463,-170.23083,-22.659515,87.249382
3970000000,8.8776979,-80.27314,-59.755276,96.181061,-61.029202,102.56141,-24.137398,85.493126
3975000000,8.9156752,173.36821,-60.788803,-5.2428203,-61.127941,-13.590422,-24.487402,79.088882
3980000000,7.8642716,86.278221,-61.526257,-116.14211,-60.523262,-109.42545,-23.708324,75.956268
3985000000,8.3894205,-34.656933,-60.112694,139.7422,-61.440594,128.95163,-24.537909,76.341789
3990000000,10.363647,-107.36221,-59.272427,13.417081,-59.148369,17.214178,-25.131634,76.390907
3995000000,6.8629894,150.43161,-59.806011,-80.899193,-60.652287,-82.381142,-23.574083,74.035889
4000000000,6.4355569,51.939636,-58.031853,-173.15012,-57.28352,-173.04521,-23.394346,74.391762
END

