!CSV A.01.01
!Keysight Technologies,N5247A,US56070710,A.10.64.09
!Date: Saturday, November 19, 2022 21:08:20
!Source: Standard

BEGIN CH1_DATA
Freq(Hz),S33(DB),S33(DEG),S34(DB),S34(DEG),S43(DB),S43(DEG),S44(DB),S44(DEG)
3000000000,-17.498083,-162.37711,-53.968372,65.974388,-54.04937,67.960342,-15.880666,-117.32865
3005000000,-13.385371,156.87665,-53.957172,-23.046131,-53.784489,-21.944605,-15.497184,-155.95284
3010000000,-13.70894,141.41246,-53.614586,-114.81309,-53.661247,-115.68397,-17.525494,-143.23882
3015000000,-12.638064,-168.35512,-54.264797,143.52448,-54.509312,145.07553,-12.922777,-146.61403
3020000000,-12.925313,129.59726,-54.621681,56.75592,-54.734272,56.062515,-20.385065,-176.96077
3025000000,-14.832213,170.14114,-54.633099,-34.946548,-54.799213,-35.445084,-12.381701,-144.92505
3030000000,-11.977026,160.85844,-53.634369,-127.96561,-53.721096,-128.03159,-18.66803,-179.44087
3035000000,-16.709618,102.3126,-55.878304,139.37352,-56.187862,140.32779,-14.370894,-146.15306
3040000000,-8.2989607,175.95081,-55.414089,49.489201,-55.198967,48.481098,-14.132061,-172.99677
3045000000,-14.505532,105.21265,-57.381824,-51.814045,-57.298962,-52.348259,-18.499655,-157.89432
3050000000,-13.593577,177.95825,-60.130806,-127.61311,-60.184254,-126.49268,-12.597157,-176.96983
3055000000,-8.1645594,133.98076,-58.845882,143.82472,-58.869755,143.43576,-17.505281,-168.16313
3060000000,-33.494209,-62.963963,-60.61747,46.65453,-60.725101,46.678497,-15.167514,-169.011
3065000000,-7.0750179,147.36118,-61.221653,-15.823599,-60.819157,-15.151984,-14.442694,179.4303
3070000000,-18.114187,130.07491,-58.831043,-113.80625,-58.916248,-113.58526,-18.194748,-160.69653
3075000000,-11.864058,149.36264,-60.013248,169.05833,-60.31498,168.64146,-13.098362,170.90724
3080000000,-8.9941368,122.43333,-56.730114,80.537643,-56.911205,80.558571,-18.225296,171.72144
3085000000,-15.428604,-164.4948,-55.824657,-7.2242723,-56.017166,-8.4642038,-14.859202,-178.46365
3090000000,-8.2902861,124.18873,-55.764854,-98.572433,-55.593987,-97.491592,-15.445648,146.50511
3095000000,-15.2241,139.88168,-53.968552,165.94093,-54.06284,165.03137,-14.880943,-159.05646
3100000000,-11.47173,151.18559,-55.134468,76.534378,-55.148853,76.269875,-14.469502,144.29367
3105000000,-9.3144407,111.15997,-54.743805,-17.364229,-54.772575,-16.9198,-16.366081,-166.80473
3110000000,-13.19613,164.16396,-53.405849,-111.74337,-53.379662,-112.43445,-14.531714,154.46515
3115000000,-10.500335,120.02054,-53.661201,154.27173,-53.717049,157.25349,-19.962326,159.75481
3120000000,-12.065374,111.26289,-53.095734,62.513985,-52.959049,60.616302,-14.852028,162.45174
3125000000,-9.4205341,165.0723,-52.392395,-36.731152,-52.604568,-35.95768,-19.37019,156.51357
3130000000,-8.1647091,82.631065,-52.819489,-129.6311,-52.6768,-128.43979,-16.542238,160.39026
3135000000,-10.949061,161.49724,-51.929512,138.24756,-51.925594,137.73746,-15.381628,160.67824
3140000000,-8.1929083,108.28592,-51.821243,45.255211,-51.846523,45.321964,-20.453968,148.29709
3145000000,-20.628975,82.064095,-52.825333,-49.037209,-52.832073,-48.519325,-14.03404,154.65901
3150000000,-5.6083374,137.19638,-52.384666,-142.75964,-52.281876,-142.86992,-21.408554,151.53714
3155000000,-11.507502,67.592781,-53.069527,119.38481,-52.991142,118.83262,-17.349979,159.98848
3160000000,-9.1875877,139.23642,-53.39325,27.164215,-53.270531,27.213369,-17.00086,140.01727
3165000000,-8.8262386,94.950317,-53.188881,-68.446457,-53.386822,-68.142815,-18.384886,177.0834
3170000000,-15.980495,141.58229,-53.663158,-168.00545,-53.540554,-167.19942,-14.897411,131.61188
3175000000,-6.9279213,115.49023,-54.030258,106.57137,-54.311729,107.0295,-18.615711,175.27887
3180000000,-14.807092,83.05912,-54.218433,13.326473,-54.295116,14.252461,-16.386257,140.6512
3185000000,-8.9950209,109.25727,-55.175617,-81.493454,-54.707069,-79.867661,-21.251619,152.04559
3190000000,-10.069777,97.596542,-56.497608,-169.35312,-56.331299,-170.38329,-16.085983,165.69769
3195000000,-14.923477,119.9262,-56.890625,102.23056,-56.730003,104.97537,-23.150665,120.4771
3200000000,-6.6197448,97.999687,-57.186359,7.1123028,-57.008793,5.8333359,-15.09417,155.76759
3205000000,-13.559933,98.813637,-58.581902,-78.438019,-58.650375,-80.238205,-20.825602,138.52663
3210000000,-10.66837,113.12812,-59.238647,-166.76505,-59.23365,-168.94765,-18.669689,137.23222
3215000000,-7.5782447,79.139565,-59.240257,103.13347,-59.852722,102.40546,-15.930893,149.75584
3220000000,-14.503016,132.68475,-58.765892,14.806473,-58.84066,14.742916,-21.116589,141.85721
3225000000,-6.8658276,81.324608,-58.176373,-75.16774,-58.679245,-77.435928,-15.888479,159.26169
3230000000,-15.612708,99.581284,-59.726665,-160.17776,-59.744896,-159.02551,-18.09502,133.04797
3235000000,-6.6164145,104.78655,-58.891514,119.18206,-58.751469,119.16135,-19.225256,178.19221
3240000000,-7.7840676,40.627037,-59.139793,22.352478,-59.619308,22.377258,-14.466532,119.30645
3245000000,-7.8752232,139.65608,-58.70723,-59.365219,-59.110069,-58.77634,-19.700674,-163.2392
3250000000,-6.9133697,58.724976,-58.464294,-145.31186,-58.681065,-146.80032,-14.953671,125.39498
3255000000,-12.388612,100.63141,-57.567093,122.68678,-58.006229,121.4436,-22.784033,151.92439
3260000000,-7.1996775,89.277336,-57.403194,35.529217,-57.265202,32.933811,-14.338494,147.09245
3265000000,-12.185499,39.658863,-55.916348,-61.56081,-55.957012,-59.355621,-19.737896,115.37711
3270000000,-6.7707715,99.59565,-56.027336,-157.98222,-56.063454,-160.00903,-15.624822,158.22218
3275000000,-10.779355,57.58963,-55.332668,112.41168,-55.408146,112.33667,-17.877232,117.8974
3280000000,-11.93977,91.512436,-55.071472,19.107834,-55.340088,22.105221,-18.586819,144.33273
3285000000,-5.8180785,77.797142,-54.78017,-70.554962,-55.147285,-72.020409,-14.777143,146.11861
3290000000,-16.202229,10.239899,-54.454556,-167.47626,-54.252045,-165.85483,-20.728138,105.38586
3295000000,-6.8409524,91.964592,-54.585251,98.5354,-54.703285,98.26992,-13.48964,149.67775
3300000000,-7.6081815,55.073608,-54.391933,8.0668879,-54.557709,9.3155527,-17.752859,111.49889
3305000000,-18.527845,81.65258,-54.26228,-87.743385,-54.130424,-86.514038,-18.597849,157.41782
3310000000,-5.5483909,65.481277,-54.214844,177.30937,-54.39679,176.28795,-13.674688,119.867
3315000000,-19.483366,75.483635,-54.258331,85.904335,-54.19611,85.99601,-25.723183,174.64375
3320000000,-6.4650044,74.28125,-54.416271,-17.056566,-54.380211,-16.007036,-12.683062,123.08908
3325000000,-8.2817364,21.843914,-55.259922,-105.29144,-55.351608,-103.14584,-22.389574,107.73149
3330000000,-11.128757,120.16598,-55.704025,165.37907,-55.774773,164.86186,-13.836618,134.01106
3335000000,-4.7350516,35.565685,-55.689526,73.037361,-55.24123,70.665207,-16.957115,93.592125
3340000000,-14.039777,97.116333,-56.135967,-20.31048,-56.30925,-20.138268,-15.818685,145.84406
3345000000,-6.6026244,56.009418,-55.688889,-111.18269,-55.959496,-112.42891,-16.572945,102.95566
3350000000,-10.42212,17.212942,-56.322582,160.65497,-56.533901,158.20247,-17.022495,124.96588
3355000000,-9.1190653,85.806633,-56.187946,66.308769,-56.140701,67.74295,-17.436197,128.61063
3360000000,-8.9685345,21.161554,-56.641155,-28.850193,-56.834835,-29.497627,-16.026608,88.748703
3365000000,-9.1643591,70.26059,-56.080433,-121.74268,-56.187374,-121.46231,-17.891081,130.62512
3370000000,-7.321229,38.91481,-56.861252,144.75154,-57.114529,145.79591,-14.805882,90.051338
3375000000,-11.496367,10.673651,-57.180176,51.711388,-57.429043,50.994797,-21.636003,123.40182
3380000000,-8.2275019,81.425644,-58.670116,-43.737007,-58.550125,-44.235168,-13.594653,106.90093
3385000000,-7.6150231,26.397558,-60.42281,-132.75359,-60.049938,-130.71417,-26.297274,66.485855
3390000000,-13.298176,43.119854,-60.320721,135.69292,-60.408337,139.42372,-13.422271,107.2541
3395000000,-6.9976215,46.773243,-62.488903,45.860172,-63.115822,45.316277,-21.065102,68.678101
3400000000,-13.695541,-13.566977,-62.44273,-29.738647,-62.585655,-32.069054,-16.782721,106.72009
3405000000,-6.555469,56.055912,-63.989246,-118.83278,-63.654716,-116.8904,-17.595255,75.115761
3410000000,-9.3377953,9.0795126,-65.530754,164.68497,-65.194046,167.82741,-19.673615,110.84209
3415000000,-10.857757,48.31448,-62.885761,99.234337,-62.907005,97.991226,-16.078957,80.762436
3420000000,-6.8341041,27.642939,-61.309383,11.195689,-61.132328,10.34481,-20.264627,104.03639
3425000000,-19.811827,73.605034,-58.80883,-71.144783,-59.865185,-71.796692,-19.49614,90.684753
3430000000,-4.6531258,26.910797,-57.657028,-166.93793,-57.60537,-169.92416,-18.451056,65.649773
3435000000,-17.536722,-14.207597,-56.26955,95.71817,-56.545101,97.504013,-21.559435,118.50624
3440000000,-8.5833578,52.154232,-55.653793,3.1505716,-55.573879,4.8951106,-18.31687,51.614143
3445000000,-6.9816442,3.1171081,-55.501568,-91.033447,-55.631706,-92.325233,-21.32341,90.348938
3450000000,-11.973703,61.646713,-54.109871,171.90335,-53.896118,174.16054,-17.813251,84.72937
3455000000,-8.1769609,5.8881736,-54.109764,77.760986,-53.863888,77.223274,-24.787552,30.601137
3460000000,-12.65564,25.813505,-53.336964,-20.193462,-53.424202,-17.865366,-15.61077,97.105446
3465000000,-9.1267567,32.949806,-53.005489,-111.83289,-53.022324,-111.99996,-25.177879,-12.461111
3470000000,-9.1278267,-9.4080544,-52.847824,152.69122,-52.906006,152.21556,-17.903332,99.202614
3475000000,-10.752124,56.687603,-52.620167,55.978199,-52.480194,56.533916,-23.725677,52.338799
3480000000,-7.448256,1.5435513,-52.838554,-43.821152,-52.849045,-42.477085,-28.202173,132.05351
3485000000,-12.615815,-4.6753893,-52.484745,-134.85008,-52.651848,-134.61073,-17.284063,57.080704
3490000000,-8.4595194,47.490734,-52.616058,126.30379,-52.673351,123.67656,-26.838879,164.5
3495000000,-9.0473585,-28.954578,-53.508221,32.194851,-53.533615,31.31539,-20.007097,51.052349
3500000000,-8.7636051,42.548557,-53.583263,-66.364738,-53.643944,-66.123001,-23.458666,88.987282
3505000000,-8.6659842,-7.020668,-54.072762,-160.82755,-54.225632,-161.39011,-26.087267,153.45039
3510000000,-18.638556,4.6259708,-55.567352,101.35131,-55.261944,102.63443,-19.086485,54.742603
3515000000,-5.3271861,16.393951,-55.200569,12.181745,-55.249756,9.9879656,-26.645155,-171.02344
3520000000,-18.801043,-82.184135,-57.416946,-82.140549,-57.574268,-81.611908,-18.834885,74.96534
3525000000,-6.4464684,25.383457,-58.019684,179.599,-57.842201,-179.05508,-26.664061,-28.648392
3530000000,-9.0856562,-27.208578,-58.896286,92.078354,-59.344769,91.181725,-15.557684,115.55521
3535000000,-14.887299,46.777355,-60.210808,6.1996322,-60.465992,6.3202505,-21.225895,-36.117329
3540000000,-6.3123598,-5.7187762,-62.944092,-79.687622,-62.957474,-77.892166,-15.292887,125.59302
3545000000,-18.629419,12.970748,-63.113453,-158.06029,-62.92654,-163.70462,-25.095604,3.468816
3550000000,-8.7987242,8.5166759,-63.354256,123.56281,-63.879822,127.66589,-22.962358,151.55801
3555000000,-11.451491,-7.1413298,-63.103046,35.594666,-62.538692,36.789875,-20.371857,76.208939
3560000000,-12.641475,19.711758,-61.10603,-47.403103,-61.307419,-44.791763,-30.521887,-142.40009
3565000000,-9.4238329,-21.716373,-61.353321,-127.76814,-61.06879,-123.06401,-21.365934,97.300964
3570000000,-13.755734,11.16476,-58.927883,136.73428,-59.111416,137.83626,-25.298424,64.931427
3575000000,-10.598034,14.221199,-58.363007,51.687782,-58.96122,49.669285,-21.706711,142.63403
3580000000,-9.9903822,-34.929066,-58.42012,-46.762951,-58.777966,-46.12204,-19.035299,62.303265
3585000000,-9.6752434,30.830307,-57.712132,-128.22655,-57.903316,-129.66144,-21.929899,178.51363
3590000000,-8.9101534,-43.295399,-58.021935,127.98322,-57.673508,125.78792,-19.935818,81.319817
3595000000,-13.3239,35.894077,-58.186451,43.228703,-58.247265,46.276733,-31.69276,54.002537
3600000000,-7.6342292,-5.0456219,-57.661552,-46.972389,-57.374195,-49.18689,-17.337669,141.9543
3605000000,-16.472967,-56.446678,-56.918545,-139.94485,-56.941082,-140.25589,-19.304777,13.162602
3610000000,-6.3630438,13.728012,-57.0397,138.27412,-56.83754,135.24388,-17.876118,136.72958
3615000000,-13.024133,-67.412132,-55.711208,43.588726,-55.890232,44.66143,-21.297359,52.0583
3620000000,-10.553273,24.716585,-55.192905,-48.69429,-55.19706,-45.556744,-26.85474,170.35358
3625000000,-7.7468529,-27.627234,-54.250111,-139.26303,-54.439541,-138.86404,-17.400946,85.402481
3630000000,-18.374344,61.924004,-53.599178,124.98178,-53.87114,125.27649,-27.168571,-112.85281
3635000000,-6.4226813,-19.4552,-53.868923,31.587385,-54.08255,31.606203,-17.221582,84.773293
3640000000,-16.440903,-33.375679,-52.783096,-63.916523,-52.669819,-64.031982,-30.575527,130.04355
3645000000,-10.819111,1.4512502,-53.003685,-162.75867,-53.071854,-161.79044,-29.342451,40.40554
3650000000,-10.266036,-23.467232,-52.363808,104.61131,-52.181,104.28211,-17.913742,84.905396
3655000000,-12.05285,9.2182665,-52.294598,8.6584682,-52.255268,8.3530779,-31.530046,-120.80687
3660000000,-8.9544525,-28.372498,-52.398678,-87.693275,-52.352406,-86.76915,-18.212204,89.209251
3665000000,-13.625905,-6.5143037,-52.599083,176.58583,-52.575676,176.31609,-31.154198,2.3425052
3670000000,-11.949218,11.983356,-52.775074,80.263229,-52.772663,78.643372,-18.993465,126.43486
3675000000,-7.6839752,-41.307297,-52.613018,-13.677293,-52.776836,-14.932057,-19.467484,-0.37518266
3680000000,-13.202527,33.37986,-53.532707,-113.91972,-53.685814,-113.06165,-17.188309,144.40398
3685000000,-7.7851391,-30.288843,-53.771481,151.87946,-53.904663,152.80829,-19.31558,-11.862247
3690000000,-15.646531,-18.7985,-54.740528,53.938782,-54.56966,52.849636,-21.536064,125.27255
3695000000,-7.6839328,4.7007108,-55.20076,-44.981403,-55.489273,-43.760841,-24.689793,51.321209
3700000000,-10.505026,-75.123955,-56.525772,-135.44571,-56.366398,-135.50618,-39.137661,-114.26006
3705000000,-7.100894,15.323794,-57.911083,125.51752,-57.595852,127.05493,-19.391018,71.716339
3710000000,-10.832264,-60.694798,-60.192009,36.192089,-60.021889,38.70525,-29.424004,-151.73689
3715000000,-11.074508,7.0122657,-61.52486,-54.028873,-61.009995,-58.085564,-26.550882,68.312729
3720000000,-6.1267209,-25.540163,-64.643906,-143.19284,-65.009178,-136.00572,-25.592609,106.70512
3725000000,-25.687069,-98.778496,-68.550377,161.60097,-67.633034,163.06453,-28.710081,-113.54321
3730000000,-6.2836571,-12.815767,-67.683449,103.5325,-67.61879,104.18015,-19.808567,72.329178
3735000000,-13.735164,-29.26606,-66.410896,31.712408,-66.054985,38.150143,-28.946974,-139.82742
3740000000,-11.568763,-10.300805,-62.180233,-56.420376,-62.935043,-52.390045,-24.025928,123.83771
3745000000,-6.538631,-32.002968,-60.85984,-147.20108,-60.948063,-146.30548,-24.579695,-9.7164383
3750000000,-18.22933,-25.616066,-58.789135,125.55789,-58.729546,126.89236,-17.065868,161.88313
3755000000,-11.97788,-22.311113,-55.641003,31.027384,-55.957458,31.772453,-19.059816,1.7064474
3760000000,-7.0669885,-23.094461,-55.276684,-70.029488,-55.286312,-71.880043,-17.275652,170.75612
3765000000,-11.875386,-32.320847,-54.435715,-161.24142,-54.386436,-159.86024,-21.814993,28.81035
3770000000,-8.0868893,-44.485584,-53.740391,103.5327,-53.711895,101.82539,-23.986204,-145.08195
3775000000,-13.910025,-3.7772019,-52.386742,2.0399182,-52.768639,3.6106708,-18.216246,95.038101
3780000000,-7.485899,-18.380203,-52.792271,-88.136292,-52.769985,-87.123329,-22.253397,-116.73744
3785000000,-9.702425,-61.690769,-52.178661,173.88008,-52.558884,175.51048,-19.100483,107.29652
3790000000,-7.5693326,-4.8807716,-52.240406,77.255394,-52.259472,77.746971,-25.880074,140.8737
3795000000,-8.2686605,-80.376503,-51.922619,-16.611813,-51.776146,-17.614115,-24.770578,-147.34114
3800000000,-8.6068802,12.074876,-51.238228,-115.60321,-51.318035,-115.95654,-17.968895,98.924644
3805000000,-5.229918,-43.657074,-51.785145,146.6752,-51.726379,147.86194,-20.622168,-115.19934
3810000000,-17.340527,-81.627022,-51.364853,54.39521,-51.497768,53.271175,-16.850218,114.17905
3815000000,-5.0564146,-25.73814,-51.692287,-42.438412,-51.596752,-41.445484,-29.244659,-29.971693
3820000000,-17.037565,-72.64212,-51.667393,-140.32401,-51.600269,-140.1743,-15.087572,152.29388
3825000000,-6.4466553,-26.437279,-52.180885,125.28059,-52.09045,123.59762,-18.164425,24.990358
3830000000,-8.2129545,-54.631508,-52.535355,27.462858,-52.879772,29.475954,-13.992576,164.47949
3835000000,-13.236609,-40.069759,-53.512733,-66.805222,-53.526344,-67.264595,-23.87562,55.320656
3840000000,-7.2500105,-42.195145,-53.833588,-164.86887,-53.926231,-165.36667,-24.026291,172.92462
3845000000,-11.631561,-38.214527,-54.861012,99.012619,-54.985031,99.512085,-16.952072,120.83519
3850000000,-7.6983943,-42.540321,-56.101166,7.4302216,-56.466942,8.6787996,-32.310516,-55.62883
3855000000,-6.4020491,-63.88274,-56.973103,-84.705864,-56.390839,-82.906219,-16.219006,120.07574
3860000000,-17.396914,-15.007545,-57.289223,178.77292,-57.654293,179.18996,-26.72052,99.586876
3865000000,-4.5856619,-43.77615,-58.32988,93.767731,-58.748547,93.142204,-25.405931,128.0999
3870000000,-11.468581,-65.561264,-59.991154,4.7480335,-60.052502,7.6816525,-16.002022,116.07486
3875000000,-7.1920156,-37.137646,-61.764626,-85.032646,-61.336437,-83.693085,-34.784904,-102.80497
3880000000,-7.1727209,-88.439156,-65.088699,-153.23582,-65.463402,-155.22166,-16.205305,121.04286
3885000000,-8.3287601,-3.0206211,-64.286011,120.60284,-64.454048,123.08448,-21.968952,53.16785
3890000000,-3.7260387,-73.577797,-64.852127,47.250992,-64.273628,48.157814,-17.272236,168.71181
3895000000,-15.285737,-47.0364,-62.014309,-31.792356,-62.740871,-27.413879,-13.671744,44.316273
3900000000,-4.6579833,-48.205849,-61.131199,-116.70613,-61.41016,-114.37061,-14.621771,173.26317
3905000000,-10.372863,-96.793587,-59.57032,150.0005,-60.038109,154.02228,-15.704667,53.511513
3910000000,-5.5708632,-22.80191,-58.192051,59.56673,-57.95528,62.135761,-21.255352,152.39365
3915000000,-5.2959208,-91.110481,-56.782928,-31.529905,-56.92308,-29.36451,-16.965816,91.935593
3920000000,-10.871999,-39.175259,-55.615318,-122.53051,-55.966908,-122.7393,-34.552826,48.639294
3925000000,-5.9933639,-55.783848,-54.704422,145.28665,-54.831394,145.62454,-16.678507,101.93171
3930000000,-11.197021,-90.91629,-54.047871,46.057541,-54.210648,47.692879,-34.081741,114.23776
3935000000,-5.6286545,-50.487831,-54.09922,-44.641655,-54.160046,-44.50452,-21.430054,53.939697
3940000000,-6.8602886,-76.91713,-53.451771,-143.80017,-53.327156,-142.8083,-15.683197,105.88833
3945000000,-14.289092,-93.433556,-53.488377,121.58,-53.122772,120.75101,-25.197767,-20.23868
3950000000,-3.6180344,-49.246464,-53.26556,26.485512,-53.37252,27.991278,-14.460237,95.164474
3955000000,-9.04251,-110.06228,-52.639736,-69.594917,-52.431648,-67.19236,-29.994789,-19.058868
3960000000,-6.7029366,-44.098804,-52.961037,-165.90916,-52.78437,-164.71338,-19.656654,98.533798
3965000000,-5.2764869,-97.602493,-52.788651,98.126968,-52.724651,99.933609,-19.309513,54.074066
3970000000,-13.691142,-22.984335,-52.390564,3.1961205,-52.260429,4.9203434,-22.640368,172.96877
3975000000,-2.4839847,-83.2808,-52.978699,-90.615051,-52.892696,-90.959961,-14.666178,43.957474
3980000000,-16.412678,-71.475952,-53.134956,172.8479,-53.386482,173.25771,-23.589373,153.12672
3985000000,-4.5928383,-71.290062,-53.49802,77.394936,-53.459667,78.891991,-18.783352,58.814678
3990000000,-10.247266,-111.72464,-54.281555,-19.74242,-53.915298,-20.158411,-27.923643,20.199423
3995000000,-5.689662,-48.634895,-54.988499,-113.42412,-55.384747,-112.17752,-18.403507,110.16282
4000000000,-5.2360296,-116.03365,-54.238403,148.42747,-53.999985,147.99783,-21.56242,-5.5366631
END

