!CSV A.01.01
!Keysight Technologies,N5247A,US56070710,A.10.64.09
!Date: Saturday, November 19, 2022 23:18:20
!Source: Standard

BEGIN CH1_DATA
Freq(Hz),S33(DB),S33(DEG),S34(DB),S34(DEG),S43(DB),S43(DEG),S44(DB),S44(DEG)
3000000000,-12.55582,163.38347,-55.333992,-157.14006,-55.739292,-157.02054,-18.106371,-153.87646
3005000000,-15.296603,79.143715,-55.424683,94.110886,-55.678417,92.554626,-17.16646,-149.08586
3010000000,-11.847162,139.55565,-54.677055,-11.265219,-54.535786,-11.887514,-15.67739,-162.17171
3015000000,-13.039753,156.40852,-55.992737,-111.36194,-55.84119,-112.06898,-15.74256,-150.65579
3020000000,-18.989899,89.058273,-54.663963,147.42009,-55.024933,147.44768,-16.539019,-169.55112
3025000000,-8.2130489,133.67451,-54.871647,43.379795,-54.800339,41.802326,-14.566246,-157.74174
3030000000,-29.448675,95.893196,-56.522076,-68.137634,-56.521973,-68.070427,-18.596863,-173.08124
3035000000,-12.195733,103.28727,-53.973938,-169.27914,-53.871464,-169.4304,-13.935013,-169.00208
3040000000,-9.7323666,141.38583,-54.587547,91.300865,-54.680099,91.360649,-18.261301,-177.1846
3045000000,-22.309286,140.11243,-54.788219,-14.370236,-54.980171,-14.199644,-15.544901,-178.38963
3050000000,-9.7345963,99.273018,-54.13089,-112.13995,-54.541515,-111.39246,-14.679269,172.7049
3055000000,-10.935935,140.40475,-55.921394,138.31033,-55.939472,137.22969,-15.857097,-169.66632
3060000000,-17.525467,65.793724,-54.845257,35.082123,-54.766476,34.760788,-15.236108,163.08801
3065000000,-8.4343729,118.15826,-54.322319,-66.672676,-54.303757,-68.797501,-15.445288,-170.36777
3070000000,-15.113275,149.47374,-54.031273,-174.7836,-54.049862,-174.81374,-16.945995,159.48029
3075000000,-11.107088,84.51413,-55.138653,83.111122,-55.040165,83.598984,-16.111567,170.40851
3080000000,-7.5058761,119.98061,-53.945702,-19.775822,-54.073059,-18.936165,-16.439693,161.62994
3085000000,-23.550076,167.37109,-56.529816,-114.77039,-56.573536,-113.46241,-17.084553,160.86877
3090000000,-8.2968168,90.910027,-55.639992,127.1385,-55.723061,127.36679,-14.097299,153.71843
3095000000,-12.238631,141.28679,-53.6735,26.362486,-53.581791,25.663675,-17.693451,175.1508
3100000000,-12.579644,97.452301,-54.964939,-75.853653,-55.176693,-76.157501,-14.989303,145.73486
3105000000,-9.0272675,93.738892,-53.997051,177.20822,-53.875267,177.88901,-16.465227,173.55818
3110000000,-10.663863,132.63304,-54.09161,74.366386,-54.064442,73.829796,-17.567221,139.66922
3115000000,-13.514866,48.882256,-55.655781,-25.986515,-55.604992,-25.636366,-16.965321,160.4048
3120000000,-7.2952056,112.64383,-54.788914,-136.17278,-54.983166,-136.08295,-17.039148,138.22258
3125000000,-16.092842,123.76862,-54.751495,115.18535,-54.836239,116.24501,-17.356739,154.53023
3130000000,-8.7739096,74.017265,-54.037106,20.85507,-54.07391,20.840685,-15.932808,132.77634
3135000000,-8.8611946,105.62906,-54.835388,-84.287659,-54.398819,-84.073662,-17.426601,167.67014
3140000000,-16.763794,99.997871,-54.786644,171.62518,-54.543694,173.03145,-16.274126,125.53017
3145000000,-9.0809889,70.903717,-55.405807,65.515327,-55.453228,65.84053,-17.335756,158.51273
3150000000,-8.6346455,122.24939,-56.449181,-40.909683,-57.144203,-40.928299,-18.207432,142.79305
3155000000,-11.24632,66.70269,-54.649754,-143.55373,-54.739429,-143.99895,-19.419291,133.53743
3160000000,-8.4171228,84.340645,-54.898769,116.21186,-55.274681,113.63934,-16.436213,143.13962
3165000000,-12.227122,101.47234,-54.449387,9.7267714,-54.653519,9.2792473,-19.782932,125.45235
3170000000,-12.221743,74.67392,-55.089409,-86.919937,-55.248188,-86.254822,-15.840543,140.39061
3175000000,-9.0719891,95.447891,-56.266609,157.96082,-56.300808,158.51953,-18.024141,146.17322
3180000000,-14.540831,76.684303,-56.189575,58.145374,-56.189381,58.818897,-18.561335,130.76018
3185000000,-7.0942717,61.930344,-55.515999,-45.306889,-55.556381,-48.110825,-16.768358,154.60648
3190000000,-10.316963,93.71241,-57.095585,-144.26393,-57.426937,-146.7933,-20.651751,140.30893
3195000000,-13.400556,57.560074,-55.145622,106.72926,-55.254906,106.25234,-21.253399,133.12241
3200000000,-7.3373122,70.875153,-55.009434,5.4871325,-54.814587,4.3851857,-16.316917,127.70544
3205000000,-9.1435213,110.67814,-56.328316,-104.61716,-56.563976,-105.82689,-24.396832,148.87991
3210000000,-8.6919222,32.254009,-56.249973,158.46481,-56.571079,159.56499,-14.362842,121.16692
3215000000,-8.7017984,79.363892,-57.004848,45.244274,-56.900414,45.443623,-21.756559,148.2292
3220000000,-12.095894,78.074821,-56.541126,-60.78159,-56.54945,-59.970276,-15.952089,133.64195
3225000000,-9.8311234,45.666939,-56.7808,-157.51064,-56.620789,-155.58577,-19.022612,136.2507
3230000000,-7.6582179,82.131477,-56.106087,100.70002,-56.450073,100.35369,-17.912565,148.3831
3235000000,-13.368662,64.962112,-57.070229,-3.2506902,-57.140198,-4.3462548,-20.909735,119.67705
3240000000,-5.3686757,45.976982,-57.763931,-111.77369,-57.892368,-112.78862,-16.907877,133.9008
3245000000,-13.40518,105.18044,-57.227528,138.77281,-57.313042,138.05731,-19.795919,143.77994
3250000000,-10.38537,45.092945,-57.530678,41.866611,-57.502701,44.604237,-17.744976,108.97887
3255000000,-7.3146896,60.779163,-57.292629,-66.686363,-57.422024,-65.279091,-17.667538,146.20396
3260000000,-11.822817,78.863472,-57.142342,-163.4539,-57.021931,-164.09241,-16.28587,115.27622
3265000000,-7.8178616,26.431587,-59.17181,94.11837,-59.143368,92.624329,-18.569651,142.61766
3270000000,-7.4631352,69.117371,-57.466606,-13.76499,-57.296841,-15.149632,-16.762373,127.64972
3275000000,-17.155159,41.518707,-58.264751,-112.36241,-58.627316,-112.15719,-21.02565,123.12711
3280000000,-7.8315001,48.127308,-57.784515,132.64085,-58.693943,131.85567,-14.748667,122.65475
3285000000,-8.2202158,67.351173,-57.078651,36.510242,-57.10022,35.507847,-20.837198,130.57729
3290000000,-12.817519,10.170697,-57.774334,-68.172798,-57.949291,-65.801521,-16.295525,116.04882
3295000000,-6.7693863,34.438816,-58.109287,-174.47765,-58.046131,-174.34837,-15.652179,122.23677
3300000000,-10.162213,77.559883,-58.266289,86.306602,-58.42046,87.630699,-18.043594,128.75316
3305000000,-9.880312,10.50331,-59.403805,-20.52956,-59.19088,-21.500294,-16.933842,117.45349
3310000000,-7.3125448,53.208576,-59.250736,-125.8162,-59.327656,-127.34608,-16.626162,129.69705
3315000000,-11.277089,53.23283,-59.103878,130.15593,-59.782585,128.74303,-19.927711,105.79095
3320000000,-9.2414541,11.222896,-58.909111,25.06542,-58.843521,25.482824,-15.708366,111.0881
3325000000,-8.432766,44.702736,-58.748718,-76.34053,-58.780998,-74.797546,-18.992443,115.28103
3330000000,-21.089632,-3.6530533,-61.100418,175.84583,-60.932934,-179.43535,-14.545943,103.8839
3335000000,-5.0204377,27.430384,-59.641571,75.979439,-59.347828,76.673737,-18.051748,110.24288
3340000000,-10.370782,41.817333,-60.420456,-34.32,-60.660275,-32.019184,-15.195668,116.4017
3345000000,-12.173697,12.414998,-60.493092,-133.94618,-60.027676,-133.13391,-18.700317,99.1679
3350000000,-6.1306067,18.739723,-60.301102,138.0274,-59.474117,131.94412,-15.207737,112.71485
3355000000,-14.137591,65.990883,-61.732769,22.798548,-62.000835,19.670273,-22.793961,89.795387
3360000000,-9.6997137,-1.299171,-63.130596,-82.251999,-62.995754,-85.94165,-14.831984,101.16277
3365000000,-6.0622134,31.456348,-61.066666,168.95084,-60.357029,167.92967,-19.148205,80.676239
3370000000,-12.605638,10.133901,-63.269665,60.432156,-63.480484,65.912689,-15.794914,94.871086
3375000000,-6.9501514,6.2033343,-62.751167,-34.735558,-63.288235,-38.033283,-17.014063,92.463615
3380000000,-10.821632,46.189575,-64.351242,-134.76135,-64.328514,-145.41748,-17.075827,101.15102
3385000000,-13.765851,24.187349,-65.842239,125.14913,-66.629883,122.68964,-18.074596,75.604973
3390000000,-5.6105947,4.2698717,-67.468605,32.016914,-67.801163,31.796137,-17.489674,96.292374
3395000000,-14.031398,64.06221,-69.45945,-68.731628,-68.935051,-61.891022,-18.388077,82.732407
3400000000,-7.0652461,-18.653631,-66.728546,-158.323,-65.877609,-149.17899,-17.002455,75.490807
3405000000,-9.8886061,4.0133319,-64.913628,113.40335,-64.520554,112.31751,-20.497334,80.443367
3410000000,-11.001366,45.02972,-64.135071,11.395428,-63.905617,11.091798,-15.739541,76.804466
3415000000,-5.5916228,-18.147268,-63.424725,-86.221092,-63.464993,-86.21537,-19.032656,74.800049
3420000000,-9.3070383,43.723419,-60.697239,165.61499,-60.972477,164.21501,-17.48201,89.356461
3425000000,-11.144,-15.399368,-61.279278,60.270477,-60.650272,61.31073,-22.243372,55.805508
3430000000,-7.9319887,-11.607972,-59.355484,-48.836674,-59.565521,-46.944241,-16.89613,86.891403
3435000000,-12.465999,24.589449,-59.032917,-153.23618,-58.97031,-149.72795,-22.128057,43.010395
3440000000,-11.264144,-19.052063,-58.75322,100.32868,-58.721661,101.73533,-21.540405,68.621979
3445000000,-5.8590646,4.2026057,-59.560028,-4.0440192,-59.129745,-4.0273557,-16.999683,61.110214
3450000000,-12.52599,-2.3980782,-58.552982,-115.88052,-57.954319,-112.33973,-22.590584,66.218353
3455000000,-10.736872,-36.8876,-58.909435,141.27907,-58.536167,140.95113,-19.177511,60.625927
3460000000,-8.0169163,14.920676,-57.085995,35.078278,-57.396156,40.044437,-20.416117,80.921654
3465000000,-12.822535,-18.506069,-57.848164,-71.336876,-58.163006,-69.871086,-23.966663,61.918922
3470000000,-7.8525352,-17.086952,-57.473946,-174.09787,-57.464977,-174.20992,-19.326494,62.402584
3475000000,-8.6780167,8.4033566,-56.975281,80.742683,-56.82354,80.800987,-32.129982,120.20422
3480000000,-12.76544,-61.392281,-58.381157,-28.248247,-58.430168,-27.397211,-19.865141,52.548126
3485000000,-5.5002933,-2.5615015,-57.092369,-136.87,-57.358574,-140.33202,-22.343828,37.601624
3490000000,-19.086784,-4.0280828,-56.531246,117.87302,-56.426079,120.44853,-22.89271,112.24065
3495000000,-9.493144,-10.150996,-56.934387,14.062234,-57.240742,13.230692,-18.967894,22.928608
3500000000,-6.2934594,-23.860861,-57.102619,-86.799683,-56.901573,-86.199043,-18.899111,109.07475
3505000000,-18.496386,65.068832,-57.867809,157.81764,-57.918159,159.59315,-25.184181,12.255509
3510000000,-5.8372817,-38.461929,-56.992992,51.00843,-57.09322,53.134071,-22.150703,105.7962
3515000000,-10.725983,13.895743,-56.494556,-51.376347,-56.794582,-51.948883,-26.501892,57.281364
3520000000,-15.598755,-32.676247,-56.469997,-160.54042,-56.099419,-162.87796,-28.361313,25.598398
3525000000,-8.1201525,-28.529388,-56.333935,94.8964,-56.474945,94.910332,-21.873953,69.622482
3530000000,-9.3278208,-8.5349684,-57.365074,-9.0837984,-57.042843,-9.9508867,-22.237305,94.731094
3535000000,-13.08698,-67.026588,-56.665287,-123.16692,-56.633564,-125.34269,-27.374998,38.451767
3540000000,-8.5406017,-18.214931,-56.68729,127.91776,-56.622181,126.80835,-19.118992,102.72594
3545000000,-11.999239,10.537158,-56.560436,18.778393,-56.696865,16.610163,-37.661617,-165.40614
3550000000,-8.2838907,-49.503326,-55.711678,-88.224998,-55.975594,-87.664459,-19.741774,82.752388
3555000000,-10.609528,4.4266472,-56.983398,162.48912,-57.364395,167.29222,-43.197811,-163.99092
3560000000,-11.696839,-44.12149,-56.43359,56.108082,-56.547924,58.428299,-23.087988,99.171936
3565000000,-13.217082,-66.793259,-57.409996,-50.643448,-57.201996,-50.06076,-24.597122,46.156689
3570000000,-6.3984675,3.4646533,-57.053375,-163.61348,-57.321899,-166.86356,-23.169533,97.433899
3575000000,-13.196837,-95.362907,-57.348125,92.021439,-57.517597,92.126526,-24.925529,68.292961
3580000000,-7.345685,-21.711018,-56.73946,-23.670176,-56.676857,-22.017506,-20.859976,99.686905
3585000000,-11.618589,-39.731441,-56.877838,-122.44938,-57.096092,-125.70054,-24.718922,94.136993
3590000000,-20.053534,-84.466553,-57.34351,126.75554,-57.418751,128.61734,-31.999834,81.303093
3595000000,-5.5838394,-25.004568,-57.828442,15.559574,-58.186527,18.740273,-19.734488,92.172821
3600000000,-26.5341,-2.4824927,-57.705673,-96.148277,-58.147308,-95.080605,-33.873638,112.20528
3605000000,-6.5139475,-42.78936,-57.980324,152.98555,-58.061825,152.52147,-22.064093,55.490044
3610000000,-12.540777,-32.711319,-57.322369,43.668995,-57.679592,41.988171,-22.47682,97.275795
3615000000,-19.818115,0.32621041,-58.812279,-60.198952,-58.772903,-60.266174,-23.879942,80.052452
3620000000,-8.1522589,-50.552746,-58.81287,-174.7924,-59.216419,-175.01321,-22.18889,69.703476
3625000000,-10.195439,-18.452026,-58.566132,81.328911,-58.220531,81.744576,-23.896086,107.10152
3630000000,-22.155308,-69.728516,-59.273697,-28.737267,-58.841167,-25.380007,-25.589907,92.53418
3635000000,-6.3249207,-51.12653,-58.93499,-132.81691,-58.138214,-132.1841,-21.103394,52.747349
3640000000,-16.243008,2.1605334,-58.981106,122.5625,-59.493378,122.57487,-22.892172,146.88492
3645000000,-7.9134512,-65.074638,-58.585506,11.791092,-58.633152,12.389521,-19.412626,15.987728
3650000000,-14.071052,-18.819868,-59.382992,-100.40011,-59.251675,-102.6076,-19.172171,109.41019
3655000000,-7.925478,-17.055992,-59.026783,148.84256,-59.248566,148.67688,-23.041636,15.30093
3660000000,-7.333744,-85.830894,-58.257942,42.683788,-58.767315,42.04026,-22.902893,101.41613
3665000000,-7.9288535,10.830543,-58.429409,-59.202808,-58.604473,-62.102367,-21.600378,69.318405
3670000000,-11.230969,-99.507721,-59.729614,-173.00317,-59.778008,-173.10588,-33.742279,118.10109
3675000000,-9.7255039,-20.560068,-59.438496,83.295601,-59.619614,85.322556,-23.77552,54.899338
3680000000,-7.9857955,-42.386513,-59.357647,-27.294258,-59.887653,-24.831945,-24.925789,125.31855
3685000000,-15.90214,-99.518593,-59.452286,-139.39717,-59.135551,-138.3027,-24.146538,-23.252481
3690000000,-5.9479895,-36.755188,-59.495846,122.02014,-59.346703,121.38326,-20.574533,73.159813
3695000000,-23.476154,-17.860155,-58.202042,14.114706,-58.181389,13.136425,-32.967415,-43.447872
3700000000,-8.9760809,-59.735153,-58.965088,-92.675476,-58.869923,-91.244263,-21.381678,72.928719
3705000000,-8.0451956,-32.136566,-58.817669,162.37614,-59.226849,165.9046,-24.891462,25.56365
3710000000,-19.521971,-88.996033,-59.508045,51.605789,-59.370094,52.016109,-23.125116,140.83096
3715000000,-6.5205708,-53.966789,-59.177551,-53.797474,-58.999172,-57.632729,-20.723234,25.160818
3720000000,-11.141953,-36.104691,-59.293884,-157.01466,-58.819881,-154.78047,-21.842155,156.25526
3725000000,-19.970127,-58.325165,-58.201012,88.535378,-58.45031,90.408264,-23.271078,-0.23392062
3730000000,-4.9473958,-54.268333,-58.565342,-4.6463609,-59.086266,-4.5502543,-27.375256,102.73651
3735000000,-17.682835,12.466724,-58.820801,-111.44804,-59.319611,-109.4529,-25.229893,88.760483
3740000000,-7.808754,-64.240891,-58.939625,138.74797,-58.528698,136.27245,-39.933014,-11.40536
3745000000,-9.1011457,-66.377602,-58.680664,30.360645,-58.539181,30.859797,-23.472013,103.17712
3750000000,-10.749979,4.1461158,-58.694691,-63.509762,-58.369949,-64.331459,-30.550701,158.97536
3755000000,-5.6822939,-106.26276,-58.700291,-179.01483,-58.135021,-179.50104,-30.466621,30.324598
3760000000,-6.0230637,-3.1755927,-59.675289,78.45668,-59.305943,79.203537,-22.200577,139.15648
3765000000,-5.5792861,-85.539185,-59.373718,-32.846642,-58.626015,-31.695667,-27.176321,-43.296368
3770000000,-14.984722,-90.045097,-58.388485,-131.72224,-58.632191,-135.55151,-22.285936,105.29707
3775000000,-5.3972664,-28.947096,-59.177521,122.61068,-59.368595,124.61022,-29.350597,55.632
3780000000,-11.920149,-131.17436,-58.421528,20.151487,-58.053913,21.324303,-23.578878,156.33197
3785000000,-4.856811,-42.844097,-59.111446,-84.00766,-59.111904,-85.508652,-19.884142,57.727291
3790000000,-10.99544,-72.637154,-58.920063,165.17676,-59.35078,166.79059,-18.113949,164.66476
3795000000,-10.356209,-95.950203,-59.668579,63.531864,-59.564507,65.450035,-27.15827,36.626965
3800000000,-7.328692,-43.59201,-58.587814,-46.669018,-58.751953,-47.608013,-20.162361,141.48489
3805000000,-12.825231,-63.981483,-59.294216,-144.81729,-59.110657,-144.72202,-46.66433,103.99162
3810000000,-8.5407276,-79.25296,-59.818577,112.82088,-59.544689,111.06512,-23.601601,96.320473
3815000000,-5.3326139,-58.623257,-59.139469,11.763667,-58.709652,14.18244,-23.563343,117.89177
3820000000,-18.514931,-167.76868,-59.787174,-92.75415,-58.893951,-90.91375,-24.325743,121.57999
3825000000,-3.820003,-60.249672,-58.932465,158.57895,-59.286827,158.85039,-22.468004,73.187912
3830000000,-16.540068,-101.576,-59.010952,53.305023,-59.053814,54.644016,-16.516438,134.80153
3835000000,-8.1327152,-57.807156,-59.268047,-50.921391,-59.64518,-53.370598,-59.098362,-3.2816656
3840000000,-5.1750398,-94.675316,-59.583641,-157.81842,-58.990047,-153.66481,-18.764406,113.9567
3845000000,-13.841378,-1.9585841,-59.943157,108.72861,-60.437912,109.86021,-30.308428,123.54818
3850000000,-3.7363124,-92.365433,-60.247581,0.56506169,-60.177338,-0.7304368,-23.51893,111.77002
3855000000,-12.547312,-75.346909,-60.326294,-100.3019,-60.470394,-105.08083,-19.852978,77.308479
3860000000,-8.8197813,-61.913113,-59.841492,150.64526,-60.374073,151.7231,-22.059128,144.51407
3865000000,-6.817543,-98.217476,-59.992138,49.572712,-60.076336,52.507648,-17.348293,65.133858
3870000000,-7.1399064,-53.888702,-59.702679,-54.693336,-59.607243,-51.324348,-17.773367,145.00073
3875000000,-7.7289515,-115.80997,-60.334576,-154.75313,-60.796635,-158.43332,-21.212667,64.609802
3880000000,-9.6520452,-79.578293,-59.799114,101.62561,-59.596024,97.7117,-22.028543,124.96839
3885000000,-7.986506,-55.782585,-59.565525,-3.5426726,-59.079571,-2.8748167,-19.459503,91.449379
3890000000,-5.384902,-112.53831,-59.866047,-106.39505,-60.018761,-105.62048,-38.421642,149.8596
3895000000,-7.9548516,-77.973709,-59.483921,148.58755,-59.273674,149.5766,-16.025217,65.635887
3900000000,-8.6371861,-80.998268,-59.675983,44.556908,-59.817703,46.506493,-20.624525,132.11189
3905000000,-7.8506513,-105.66459,-58.94471,-60.85392,-58.968025,-59.038887,-19.015575,47.798691
3910000000,-6.6986561,-57.142376,-59.679073,-162.16966,-60.26178,-164.28758,-16.943296,110.7728
3915000000,-7.5451078,-122.48833,-59.477772,89.667511,-59.122364,90.770752,-24.713873,51.452877
3920000000,-6.3590093,-74.902679,-59.629742,-11.296459,-59.706291,-14.296492,-19.678339,103.28901
3925000000,-8.4495993,-101.93721,-59.465279,-117.29793,-59.080128,-111.98301,-19.756927,59.365547
3930000000,-14.795253,-111.86697,-58.884136,142.89076,-59.001137,140.57776,-23.995146,153.1089
3935000000,-2.9761794,-91.796654,-60.396832,33.965351,-59.864338,40.665138,-14.828093,36.861359
3940000000,-18.721193,-66.051674,-60.756912,-69.216461,-60.430412,-69.909775,-19.000759,133.05167
3945000000,-4.2763381,-114.62604,-59.291981,-165.84209,-59.344967,-165.1817,-17.455166,31.737751
3950000000,-8.6444244,-81.583794,-59.824745,85.026619,-59.570782,85.002502,-18.303434,94.326141
3955000000,-10.028964,-98.22406,-59.178551,-16.816154,-59.111778,-17.364866,-25.778549,88.380463
3960000000,-6.1211419,-122.34163,-59.249477,-113.81723,-59.439583,-113.08775,-19.818176,42.576683
3965000000,-9.1945591,-71.541817,-59.879765,135.47246,-59.76709,134.86127,-20.78841,99.545448
3970000000,-6.9353476,-127.86517,-60.094193,30.837847,-59.876686,32.582054,-26.481461,26.034412
3975000000,-5.438242,-110.87251,-60.609478,-74.344246,-61.225891,-75.663719,-18.694147,39.112221
3980000000,-10.190007,-88.438141,-59.627705,175.81731,-59.785892,175.63222,-19.868404,101.98644
3985000000,-7.2959094,-131.68785,-59.100197,82.561378,-59.571739,84.414238,-20.025694,8.4344883
3990000000,-8.5007563,-97.754768,-59.159695,-25.954153,-59.685459,-22.811686,-19.315023,94.03817
3995000000,-7.6804137,-100.74284,-60.380852,-122.84369,-60.562466,-121.31894,-23.216267,39.602875
4000000000,-4.672956,-148.72841,-61.209087,128.83159,-62.317917,127.29678,-35.73542,38.344437
END

