!CSV A.01.01
!Keysight Technologies,N5247A,US56070710,A.10.64.09
!Date: Thursday, November 10, 2022 02:24:47
!Source: Standard

BEGIN CH1_DATA
Freq(Hz),S33(DB),S33(DEG),S34(DB),S34(DEG),S43(DB),S43(DEG),S44(DB),S44(DEG)
3000000000,6.0262575,24.065155,-56.54702,172.17557,-55.651562,163.40038,-16.090607,-140.28346
3005000000,5.4149771,-75.718102,-55.768654,82.904366,-56.120861,83.893715,-15.666727,-140.05009
3010000000,6.4785891,176.989,-57.874443,-20.597708,-58.297249,-19.086205,-15.736123,-142.6602
3015000000,7.2384605,103.54381,-60.522099,-98.652824,-59.489304,-86.696465,-15.847712,-146.42282
3020000000,5.6313906,-9.4185343,-61.966167,175.69885,-61.30806,166.21063,-15.63539,-146.56104
3025000000,5.9587488,-105.88999,-64.476524,100.1129,-64.754189,98.30896,-15.44487,-148.16013
3030000000,6.5235963,157.31294,-65.435234,44.003193,-66.387741,44.69854,-15.339625,-153.1429
3035000000,8.3308563,66.227303,-64.35112,-37.772202,-61.295357,-35.128391,-15.456731,-157.16013
3040000000,3.6145689,-31.63327,-60.341381,-101.23244,-61.342525,-104.7971,-15.550973,-162.02068
3045000000,6.8836555,-139.95039,-59.035366,165.64938,-58.478985,160.79382,-15.125356,-166.69615
3050000000,7.4617405,132.82899,-58.469795,60.869869,-58.02935,71.563904,-14.950614,-165.35995
3055000000,6.9475479,41.124977,-57.765839,-13.708554,-56.54409,-15.882583,-15.419442,-164.46307
3060000000,5.0269933,-60.118008,-55.592484,-102.48776,-55.616688,-104.19514,-15.398112,-170.60518
3065000000,6.6130447,-170.46255,-55.310818,161.25986,-55.712994,161.38507,-14.840891,-174.79236
3070000000,7.470408,113.40017,-55.143108,69.74839,-54.589622,80.175957,-15.169604,-173.31764
3075000000,6.0198011,5.0933676,-54.648445,-16.273008,-53.870281,-24.021269,-15.919381,-175.63171
3080000000,4.3502307,-93.00499,-54.924503,-111.82728,-54.897659,-108.19975,-16.016056,-179.68823
3085000000,5.9984307,165.35851,-55.156002,158.99864,-56.001392,156.31172,-15.858221,-179.75352
3090000000,8.3965588,83.664345,-55.463169,59.991314,-53.408279,66.805901,-16.113762,179.53259
3095000000,4.2059569,-16.345818,-54.935535,-25.008505,-55.187553,-29.379677,-15.989898,174.03737
3100000000,5.8053122,-125.73068,-56.223301,-113.55863,-55.936779,-115.88299,-15.858381,170.86264
3105000000,6.9018016,139.52931,-55.950211,134.69115,-55.73769,145.31157,-16.129282,170.7175
3110000000,7.6915522,56.163498,-58.191967,54.263783,-56.3941,51.606159,-16.504494,169.35452
3115000000,4.6872211,-42.534203,-58.245384,-27.175413,-58.395187,-27.054033,-16.45385,168.69127
3120000000,6.18051,-158.64096,-61.000877,-133.84018,-60.854637,-130.26839,-16.412712,169.8481
3125000000,6.9622955,123.53774,-63.016663,155.95261,-62.614155,164.70593,-16.478718,169.21071
3130000000,7.6740913,21.061823,-64.419228,92.212433,-63.074959,85.045372,-16.910635,165.53714
3135000000,4.3116236,-73.978806,-68.317413,22.025879,-68.734528,19.441582,-17.484642,161.55162
3140000000,6.0831761,175.54327,-63.707176,-55.995281,-64.492523,-61.246136,-17.771355,159.50803
3145000000,8.7987242,95.221939,-63.010284,-136.72052,-61.736217,-132.35844,-17.628128,159.40677
3150000000,5.5932131,-0.56977296,-59.945263,155.24231,-60.126671,152.98875,-17.433441,159.83586
3155000000,5.6079731,-104.57803,-60.782005,60.63142,-60.752293,60.647484,-17.168682,159.63959
3160000000,6.5581803,149.36092,-58.200298,-42.838894,-58.667973,-37.263855,-17.046101,157.89082
3165000000,8.4704123,71.21286,-56.888802,-121.99586,-55.017109,-117.84959,-17.511919,156.79506
3170000000,4.873105,-25.134932,-57.312904,140.56953,-57.88385,137.08473,-18.057756,157.09775
3175000000,5.3602824,-139.4635,-56.130203,43.760731,-55.830418,41.444298,-18.071144,158.35112
3180000000,6.9819608,131.82416,-56.497944,-36.215508,-57.220596,-28.459267,-17.913849,159.19638
3185000000,9.031188,33.10474,-56.251308,-133.74141,-53.591881,-139.03418,-17.978802,161.71338
3190000000,4.3104267,-53.544987,-57.716141,130.90694,-58.032188,131.68829,-18.336857,159.95264
3195000000,5.780911,-173.67493,-56.683628,51.056122,-57.104366,45.964199,-18.838835,152.64435
3200000000,8.3316584,103.43531,-57.874939,-55.618656,-56.563129,-42.891987,-18.547657,147.9823
3205000000,6.5345063,7.3742266,-60.336826,-139.7307,-60.37904,-150.56575,-18.506474,154.18658
3210000000,6.9249134,-81.771515,-59.428703,138.53351,-60.128555,140.96826,-18.632877,155.84773
3215000000,7.739161,158.18781,-62.443405,32.207573,-63.116055,35.974964,-18.398073,151.15073
3220000000,11.077259,81.863655,-67.017418,-29.12961,-64.232414,-23.681246,-17.440817,151.62875
3225000000,7.3318496,-19.068787,-65.401985,-108.76633,-65.713684,-119.44507,-17.551949,155.32425
3230000000,7.2727556,-121.77431,-64.524078,-178.76143,-63.46122,-178.27493,-18.433641,152.3237
3235000000,7.1730113,138.04785,-64.712479,110.63896,-65.62133,113.32193,-18.497339,150.22859
3240000000,11.311815,40.894753,-65.41803,15.243696,-61.679699,12.328955,-17.895773,154.87506
3245000000,6.6911077,-40.217628,-61.978493,-50.660267,-62.614704,-53.625072,-18.016775,155.97878
3250000000,7.6134539,-160.46376,-59.761059,-140.70065,-60.120102,-150.6468,-18.226915,151.71431
3255000000,9.0522051,120.06418,-60.07729,116.46449,-59.238972,136.95337,-17.999392,149.30098
3260000000,9.6216993,12.343022,-60.096397,41.370934,-58.538284,22.602003,-17.87785,146.32471
3265000000,7.6329279,-68.696053,-57.255756,-49.0023,-57.755978,-50.496613,-17.721094,143.96754
3270000000,7.3275957,167.1832,-58.067497,-160.82266,-59.311043,-155.45634,-17.517601,148.53035
3275000000,11.158369,90.09922,-59.668457,114.27421,-56.952538,129.32574,-17.606743,150.66011
3280000000,8.1871729,-13.867246,-58.633759,35.878735,-59.520191,20.948381,-17.623234,144.71519
3285000000,7.1987448,-98.174088,-57.917053,-67.269691,-58.12553,-60.838299,-17.092894,141.64037
3290000000,6.9514947,146.59987,-60.210243,-153.14098,-61.891876,-146.79512,-17.018822,143.4908
3295000000,12.260026,43.158108,-60.78286,117.41729,-56.837311,105.32796,-17.421806,140.32896
3300000000,7.2352276,-33.143509,-61.636566,27.844564,-63.111328,27.790466,-17.479193,138.88275
3305000000,8.5175104,-145.83228,-61.674561,-55.751205,-61.328068,-67.089172,-17.362886,142.06111
3310000000,9.0969429,123.06162,-64.930351,-144.35909,-64.308655,-128.35223,-17.482864,137.59225
3315000000,10.62822,17.849195,-65.363983,171.67749,-64.517242,154.10558,-16.905397,130.52802
3320000000,8.0504217,-51.787815,-63.237411,81.795921,-64.662224,80.636818,-16.718439,133.29349
3325000000,7.471508,178.90343,-63.273296,-5.0414486,-63.50972,-11.15841,-17.402567,133.10225
3330000000,10.542839,100.38573,-61.476158,-81.611046,-59.682941,-67.247116,-17.532774,124.36783
3335000000,9.3274784,-7.8767982,-59.285347,-176.22832,-59.75486,168.73535,-16.732048,125.54165
3340000000,8.7493448,-88.025642,-58.752522,86.297562,-58.470432,93.271591,-16.589737,130.10841
3345000000,6.5565615,156.84392,-58.122963,-1.0126733,-60.108189,-0.85715115,-16.992399,125.08522
3350000000,12.854568,57.515003,-59.090115,-98.460976,-54.690971,-102.46994,-16.926678,119.55779
3355000000,7.7858701,-23.000183,-57.583782,171.05591,-58.8619,163.03368,-16.89966,121.29108
3360000000,9.1998758,-123.46181,-57.908607,73.178505,-57.063755,66.724678,-17.453884,119.11945
3365000000,8.3674259,133.29704,-58.651295,-30.964479,-58.735699,-19.352987,-17.750399,115.01942
3370000000,11.247289,23.252844,-61.604202,-123.43472,-59.753227,-141.60158,-17.64538,114.6677
3375000000,8.8509703,-47.649544,-64.139702,150.70459,-63.875965,152.50018,-17.476301,111.30979
3380000000,7.1277142,-162.64531,-71.469963,29.058937,-72.01355,20.384138,-17.327442,106.31054
3385000000,8.916851,112.35997,-76.8134,122.24811,-78.607979,144.2518,-17.517027,106.2702
3390000000,9.6303806,0.35680687,-68.490341,11.596878,-67.283768,-1.0931923,-17.944256,104.17723
3395000000,8.6535625,-68.605171,-61.247215,-83.055038,-61.930359,-75.075607,-18.071718,102.40099
3400000000,6.8391347,169.12503,-58.526218,174.9615,-59.610939,171.89742,-18.041281,104.6694
3405000000,12.501028,74.208031,-58.635029,81.171837,-55.074688,84.493912,-18.633553,104.88566
3410000000,8.8298893,-20.182812,-55.268192,-14.484963,-56.843197,-24.225153,-19.067533,98.049377
3415000000,10.346755,-113.34647,-54.741798,-117.21319,-53.321423,-120.06782,-19.087519,94.678619
3420000000,7.2758193,138.59013,-54.608543,133.56012,-55.336899,141.06137,-19.680891,94.427765
3425000000,11.631815,36.503963,-55.567467,48.230442,-53.030888,40.740028,-20.795446,90.037727
3430000000,8.9960365,-41.467342,-55.240215,-49.788673,-56.14283,-52.521152,-20.297829,85.555305
3435000000,8.8598957,-151.49789,-55.280514,-153.85445,-55.352505,-161.84729,-19.648924,86.549316
3440000000,8.3652706,119.25315,-57.925354,114.13256,-58.287556,126.01016,-20.216585,87.418892
3445000000,10.549246,2.5982132,-59.635624,22.681559,-58.836964,3.9925022,-20.852936,83.940765
3450000000,9.0772848,-64.769005,-61.091442,-82.975273,-61.695927,-76.687904,-20.460146,80.850212
3455000000,7.1729598,175.80153,-65.347443,-157.85304,-66.03302,-166.22264,-21.049042,85.322784
3460000000,10.768331,84.339165,-72.562424,102.49237,-69.281815,115.97761,-22.514244,93.91346
3465000000,9.2746954,-15.77466,-87.754349,41.644413,-87.178337,86.401901,-23.57255,90.041916
3470000000,10.248179,-99.026825,-68.855591,42.768559,-67.88253,47.302975,-23.626339,80.377457
3475000000,6.7760105,149.31827,-65.754509,-42.510746,-66.98333,-33.926399,-24.160801,81.148201
3480000000,11.627147,47.327934,-61.332329,-115.97548,-59.191204,-124.11148,-24.714455,78.814552
3485000000,9.5498734,-39.362526,-58.824894,135.94075,-59.935516,129.6299,-24.341139,71.489594
3490000000,9.0033598,-135.52432,-58.163815,36.815777,-57.899387,36.93996,-24.495102,82.038445
3495000000,7.1035514,128.41074,-57.438702,-53.594669,-58.001694,-44.129814,-24.849049,95.830109
3500000000,10.721275,9.5208921,-57.342045,-144.04834,-55.79565,-163.98222,-25.376032,90.394768
3505000000,8.4873514,-57.792252,-55.566525,120.93869,-57.050842,122.36823,-25.620964,85.020546
3510000000,8.03374,-171.88278,-56.546371,20.945166,-57.067089,12.011433,-25.852888,96.440872
3515000000,9.1784067,95.77755,-57.473206,-73.449791,-55.939331,-65.21225,-25.932152,99.620674
3520000000,9.0508547,-7.9906845,-56.563705,-163.58014,-57.014736,-175.82486,-26.930681,105.3942
3525000000,10.01271,-84.648979,-57.126305,100.42931,-56.660137,100.10023,-27.792,122.40804
3530000000,6.5333676,160.60498,-58.306499,-7.4102678,-59.485901,-5.5393262,-29.226549,113.78769
3535000000,10.940777,62.981716,-60.906197,-93.545242,-58.019848,-93.981377,-27.722578,87.342216
3540000000,8.8236046,-31.367867,-60.709564,-177.09445,-62.192894,171.00153,-26.696249,99.69503
3545000000,9.7068129,-116.78876,-64.878548,74.624466,-63.203995,76.76767,-27.05039,112.31596
3550000000,6.2447243,138.78845,-69.20565,0.79563284,-70.711937,11.618038,-27.923525,101.12117
3555000000,10.304862,24.965586,-73.432564,-67.118027,-71.078423,-72.801308,-26.470366,105.44601
3560000000,7.9572401,-49.315308,-71.721581,-76.275528,-73.073723,-86.768951,-25.33606,115.32273
3565000000,8.5522861,-158.35139,-65.995621,-160.0766,-65.556313,-171.05904,-25.489227,104.13725
3570000000,7.780993,108.74962,-64.405296,111.39387,-63.722786,122.29473,-24.236414,100.08605
3575000000,9.0293732,-2.5316114,-60.743,27.383291,-60.592987,8.9742794,-23.210133,119.287
3580000000,8.9787292,-72.501007,-58.571999,-76.797523,-58.72337,-70.610153,-24.802814,132.50179
3585000000,6.8478117,173.98984,-58.920242,178.61658,-59.129173,177.35786,-27.695316,122.64854
3590000000,9.0063076,81.982086,-58.760555,87.563309,-57.511036,96.338348,-26.057625,111.63483
3595000000,8.6499166,-24.865248,-57.805954,-5.9932485,-58.879669,-18.123152,-25.370615,112.43331
3600000000,9.3208628,-102.91489,-57.187447,-108.71532,-57.208107,-104.30134,-26.652487,99.306633
3605000000,5.9125409,147.12762,-59.312794,151.5905,-60.54525,153.63521,-25.297102,94.177032
3610000000,9.9611225,42.25642,-61.178837,66.457718,-58.660767,61.548763,-24.230091,100.76121
3615000000,7.8877497,-43.491566,-62.308247,-34.865578,-63.67197,-36.831951,-24.604731,105.1644
3620000000,9.5467224,-139.83824,-66.055939,-128.74138,-65.21682,-132.70705,-23.907139,103.53687
3625000000,6.7189794,123.27314,-72.363869,168.61104,-70.643082,175.34251,-23.502913,108.65292
3630000000,9.6133556,16.020586,-73.672874,159.96681,-74.748665,156.22234,-25.28323,108.60189
3635000000,8.6300926,-58.517338,-66.622932,90.640488,-67.593803,88.715065,-26.560871,97.799492
3640000000,7.7044182,-171.41177,-63.636955,-16.032988,-63.431118,-22.409401,-25.516727,95.780579
3645000000,7.9496937,100.89076,-62.164867,-106.45985,-61.623375,-95.468002,-25.693939,103.42519
3650000000,9.2057199,-14.360265,-59.304104,161.75853,-59.113049,146.16995,-26.412039,103.808
3655000000,9.201067,-83.72467,-58.008171,58.874973,-58.298092,64.176727,-26.454233,98.018776
3660000000,6.5605912,162.33905,-58.161316,-36.605598,-59.618652,-38.125957,-27.09086,90.335243
3665000000,9.0745983,59.529442,-58.760746,-131.70103,-56.535496,-129.54437,-27.262442,80.32605
3670000000,7.6340241,-34.055717,-57.871292,136.88095,-59.148998,129.92207,-26.157177,82.045784
3675000000,9.889987,-119.73926,-57.602711,39.093376,-56.953003,38.921253,-26.100105,95.393547
3680000000,6.3380971,136.50891,-59.188793,-59.095821,-60.156765,-57.390244,-27.461842,106.34739
3685000000,10.169013,29.33737,-59.685509,-147.52353,-58.290478,-154.82133,-28.684067,100.5248
3690000000,8.816987,-56.541367,-61.734367,111.98447,-62.731361,110.61681,-28.252069,94.310509
3695000000,8.148963,-154.05161,-65.563034,4.1567941,-64.919724,5.0192475,-29.793236,100.05172
3700000000,6.4784675,113.96646,-66.610626,-67.320328,-66.949371,-57.30479,-34.002281,102.9099
3705000000,9.593153,-4.1534619,-72.750229,-170.76755,-72.15686,166.83105,-35.082752,79.666077
3710000000,8.2356987,-71.411362,-80.297661,177.40979,-84.317322,148.83405,-32.079773,85.373856
3715000000,7.3998666,175.33168,-71.862137,146.71915,-73.020622,141.35477,-31.238382,97.635155
3720000000,8.2611799,77.793304,-68.214325,55.345467,-66.17498,63.975563,-31.890934,103.06091
3725000000,8.2879915,-25.429089,-61.788116,-30.277798,-62.761253,-40.519661,-32.350021,97.038017
3730000000,9.9318924,-104.58678,-60.652409,-128.83128,-60.735493,-125.63663,-32.727119,104.8459
3735000000,5.8518,149.00392,-59.524361,138.68857,-60.239895,137.53308,-32.8578,116.33768
3740000000,9.1550035,48.632736,-57.69804,48.393139,-56.306026,45.730507,-30.467653,126.58698
3745000000,8.6405859,-46.30022,-57.268936,-56.938984,-58.15876,-61.568844,-28.462198,137.93616
3750000000,9.2037258,-134.73994,-57.743523,-152.1044,-57.019642,-152.46535,-29.292374,155.85468
3755000000,5.6529441,129.71794,-57.698215,114.07188,-59.422764,120.32653,-32.713253,157.64838
3760000000,9.9333305,12.23745,-57.955391,12.906288,-56.16711,2.4548922,-32.607754,141.06248
3765000000,8.2052498,-61.229771,-56.995689,-80.03476,-58.93816,-79.778191,-30.80327,149.77829
3770000000,8.8041325,-167.30212,-58.413887,-177.68565,-58.429634,173.74239,-30.96266,157.99493
3775000000,7.3495455,97.130325,-59.774765,86.242287,-59.446575,95.409721,-29.799675,138.47325
3780000000,9.2253828,-17.372648,-59.231628,-8.8316383,-59.624592,-22.577187,-26.813227,135.7361
3785000000,9.8806057,-83.849106,-62.632042,-114.24463,-63.091507,-106.93842,-25.95763,145.54544
3790000000,7.1827741,165.24091,-66.278503,150.03305,-66.228264,144.38333,-26.032145,149.89252
3795000000,8.185545,73.688934,-69.522942,54.775337,-68.012062,62.592545,-25.532932,151.73106
3800000000,8.8175716,-39.872627,-70.75724,-67.211678,-71.859459,-80.559715,-25.50569,158.74329
3805000000,9.6372557,-115.89806,-71.742241,104.49041,-70.746323,118.09209,-25.49855,154.78711
3810000000,6.1325879,139.11584,-68.858086,-7.4806895,-69.868469,-2.1829643,-24.265491,147.95544
3815000000,10.311271,26.836826,-66.175217,-100.14993,-63.934536,-110.23107,-24.569616,153.90784
3820000000,8.2440453,-56.466194,-61.784512,150.70107,-64.031998,152.65414,-27.377657,152.59702
3825000000,10.003824,-153.00902,-60.036564,43.375042,-58.816936,39.536816,-25.963894,128.69948
3830000000,5.6543493,111.93133,-59.886272,-51.44302,-60.312477,-44.668739,-23.141592,131.74384
3835000000,9.5373344,-4.5005975,-57.734005,-144.84579,-56.828655,-159.64624,-23.118916,143.7061
3840000000,9.3817797,-77.81028,-56.758209,118.95425,-57.854431,122.01836,-23.988436,137.28694
3845000000,8.4028244,176.56277,-56.726768,12.046042,-56.967575,10.776084,-22.849815,127.21768
3850000000,7.8347006,88.512207,-57.071304,-76.553726,-56.493534,-65.347992,-22.474659,130.28365
3855000000,9.1692514,-30.592878,-57.120926,-170.79713,-57.750999,178.26469,-22.985502,133.43904
3860000000,10.149104,-99.346939,-56.387341,93.40403,-56.335323,100.31628,-22.697304,128.73882
3865000000,6.4431672,151.83006,-57.828362,-13.625751,-58.669067,-14.872954,-22.433037,128.77678
3870000000,8.6362734,50.599735,-58.789677,-103.29906,-57.200668,-102.80011,-22.63201,128.53827
3875000000,8.2312641,-51.969891,-58.991787,163.70682,-60.374981,156.00836,-22.211037,123.66769
3880000000,10.73986,-133.80849,-60.18483,55.309631,-59.665176,56.313004,-22.49531,119.85112
3885000000,5.8996372,129.105,-64.22612,-49.633305,-64.843964,-43.673306,-23.652174,114.20419
3890000000,9.8686638,16.162281,-65.562012,-125.46881,-64.087646,-131.39784,-22.32408,105.81946
3895000000,8.7384119,-69.267441,-68.477951,123.31634,-70.83329,122.65207,-20.415108,109.1672
3900000000,9.7503242,-168.44771,-78.865135,-62.495419,-78.587158,-64.668213,-20.640278,116.64122
3905000000,7.0666099,98.069115,-75.540146,146.46727,-75.682709,154.36861,-21.752352,118.09892
3910000000,9.3669538,-21.104469,-67.860222,68.433838,-66.181564,55.507252,-21.935266,110.93465
3915000000,10.22762,-89.885704,-64.909134,-52.994606,-64.906631,-44.036926,-22.351809,107.3271
3920000000,8.0567045,161.11563,-63.130577,-146.16971,-64.449356,-157.68486,-23.096769,107.42065
3925000000,8.3712978,69.778976,-60.873856,116.60825,-59.129326,131.1772,-23.107744,104.84103
3930000000,8.4420681,-45.103115,-59.463646,20.702526,-60.482769,7.6803141,-23.118364,97.869354
3935000000,11.066854,-123.80132,-59.388817,-82.315559,-58.108791,-81.013725,-23.253183,87.595161
3940000000,6.574234,139.74245,-58.724373,-173.82671,-59.403248,-175.27304,-21.968973,84.975105
3945000000,9.7466574,31.523014,-57.39674,94.648994,-56.058983,86.227318,-20.978275,88.448524
3950000000,9.430191,-63.745808,-57.034439,-8.9346867,-58.328091,-8.749402,-22.072443,93.891365
3955000000,10.462327,-154.34262,-57.610359,-106.48811,-56.58667,-106.8367,-23.735277,94.694435
3960000000,6.0413623,118.02821,-58.179943,161.73549,-58.957542,170.36865,-23.300617,88.636703
3965000000,8.7863111,-9.4879875,-58.150188,70.224846,-57.973381,57.751106,-22.826601,83.875076
3970000000,8.7130384,-80.940346,-57.672363,-31.176249,-59.33971,-23.077499,-23.985245,81.965691
3975000000,9.0928459,172.38756,-60.271881,-134.27792,-60.450962,-142.84396,-24.251463,76.66909
3980000000,7.7357249,86.940979,-61.614017,134.39948,-60.726662,142.56725,-23.645243,74.024918
3985000000,7.9485879,-33.020947,-62.22847,40.590462,-62.748516,30.762053,-24.628933,74.542557
3990000000,10.126627,-107.22694,-64.432716,-74.375916,-64.266144,-61.698814,-25.239092,72.61779
3995000000,6.6873336,150.69295,-67.713097,-161.73596,-69.498749,-167.13405,-23.371292,69.122017
4000000000,6.1698661,52.522575,-68.941032,101.79622,-67.899277,100.33242,-22.979837,71.624184
END

