!CSV A.01.01
!Keysight Technologies,N5247A,US56070710,A.10.64.09
!Date: Saturday, November 19, 2022 23:44:16
!Source: Standard

BEGIN CH1_DATA
Freq(Hz),S33(DB),S33(DEG),S34(DB),S34(DEG),S43(DB),S43(DEG),S44(DB),S44(DEG)
3000000000,-11.647754,-179.09375,-65.915916,119.68318,-65.328766,114.4425,-18.122675,-165.17203
3005000000,-11.93543,81.426132,-63.791973,-9.4055424,-64.631989,-11.635812,-17.599298,-157.53812
3010000000,-14.735528,125.15362,-63.041157,-105.87258,-63.491703,-101.16951,-15.332655,-171.86429
3015000000,-10.10256,162.37512,-60.369991,151.395,-60.000614,152.95056,-16.03438,-157.93343
3020000000,-14.599057,50.121071,-60.687057,44.928291,-61.028645,46.506649,-16.356733,-179.5611
3025000000,-7.8855424,139.68036,-61.114067,-45.481487,-60.937901,-46.127754,-14.74557,-164.63399
3030000000,-21.459709,83.446625,-59.120583,-132.29555,-59.566525,-132.88139,-18.511572,175.75279
3035000000,-14.150682,75.254745,-61.445812,136.55249,-61.02158,134.51505,-14.150814,-176.83304
3040000000,-7.0815902,142.45901,-62.728893,24.568298,-62.406776,27.118279,-18.413876,171.68134
3045000000,-25.338261,45.441814,-64.473312,-61.208126,-64.334183,-64.049194,-15.665768,170.74864
3050000000,-10.825488,96.935463,-65.852837,-160.1487,-64.980927,-159.0396,-14.281013,163.78773
3055000000,-8.4603786,127.32291,-68.49839,64.02607,-67.934929,66.383926,-16.218044,-178.63065
3060000000,-17.220879,-5.1682816,-69.198982,-81.648163,-70.51088,-86.897812,-14.801789,155.40106
3065000000,-5.7363591,114.19635,-67.065292,-168.49228,-66.516846,-169.24779,-15.783552,-178.12585
3070000000,-21.711432,157.2318,-64.536232,95.434372,-63.407455,98.383499,-16.794617,150.14719
3075000000,-11.538961,85.93689,-61.725239,-9.7050676,-61.799725,-16.43619,-16.377562,160.54356
3080000000,-5.997438,104.13953,-62.355457,-105.5255,-61.519878,-107.3549,-16.326372,152.53432
3085000000,-15.242491,-131.39188,-61.48526,161.22414,-61.658123,162.17769,-17.051268,148.34976
3090000000,-5.4849238,81.578308,-61.527428,68.24765,-61.235096,66.333832,-13.851824,145.96376
3095000000,-14.783919,155.10057,-63.789703,-23.806084,-64.356354,-23.180914,-17.990803,165.42844
3100000000,-11.615143,103.83163,-65.017555,-115.12978,-65.28096,-116.93011,-14.563647,137.66571
3105000000,-8.0009346,72.310577,-68.488579,129.59442,-67.194756,129.93806,-16.946739,166.3497
3110000000,-8.9112062,145.38947,-71.330063,34.028088,-72.87751,42.245876,-17.190844,128.85318
3115000000,-11.013997,31.193443,-74.489166,-82.412788,-73.295799,-74.682495,-17.257813,151.88362
3120000000,-7.440053,104.96288,-69.019798,123.87907,-69.604126,123.43221,-16.488749,126.39048
3125000000,-12.865079,142.8571,-67.149605,22.675512,-66.964813,23.659422,-17.534468,144.93501
3130000000,-6.7811775,48.554451,-64.634102,-83.616165,-65.125237,-81.669518,-15.361967,124.43105
3135000000,-8.6506453,120.08678,-65.259926,-163.34789,-65.404312,-169.06805,-17.644798,158.5434
3140000000,-13.395259,82.200302,-63.475338,91.640923,-63.033344,94.962318,-15.813854,117.09093
3145000000,-10.326174,46.320381,-62.389908,3.3841932,-63.130695,5.4742165,-17.41194,150.22374
3150000000,-5.7010961,122.27669,-65.922646,-77.991867,-65.806641,-82.090919,-18.124447,134.95502
3155000000,-10.479018,27.032709,-67.382172,176.30565,-67.923058,-175.16272,-19.232821,119.59895
3160000000,-7.6412349,92.25209,-65.83049,92.049873,-66.968094,83.723763,-16.439146,134.60727
3165000000,-10.557916,79.991508,-70.477249,10.759858,-71.110542,20.402374,-19.069046,112.77164
3170000000,-18.212999,68.422897,-78.755882,-173.45589,-76.424255,-145.73358,-15.405261,132.87872
3175000000,-6.4183049,87.310799,-75.948608,98.904556,-80.264801,124.38255,-18.127596,134.47162
3180000000,-20.181578,44.312878,-68.399841,-34.803478,-68.2472,-34.151634,-17.87985,125.61219
3185000000,-6.2892728,61.37804,-68.529701,-137.07368,-68.305466,-134.08907,-16.983482,146.86201
3190000000,-9.9416189,81.769791,-68.722221,124.9631,-67.444832,125.45676,-20.490541,132.25638
3195000000,-18.513647,53.495125,-64.017181,39.877533,-65.086456,45.075901,-22.138754,116.47445
3200000000,-5.7475767,59.959446,-65.004059,-46.911087,-64.799988,-47.517368,-15.718187,120.63818
3205000000,-9.2182055,113.86524,-68.957108,-158.00563,-69.313431,-160.52731,-25.397711,127.77359
3210000000,-9.1332664,23.617365,-69.678085,136.72841,-69.707932,129.35423,-13.959933,113.35285
3215000000,-7.6857319,65.573555,-69.571442,34.063038,-71.256714,27.089121,-21.83581,135.44205
3220000000,-13.622336,90.477951,-74.448997,-57.12426,-73.331223,-48.184868,-15.493143,126.0415
3225000000,-8.408637,35.346577,-78.094772,-131.74051,-78.747467,-140.16779,-18.882685,124.98496
3230000000,-8.4587698,74.469887,-87.942474,-99.422905,-91.308922,-21.494854,-18.147062,142.5406
3235000000,-12.388062,81.27388,-79.97699,-76.59584,-81.061958,-127.13669,-20.216343,106.37598
3240000000,-4.3491135,26.845345,-76.098526,175.74901,-78.404297,158.14281,-16.652147,124.7521
3245000000,-10.094308,117.21047,-75.17144,106.86794,-72.948029,93.302063,-20.271168,132.47273
3250000000,-9.3463726,27.517422,-69.549782,-11.140744,-72.385475,-4.7318144,-17.234211,100.26272
3255000000,-8.4034128,57.116856,-68.427757,-92.866272,-69.194397,-99.809891,-17.3304,134.37097
3260000000,-9.2787275,72.562004,-70.750229,-175.00868,-69.831734,-177.55334,-16.030523,106.88765
3265000000,-8.333539,2.5622373,-69.08963,89.491852,-70.544594,85.234558,-18.505732,134.26227
3270000000,-5.1856256,71.345108,-74.599632,-0.70465702,-74.254105,3.4504802,-16.629789,120.81255
3275000000,-16.452103,-12.489455,-75.805618,-79.475578,-74.402527,-86.523415,-20.62081,103.5708
3280000000,-8.5532246,54.39782,-79.12851,-158.22639,-76.944542,-160.31505,-14.667087,116.52954
3285000000,-6.5364356,54.678291,-83.257538,-102.68881,-83.330467,-88.910805,-20.74716,116.21463
3290000000,-15.004262,-26.700443,-79.216873,-125.66173,-81.860657,-166.26649,-15.589371,106.55756
3295000000,-5.808156,32.607719,-71.656731,90.7808,-72.198708,82.472305,-15.67874,112.7738
3300000000,-10.222661,69.205727,-71.381393,13.44447,-72.897301,16.527559,-17.715096,120.74653
3305000000,-11.31397,-7.3365369,-70.982773,-74.051529,-73.734444,-81.477051,-16.302671,109.75396
3310000000,-5.532289,46.496986,-71.290756,-152.23273,-69.844704,-153.09296,-16.954004,120.3382
3315000000,-15.937696,47.947433,-72.620056,117.40994,-73.258133,126.74136,-20.152308,94.268425
3320000000,-8.3215818,14.778359,-71.762192,39.402912,-71.305939,32.651642,-15.105767,104.18579
3325000000,-7.9911728,23.034515,-73.549774,-19.149481,-76.323624,-36.101624,-19.20392,97.908875
3330000000,-23.593113,164.26987,-74.358223,-64.903191,-75.28466,-79.811935,-13.969988,96.579926
3335000000,-2.6356287,16.063663,-74.33252,-157.72746,-73.745552,-168.64572,-18.309847,103.20457
3340000000,-14.746666,63.935837,-75.801476,118.31264,-77.8778,135.6541,-14.351056,107.20686
3345000000,-9.9221344,6.7692475,-73.394676,67.3582,-75.509056,55.807381,-19.319328,87.103622
3350000000,-6.1951575,2.6708102,-73.84063,-1.7721198,-74.286041,-3.8297985,-15.169838,107.30238
3355000000,-9.9317503,78.09465,-71.295059,-86.597855,-71.365997,-80.853973,-21.82085,76.437546
3360000000,-8.1555786,-30.615299,-69.561913,-153.46333,-70.512665,-156.01842,-14.89602,90.957924
3365000000,-5.2411737,35.862926,-73.821594,116.04079,-72.975555,107.54951,-18.797012,66.559441
3370000000,-12.730348,-8.0673933,-73.974533,51.154709,-73.936371,45.287548,-15.006924,89.353188
3375000000,-6.8256044,-1.9447647,-72.713989,-18.028719,-74.606087,-26.654341,-16.49696,82.215462
3380000000,-10.488446,42.966759,-74.155396,-90.247063,-74.966743,-98.796715,-17.330336,92.108925
3385000000,-15.695157,19.66301,-74.327301,-149.36511,-75.42881,-144.26843,-18.071997,71.26049
3390000000,-4.69417,-7.5065198,-74.691338,118.59757,-72.360062,126.02831,-17.006594,85.194115
3395000000,-11.26476,70.09214,-69.990601,74.008301,-72.185364,73.320496,-18.144131,71.090973
3400000000,-6.6071935,-36.153446,-70.607529,7.6447396,-69.601494,2.1314504,-17.552748,68.806099
3405000000,-8.8902941,5.5283446,-70.089409,-95.922371,-68.968468,-98.216309,-19.173218,68.722023
3410000000,-11.232261,36.743267,-69.474442,-154.68504,-70.289627,-155.1897,-15.260629,67.967735
3415000000,-6.8925457,-28.552935,-71.245491,112.04433,-70.355247,121.19357,-19.141277,65.760338
3420000000,-6.7262106,25.606323,-67.766815,35.430382,-69.598724,41.029453,-17.156345,84.608147
3425000000,-18.48815,-44.038445,-70.281418,-34.614326,-70.557724,-33.711262,-20.75198,49.567112
3430000000,-5.2896748,-14.985,-70.781647,-110.29915,-72.121201,-120.06229,-17.6479,76.704369
3435000000,-18.23554,27.076937,-72.076103,156.24936,-74.522659,167.92467,-22.296719,40.815979
3440000000,-10.638974,-9.451766,-92.013817,-94.915421,-88.150497,102.25236,-20.672031,55.967968
3445000000,-5.7252045,-15.035183,-77.38726,75.113701,-75.14753,83.75589,-16.415216,51.278591
3450000000,-12.034562,20.410471,-70.152405,36.868038,-72.403275,28.548439,-22.6642,58.78899
3455000000,-8.6215954,-55.9417,-67.321304,-63.588959,-67.824677,-65.460464,-18.661291,58.493324
3460000000,-8.2637615,18.811125,-67.968224,-142.05229,-67.403564,-147.86821,-19.387152,67.728127
3465000000,-11.283457,-20.428188,-65.659111,126.72063,-65.728325,130.83574,-25.597288,56.124195
3470000000,-8.7278042,-36.153255,-65.687256,39.282368,-65.061523,40.934418,-19.009897,59.14489
3475000000,-7.2590094,11.50043,-65.569244,-49.019707,-66.740204,-51.688148,-32.4459,99.024651
3480000000,-11.644584,-82.457336,-68.004623,-146.7998,-67.264351,-150.63927,-19.511635,38.349583
3485000000,-4.8063607,-11.540215,-71.339363,127.83386,-69.788651,119.76836,-22.225836,34.048622
3490000000,-20.011152,42.990688,-70.814514,19.719309,-72.579231,24.947054,-21.942154,102.19935
3495000000,-8.6887512,-30.229189,-77.341705,-135.2778,-77.604965,-130.70245,-17.59207,15.818201
3500000000,-6.6856489,-22.765654,-73.183052,77.24292,-74.008781,70.039528,-18.597681,107.44617
3505000000,-20.749121,42.529144,-70.088547,-16.625553,-69.270012,-17.807961,-25.024979,17.237125
3510000000,-6.5111675,-52.873043,-66.541458,-120.22852,-65.948807,-119.29881,-21.787474,96.615143
3515000000,-7.6093392,11.510071,-64.286133,155.44432,-64.43528,152.6712,-27.884773,36.694969
3520000000,-16.313425,-91.356926,-63.447201,47.735111,-63.303432,51.302406,-27.819681,23.603357
3525000000,-7.4453673,-26.710857,-63.681065,-43.964607,-63.70602,-41.505157,-20.255556,60.361736
3530000000,-8.9546499,-17.60685,-64.00071,-132.89809,-63.287563,-124.30244,-22.175911,82.247108
3535000000,-14.279172,-91.072906,-64.887764,129.24156,-64.548904,133.55336,-27.284586,38.707851
3540000000,-6.8557601,-31.52618,-65.603691,26.942057,-66.430664,32.878017,-17.77932,97.467972
3545000000,-11.71712,37.977333,-69.507339,-70.911354,-68.145981,-66.734306,-44.477551,-109.10937
3550000000,-5.5529041,-59.003307,-69.686226,156.0334,-70.40831,166.40335,-19.824354,81.10257
3555000000,-12.536655,16.958277,-73.100227,28.44589,-72.032585,32.379414,-43.711143,175.91467
3560000000,-10.192554,-44.705761,-68.203568,-64.844513,-68.425453,-61.441269,-22.115362,84.98925
3565000000,-12.681431,-97.459381,-65.085075,-170.58977,-65.091263,-166.23779,-24.532574,32.604343
3570000000,-4.6755958,-1.3081037,-65.103409,90.032082,-63.607803,91.281197,-22.954784,89.868912
3575000000,-12.775135,-129.49176,-63.305294,-19.517353,-63.517799,-11.506051,-21.919415,65.670929
3580000000,-6.1625309,-34.377659,-64.213631,-96.088943,-63.481339,-102.01955,-21.692795,90.011528
3585000000,-12.203397,-25.847103,-62.992237,164.96703,-63.650883,163.47081,-23.552158,95.445572
3590000000,-14.525163,-118.9258,-65.448311,66.910622,-64.737953,64.155243,-32.174709,68.368034
3595000000,-5.4145365,-26.090784,-66.511192,-27.340845,-65.955399,-29.617651,-19.047688,81.709427
3600000000,-23.654058,-13.780617,-67.393494,-126.17488,-68.038376,-131.81229,-41.005459,89.715126
3605000000,-7.2137823,-60.250809,-70.815575,120.82434,-70.127365,117.73021,-21.496773,55.44046
3610000000,-9.2991724,-25.590073,-69.740463,-9.3200016,-70.973167,-8.3020058,-21.560575,77.647484
3615000000,-29.151997,-178.81372,-67.678368,-134.33611,-67.848412,-142.89546,-23.26038,74.28582
3620000000,-7.6991501,-47.201332,-66.379265,129.83395,-66.224731,128.7648,-22.18487,64.698677
3625000000,-9.5197535,-40.175152,-63.238838,30.033876,-63.801842,31.68755,-21.736584,98.160973
3630000000,-21.945902,78.399872,-63.254559,-67.488045,-63.313068,-62.242626,-27.195972,78.021576
3635000000,-4.0679212,-69.003204,-63.02298,-156.79666,-63.542332,-157.28354,-20.815857,50.238995
3640000000,-13.678143,34.043282,-61.745895,107.18855,-61.778297,111.1909,-22.60346,145.09253
3645000000,-6.3881011,-74.822533,-63.399399,9.3064318,-63.556755,4.5537853,-18.102316,11.41394
3650000000,-16.634565,-19.615833,-64.843994,-90.806519,-64.656425,-86.240891,-20.013723,104.77983
3655000000,-6.5596256,-17.056307,-66.853363,174.39021,-66.764221,176.07755,-22.110321,16.467382
3660000000,-5.7395239,-104.04465,-68.117859,60.675529,-69.342056,63.491314,-22.031565,92.77417
3665000000,-6.3190689,13.518728,-69.153,-65.290886,-68.481178,-61.555706,-21.354803,56.872509
3670000000,-9.8203907,-108.71162,-67.323662,-178.10091,-68.201195,177.81496,-30.363602,124.61806
3675000000,-11.225354,-32.524807,-67.525604,67.784012,-67.098305,72.75238,-23.068701,47.286961
3680000000,-7.4093318,-40.817577,-63.388725,-30.149643,-64.017914,-26.968571,-24.9126,118.37954
3685000000,-13.117677,-113.35751,-64.4561,-133.44705,-64.143173,-135.49426,-22.787832,-34.162312
3690000000,-6.6573358,-40.062164,-62.374996,129.34479,-62.151932,132.45822,-19.933668,68.200966
3695000000,-16.639172,-24.786341,-62.740841,43.358143,-62.924175,40.974617,-29.962831,-17.249577
3700000000,-10.723032,-96.551895,-63.505516,-54.75518,-63.515049,-54.364235,-21.831175,68.326988
3705000000,-4.7888675,-27.495684,-64.623833,-153.24591,-64.190941,-142.94957,-23.659302,27.248102
3710000000,-12.412176,-150.88319,-65.567238,105.88694,-65.799744,109.72044,-22.776604,135.57635
3715000000,-6.0679326,-46.128658,-67.178444,17.229645,-67.200821,14.200251,-19.616053,21.513918
3720000000,-9.4497957,-58.021439,-68.241203,-98.551575,-69.664795,-95.3255,-21.083973,158.01642
3725000000,-21.917328,131.08618,-69.288101,138.88855,-70.267075,146.63976,-21.957758,0.45515335
3730000000,-2.5181077,-56.08654,-67.784859,34.360474,-68.074997,42.652546,-26.954315,89.936844
3735000000,-21.715977,106.13657,-66.819344,-72.960625,-67.089462,-76.627541,-24.237665,79.667015
3740000000,-8.0009823,-57.57803,-64.86837,-174.87459,-65.047813,-174.41678,-43.981514,33.299896
3745000000,-6.3235793,-83.470306,-64.638275,88.145798,-64.980324,88.550613,-22.531345,92.252174
3750000000,-9.281435,25.68428,-63.42408,-6.1321273,-63.702599,-4.1379261,-30.600445,152.49451
3755000000,-4.026268,-112.45234,-63.434242,-101.67871,-63.836716,-104.23616,-29.950861,35.890064
3760000000,-6.1685572,-5.1213827,-63.74205,158.75949,-64.502548,152.89001,-21.967756,133.9411
3765000000,-5.9479356,-89.076469,-64.870529,58.458305,-64.451569,60.802872,-25.781166,-37.556419
3770000000,-10.571431,-113.22033,-65.022011,-32.984238,-65.418282,-34.247417,-22.237719,97.379272
3775000000,-4.9980679,-20.301035,-68.503059,-136.217,-68.725151,-142.45267,-26.193497,54.850018
3780000000,-9.1256895,-134.23225,-68.492561,104.32162,-67.911911,105.30051,-23.856842,146.22664
3785000000,-6.1070795,-51.277222,-66.801659,-12.531243,-67.111702,-13.029123,-18.662136,53.040352
3790000000,-9.0347157,-54.302532,-67.171204,-129.33136,-68.598289,-121.53462,-17.524794,157.9608
3795000000,-7.4684653,-131.46623,-65.973602,123.11422,-65.970284,128.14439,-25.433607,38.754528
3800000000,-6.1313152,-33.805199,-64.962944,27.509508,-64.731033,32.89743,-20.230824,136.63161
3805000000,-10.291465,-85.778343,-63.664707,-58.27364,-63.216965,-59.960121,-40.199551,37.754093
3810000000,-14.196897,-99.78643,-64.356758,-160.54866,-64.010986,-160.74556,-22.094727,87.722137
3815000000,-1.7414509,-63.427963,-64.051872,102.69602,-63.788891,107.37741,-23.483471,104.95724
3820000000,-7.986877,146.02495,-63.632313,11.296176,-63.962044,8.5764027,-23.553703,107.75038
3825000000,-1.5643231,-58.494698,-64.944832,-89.198036,-66.29351,-84.268906,-21.077015,66.821388
3830000000,-12.808677,-146.10059,-68.298759,170.40074,-67.847786,160.12407,-15.596452,127.57643
3835000000,-9.572156,-46.158657,-70.572433,69.047234,-71.513992,59.774059,-43.987751,-47.072025
3840000000,-2.7046664,-100.52147,-72.623947,-53.885418,-70.481178,-44.813946,-18.675329,109.14452
3845000000,-13.614318,38.695309,-68.972641,-168.26512,-70.849693,-163.8721,-30.161209,93.790375
3850000000,-3.2709501,-93.535416,-68.934387,80.792938,-68.378792,81.394089,-23.789112,102.73376
3855000000,-10.576477,-105.50002,-68.838974,-21.390385,-68.581192,-21.555567,-18.944283,65.084991
3860000000,-10.178354,-46.474899,-67.092468,-114.5731,-65.922691,-122.11346,-22.266388,133.35977
3865000000,-4.5312805,-106.38365,-66.255936,138.64247,-66.573715,134.79765,-16.003002,59.541744
3870000000,-10.202107,-55.848877,-67.13176,48.347767,-66.205185,46.492691,-17.763042,139.83263
3875000000,-7.6386919,-100.75677,-67.077026,-34.626736,-66.318863,-38.841591,-20.070148,60.763004
3880000000,-7.2752628,-124.9064,-67.153748,-134.44211,-66.762917,-133.86578,-22.448511,120.9812
3885000000,-6.2708378,-24.850431,-69.927948,132.75259,-70.113167,124.94328,-18.752768,80.097488
3890000000,-1.922591,-124.27339,-70.458923,20.689213,-70.860352,27.513847,-38.275349,-171.50958
3895000000,-14.070083,-65.526474,-74.969383,-73.963501,-75.105194,-79.812614,-15.10429,54.301434
3900000000,-4.7999921,-83.113487,-73.857361,160.48573,-73.688896,152.87834,-19.994471,124.35808
3905000000,-8.1508446,-146.21017,-76.682526,25.072578,-74.60939,46.965511,-18.01058,37.192375
3910000000,-3.9974842,-46.931446,-71.777908,-65.988976,-71.359665,-75.516457,-16.401991,104.3357
3915000000,-4.3356123,-146.84258,-68.277733,-167.10422,-69.529297,-170.24295,-23.634027,44.579441
3920000000,-7.082202,-59.496113,-71.25753,100.47977,-69.227074,106.75021,-19.87952,94.590385
3925000000,-4.9319978,-110.87415,-68.293861,2.5836675,-68.254669,4.0976653,-19.319986,54.269279
3930000000,-19.121813,138.81361,-68.986153,-95.311562,-68.722054,-96.600327,-25.492481,150.99902
3935000000,-1.0672709,-95.437851,-70.04351,178.50604,-71.747192,-175.57687,-14.173279,30.267803
3940000000,-30.665819,89.618225,-70.588829,92.39489,-69.75116,97.865471,-19.169224,122.69466
3945000000,-4.1096144,-119.67138,-71.000023,4.324173,-72.480568,4.880353,-17.131227,25.48918
3950000000,-7.0468779,-89.102684,-73.947113,-119.54585,-73.920891,-96.516602,-17.275606,84.921707
3955000000,-13.087411,-132.28856,-76.856041,150.39993,-80.499779,-173.1338,-27.636545,91.044434
3960000000,-6.140656,-114.16293,-89.273064,-2.9469683,-81.415253,39.309605,-18.394833,34.593201
3965000000,-8.9957266,-105.10238,-82.84333,-112.74776,-80.236938,-118.34811,-20.599369,101.50568
3970000000,-12.579678,-121.64575,-80.777618,133.62744,-75.589996,-179.2789,-24.155735,6.6839361
3975000000,-2.0531433,-126.50091,-76.646767,77.047226,-76.345734,56.174294,-18.200869,35.18536
3980000000,-16.46586,-39.711937,-71.613075,-16.849224,-73.938179,-22.575096,-20.25555,93.11525
3985000000,-4.4332566,-127.80357,-70.701653,-113.61542,-72.180862,-117.2765,-19.377953,6.8659959
3990000000,-11.517794,-137.66508,-72.317902,156.22734,-73.456367,156.59988,-19.40877,86.44249
3995000000,-6.1904321,-78.396942,-71.251678,67.842941,-70.223381,63.509171,-23.125359,38.5378
4000000000,-1.5246699,-166.73297,-68.835503,-22.015987,-68.329201,-27.333015,-33.137291,8.8995819
END

