!CSV A.01.01
!Keysight Technologies,N5247A,US56070710,A.10.64.09
!Date: Saturday, November 19, 2022 23:56:15
!Source: Standard

BEGIN CH1_DATA
Freq(Hz),S33(DB),S33(DEG),S34(DB),S34(DEG),S43(DB),S43(DEG),S44(DB),S44(DEG)
3000000000,-10.300054,172.86691,-63.041443,-99.621613,-63.660618,-96.871498,-18.288164,-163.08658
3005000000,-15.937192,64.950951,-62.282593,176.5246,-62.556698,176.51534,-17.373772,-157.12166
3010000000,-10.76811,105.62697,-60.171993,91.271866,-60.56546,93.001732,-15.595228,-170.20467
3015000000,-9.3640709,167.31271,-59.341927,11.479481,-59.412262,11.222188,-15.934131,-157.52002
3020000000,-13.331013,27.256054,-58.816845,-81.900002,-58.87788,-79.572647,-16.51733,-177.90369
3025000000,-6.4938569,130.60957,-58.367973,-163.31694,-58.719543,-162.77141,-14.676396,-163.6815
3030000000,-26.622021,156.83681,-58.144608,100.54441,-58.857616,100.85397,-18.698511,176.1223
3035000000,-11.287837,57.993183,-57.953033,9.1091728,-58.028328,11.415692,-14.102824,-174.7627
3040000000,-6.4219856,137.19736,-58.864563,-72.736168,-59.265041,-73.327644,-18.487755,171.58069
3045000000,-22.156576,-80.326759,-59.833561,-167.25317,-59.845959,-168.60588,-15.648718,172.9489
3050000000,-8.1392365,83.888443,-60.494141,101.33376,-60.259556,99.244606,-14.432192,164.35831
3055000000,-7.4626045,131.51852,-61.32354,23.468365,-62.142788,19.66754,-16.147758,-176.96761
3060000000,-13.367399,-17.221357,-65.442291,-63.370346,-65.479813,-64.47361,-14.863581,156.04732
3065000000,-5.4151769,105.11649,-66.324219,-134.78268,-65.421547,-134.96461,-15.811677,-176.90283
3070000000,-14.502986,173.16983,-69.155556,152.05884,-69.695213,149.94339,-16.897512,151.34532
3075000000,-10.806751,57.605701,-68.237648,96.170639,-69.582687,96.661469,-16.294535,162.10805
3080000000,-4.5863175,104.33968,-64.819519,39.999096,-66.034584,41.87096,-16.496309,153.00633
3085000000,-13.635513,-120.61334,-63.766613,-57.991543,-63.347256,-58.194973,-17.061409,150.40488
3090000000,-5.5299616,71.694328,-61.325081,-123.84227,-61.620823,-124.73743,-13.949499,146.84869
3095000000,-11.250321,141.14742,-60.582962,146.9117,-60.275986,143.37436,-17.939865,166.65884
3100000000,-15.879675,100.23289,-58.560196,43.377308,-58.571411,44.796295,-14.659967,138.33096
3105000000,-6.1836514,65.675217,-58.352531,-37.112843,-58.901634,-37.058006,-16.960226,167.92912
3110000000,-7.6689768,146.51941,-57.395607,-130.21588,-57.663754,-131.28537,-17.216974,130.57735
3115000000,-9.7441034,10.840731,-58.378544,142.09161,-58.457169,141.53577,-17.329659,151.74831
3120000000,-5.7955399,98.839767,-58.32008,51.871803,-58.702003,51.106739,-16.74461,129.2305
3125000000,-12.625996,158.2764,-59.280357,-33.583591,-58.81596,-36.576389,-17.479433,144.36484
3130000000,-6.4089193,39.107597,-59.858845,-127.74718,-60.21088,-130.72238,-15.574832,126.65156
3135000000,-6.56814,108.1684,-60.314686,145.3559,-59.990593,144.29565,-17.713709,157.58667
3140000000,-21.759953,77.511108,-59.966808,61.802456,-60.179844,61.309959,-16.121077,119.12645
3145000000,-7.7338886,40.230873,-66.067131,-33.776245,-66.410622,-45.391132,-17.233234,150.27466
3150000000,-4.8319025,126.02134,-65.363724,-105.54871,-65.687302,-111.85657,-18.427298,135.25722
3155000000,-10.485672,17.891844,-69.818016,158.21271,-69.801796,155.72067,-19.249826,122.42844
3160000000,-6.5996947,74.954765,-71.770081,126.0901,-71.898613,104.46548,-16.523682,135.3761
3165000000,-11.256035,98.688736,-71.443077,33.353165,-71.831863,37.918194,-19.169813,114.42224
3170000000,-15.991656,18.987154,-69.114853,-1.9862807,-68.991829,-1.1788664,-15.544779,133.05705
3175000000,-5.260705,86.535294,-64.887558,-75.080544,-65.105942,-75.089622,-18.182737,137.28905
3180000000,-26.205925,65.614639,-63.615204,-172.01102,-64.194427,-165.11153,-17.906464,125.64713
3185000000,-5.5999207,44.596054,-60.777245,107.08558,-60.727108,109.5783,-17.00429,147.31941
3190000000,-8.5703659,88.767494,-58.632961,19.961994,-58.721294,19.253389,-20.884859,134.63614
3195000000,-24.177408,-3.8910816,-58.486004,-79.046486,-58.46349,-77.865028,-21.598539,118.871
3200000000,-4.3730612,51.965759,-57.358559,-164.66501,-57.788216,-166.98206,-16.010313,121.2458
3205000000,-8.1802578,119.61909,-57.397896,106.67139,-57.360939,104.80593,-25.267311,129.16954
3210000000,-8.8016033,4.8761044,-59.303322,7.9158444,-59.102745,6.5565882,-14.12383,114.52428
3215000000,-5.9642591,62.232544,-59.108406,-82.851334,-59.245239,-86.491669,-21.594297,137.42276
3220000000,-14.890953,98.613007,-60.081547,-175.94565,-60.209606,-174.71254,-15.71631,125.19968
3225000000,-8.4669971,11.706962,-62.59774,91.13179,-62.522659,92.279305,-18.950264,129.32002
3230000000,-5.5347018,78.707512,-64.105309,3.829092,-64.042282,-1.8104044,-18.153603,141.66428
3235000000,-17.440722,74.594635,-68.20224,-97.130592,-68.586296,-96.204453,-20.330708,108.27195
3240000000,-3.3217773,20.645031,-74.744926,177.53366,-73.719353,-174.19293,-16.892456,125.71436
3245000000,-8.9738092,117.91249,-88.788986,-140.01868,-83.744438,-158.40736,-20.155334,134.57794
3250000000,-11.220709,11.554233,-73.843582,150.63708,-71.579987,145.26166,-17.175314,101.39617
3255000000,-6.1876616,43.797787,-66.999557,82.051064,-66.570724,73.686714,-17.696444,135.00328
3260000000,-9.1309738,91.438126,-64.118935,-20.834702,-64.198792,-24.238602,-16.109762,109.34854
3265000000,-6.1716008,-10.82488,-61.753639,-105.98474,-61.65316,-106.12171,-18.485678,134.35648
3270000000,-4.5224428,66.915497,-59.992764,159.97522,-60.351601,157.99057,-16.692621,120.81117
3275000000,-22.279104,-51.593208,-58.635071,62.993866,-59.172424,61.964951,-21.075943,106.45244
3280000000,-8.2864618,35.5145,-58.071472,-27.433517,-58.655136,-30.618523,-14.634038,117.72649
3285000000,-4.9555812,57.914822,-57.782188,-117.74334,-57.8745,-120.9864,-20.58,116.22797
3290000000,-12.433011,-66.054451,-57.810505,143.56183,-58.426853,145.95335,-16.000666,107.08237
3295000000,-4.6294703,25.10446,-58.16172,57.382122,-58.268459,53.126503,-15.588225,114.97997
3300000000,-8.8362226,79.926094,-58.721642,-40.006119,-58.856182,-39.990772,-17.697397,121.35447
3305000000,-9.5974255,-34.754993,-60.015976,-134.98694,-59.336269,-131.37117,-16.490608,108.98549
3310000000,-4.3137832,43.196789,-61.971577,137.25906,-62.0098,130.0107,-17.053747,123.35001
3315000000,-16.771902,72.647865,-64.163956,43.814487,-63.584846,42.595436,-19.952644,96.778458
3320000000,-7.6466875,-9.8709688,-69.042206,-59.295017,-68.400581,-62.470715,-15.152953,103.43077
3325000000,-6.0801826,34.139275,-76.23777,-122.06663,-76.935974,-132.06602,-19.567623,100.25846
3330000000,-15.984968,-138.88579,-77.884308,-85.836212,-75.210815,-86.409233,-14.107526,98.562691
3335000000,-2.628686,10.49589,-67.830223,-163.47481,-68.792839,-170.461,-17.814236,102.2048
3340000000,-10.59057,66.471741,-62.463543,101.6976,-63.782558,102.61802,-14.885859,108.06898
3345000000,-11.352644,-23.812181,-60.508289,13.395701,-60.950726,9.2348785,-19.123688,90.473244
3350000000,-4.1163259,-0.77662921,-59.151909,-82.758896,-59.552494,-82.114037,-15.140792,108.43732
3355000000,-9.976819,98.32975,-57.327206,-176.51155,-57.582012,-175.58698,-21.571426,74.688011
3360000000,-7.1110015,-39.825256,-57.312515,84.49778,-57.106159,86.48394,-15.284067,92.156746
3365000000,-3.8373997,33.315033,-56.778831,-9.230689,-57.005402,-9.7321777,-18.78161,72.780998
3370000000,-16.149071,-19.587355,-57.090309,-103.72722,-56.981609,-102.21463,-14.965678,86.828484
3375000000,-5.5995502,-19.657448,-57.567738,158.74023,-57.780655,160.56,-16.98901,83.701775
3380000000,-9.3416758,51.746925,-59.770985,64.747192,-60.018394,63.69907,-17.239874,94.772766
3385000000,-26.872541,7.0529594,-61.796448,-35.642994,-61.101009,-36.241398,-17.777742,71.883705
3390000000,-2.4677305,-10.94548,-65.376617,-136.81638,-65.224823,-137.30943,-17.199774,84.135963
3395000000,-11.177484,81.516823,-71.749672,110.80825,-74.562584,111.6927,-18.804758,73.613815
3400000000,-6.2477369,-50.529346,-78.333839,-126.56603,-80.081757,-88.933296,-17.042807,71.901596
3405000000,-7.5039649,1.296028,-66.301735,131.35094,-64.779442,136.25443,-19.155439,65.860657
3410000000,-11.036693,59.446018,-61.431507,27.064787,-61.670528,29.61426,-15.854708,68.869164
3415000000,-4.5611801,-42.360798,-59.628315,-66.963791,-59.450188,-66.582085,-18.73184,70.255966
3420000000,-5.5514145,29.331507,-57.665489,-164.59334,-58.563015,-166.66783,-17.104815,83.251793
3425000000,-16.913797,-97.138382,-56.966591,96.97139,-57.327682,95.466125,-21.137203,45.5844
3430000000,-4.9124022,-22.249874,-57.591049,-0.6420275,-57.866955,3.7206488,-17.648111,81.884239
3435000000,-12.361778,42.686207,-57.234943,-91.172447,-57.47533,-92.540031,-21.57893,41.496685
3440000000,-11.777383,-50.425632,-58.126827,174.59814,-58.178375,173.98558,-20.716667,54.242069
3445000000,-4.3936367,-18.715315,-59.952766,74.74543,-60.242882,71.916031,-17.001774,52.000492
3450000000,-11.87647,48.041397,-60.360355,-18.977114,-60.982887,-21.232586,-22.01255,65.366951
3455000000,-6.5698724,-69.072342,-63.928619,-109.54008,-63.698952,-109.68246,-18.325821,53.961533
3460000000,-6.6639638,13.435013,-67.577263,146.24498,-67.563103,142.70497,-20.373232,71.513611
3465000000,-17.5438,-33.909523,-77.598579,80.099754,-75.592903,57.303055,-24.665974,60.020657
3470000000,-6.7798605,-49.48848,-78.364693,141.11385,-82.859673,103.86034,-18.948574,59.442234
3475000000,-5.7959299,17.183788,-72.681725,35.521183,-73.387543,34.226871,-33.94273,85.105606
3480000000,-9.764576,-105.31178,-65.477165,-38.619701,-65.576912,-39.837868,-20.461792,41.472565
3485000000,-3.5712969,-19.962978,-62.503593,-133.97246,-62.628361,-134.27176,-21.342421,39.041546
3490000000,-17.007914,79.091515,-60.924736,129.9976,-61.135017,130.14082,-23.151587,99.477242
3495000000,-10.567699,-49.905529,-60.71656,31.524181,-60.40966,35.065605,-18.145184,17.007849
3500000000,-3.9349718,-23.795147,-58.294456,-58.185059,-59.037178,-61.686935,-18.437571,108.03886
3505000000,-18.439341,104.19971,-58.766541,-152.25836,-59.157806,-151.80774,-24.025055,17.367702
3510000000,-4.6606565,-68.821632,-59.030659,110.20155,-58.673965,111.41953,-22.700357,99.036873
3515000000,-6.4558749,20.793617,-59.470978,18.213078,-59.245506,18.837444,-28.212111,47.521317
3520000000,-18.676334,-111.37626,-60.079067,-75.394936,-59.686493,-73.152603,-26.781969,26.955086
3525000000,-5.5603175,-47.802879,-60.358047,-178.50487,-60.232979,-176.56207,-20.728512,56.873528
3530000000,-8.6924353,-2.7663617,-61.775417,90.40905,-61.588993,88.027107,-22.426914,89.051506
3535000000,-10.560356,-122.90563,-64.487831,-14.018811,-64.316864,-10.393645,-26.183195,41.865967
3540000000,-5.1396933,-31.384741,-64.351151,-125.68752,-65.495926,-121.16766,-18.139782,96.622787
3545000000,-10.875079,48.713707,-67.983986,114.30749,-67.518166,125.19815,-39.317501,-112.52369
3550000000,-5.1785488,-74.259834,-69.429474,2.0709546,-69.576302,1.5596118,-19.537344,84.521576
3555000000,-9.6436338,3.2303219,-65.751015,-118.20049,-65.516975,-122.98928,-51.948734,75.844177
3560000000,-15.111385,-57.662922,-63.442528,121.32588,-62.617413,127.18364,-23.10111,87.045631
3565000000,-8.427022,-104.14095,-61.027168,17.994524,-61.276001,19.334797,-24.851742,37.753586
3570000000,-3.2003572,4.1151505,-59.455853,-75.743668,-59.627251,-74.309784,-22.491449,89.347519
3575000000,-9.2254505,-145.67308,-58.680309,179.86464,-58.533432,-178.99374,-22.569208,61.168045
3580000000,-4.7978716,-42.412224,-57.593716,84.315125,-57.653873,84.469429,-21.623991,94.42244
3585000000,-13.047905,-10.632176,-56.991653,-15.560431,-57.413368,-15.439751,-23.574339,95.546326
3590000000,-10.854544,-143.57147,-57.144878,-116.07894,-57.031754,-118.37777,-30.289726,63.781612
3595000000,-3.4152234,-30.676073,-57.710518,146.59534,-57.636654,144.71654,-20.014641,83.000946
3600000000,-23.049736,100.97699,-58.336666,43.645767,-58.940804,44.806366,-34.630638,106.6695
3605000000,-6.1032052,-74.461761,-59.578617,-56.298717,-59.507389,-59.58522,-21.330017,51.030376
3610000000,-7.6375594,-22.555212,-61.578629,-153.70645,-60.734268,-156.95093,-21.877674,80.945518
3615000000,-17.682148,151.07785,-62.968098,89.658508,-62.786766,96.085159,-23.740772,74.582329
3620000000,-5.9771886,-68.185501,-66.622787,-16.235884,-66.467247,-25.676071,-21.748711,67.912743
3625000000,-8.6984129,-15.155575,-68.022171,-133.91212,-68.070847,-137.42848,-22.33152,94.911766
3630000000,-18.200544,157.7475,-67.493355,100.75916,-67.5112,99.709862,-28.048935,83.768852
3635000000,-2.3639464,-71.641151,-65.823761,-14.422951,-65.842239,-18.915239,-20.584784,54.157009
3640000000,-11.753763,59.104073,-65.071632,-122.13715,-65.184746,-129.16319,-23.569607,144.29669
3645000000,-6.2384043,-88.473984,-63.167389,142.09018,-63.319492,142.74379,-18.51626,11.637873
3650000000,-10.941157,-31.030247,-62.677452,42.647022,-61.678234,37.784027,-19.930285,105.20499
3655000000,-8.8512192,-8.6394329,-61.865211,-57.420166,-61.769638,-59.296963,-22.241554,17.644821
3660000000,-3.5965149,-109.9055,-61.119904,-151.03145,-61.647121,-150.8687,-22.327448,89.880241
3665000000,-4.6428361,12.990036,-61.576694,115.29623,-61.788769,114.38791,-21.989115,60.450733
3670000000,-9.2058868,-131.86217,-61.404518,17.789995,-61.339203,17.632351,-30.05512,116.66541
3675000000,-9.1744366,-52.215931,-62.029221,-72.189476,-61.671654,-74.781265,-23.081621,46.756569
3680000000,-7.0781822,-31.545523,-63.951515,-167.94022,-64.000702,-170.20161,-25.620396,122.72796
3685000000,-9.934967,-147.95108,-63.860725,103.65572,-65.024567,98.9795,-23.456934,-29.254261
3690000000,-3.9032221,-46.683529,-66.292122,2.9427121,-66.204781,12.896107,-20.297899,67.041405
3695000000,-20.216635,44.167774,-68.072266,-93.821198,-68.266701,-88.831924,-30.305765,-15.679235
3700000000,-8.4975853,-109.37708,-75.220192,158.95667,-75.402328,-163.25325,-22.249226,67.859421
3705000000,-3.6454756,-31.185663,-84.319695,76.847313,-84.564186,129.59169,-23.734205,32.206394
3710000000,-11.489911,175.54631,-75.402191,178.57123,-77.871849,171.17093,-23.769939,134.34001
3715000000,-4.7619925,-66.003883,-72.258835,105.95843,-74.051025,85.722031,-20.311562,23.211258
3720000000,-9.1758051,-43.028248,-67.527634,-13.535245,-68.083115,-11.850384,-21.642862,156.51793
3725000000,-13.763058,155.23892,-68.511124,-108.43435,-67.749992,-106.51204,-22.325624,1.6920083
3730000000,-1.7950975,-61.843655,-65.200577,167.25574,-66.201584,170.4382,-27.700722,88.778847
3735000000,-15.779509,58.796078,-64.717667,72.486572,-64.990036,75.474762,-24.344109,81.984192
3740000000,-8.8068972,-90.505188,-64.077316,-12.061191,-64.93634,-10.223025,-42.826859,31.587555
3745000000,-4.6968074,-78.906815,-64.50782,-107.34009,-64.332695,-110.04201,-22.747107,91.113403
3750000000,-8.4900455,45.01368,-64.72403,159.526,-65.034935,154.92079,-30.165668,159.94154
3755000000,-2.4998813,-120.84412,-64.387985,76.335243,-64.454941,68.121605,-29.339119,38.539223
3760000000,-4.0437412,-8.0083265,-65.574425,-25.976303,-65.665054,-21.768288,-22.334753,135.45807
3765000000,-6.3554196,-102.74188,-64.872749,-104.76544,-65.827492,-108.57312,-26.01565,-36.487106
3770000000,-7.1002674,-126.4108,-65.59436,161.65344,-65.925316,167.45607,-22.539242,99.854469
3775000000,-3.8450649,-12.597556,-69.505493,76.647972,-69.127052,88.433899,-26.034111,55.441013
3780000000,-7.2450814,-156.06905,-68.426414,-8.3803806,-71.293854,-5.7136459,-24.35355,148.47189
3785000000,-3.3392668,-56.585072,-70.52639,-84.642464,-69.229454,-85.014999,-18.878847,55.170933
3790000000,-11.403286,-64.378716,-71.587868,-157.96249,-73.76796,-145.5397,-17.794077,159.40071
3795000000,-6.0110621,-150.59996,-76.833931,145.21774,-76.561714,133.25478,-25.199554,40.63699
3800000000,-4.3748813,-37.687996,-73.680466,44.277569,-73.773216,62.066067,-20.479946,139.78477
3805000000,-15.734206,-79.459297,-77.89669,41.407452,-75.514038,-5.9867592,-38.400887,48.867172
3810000000,-6.9560494,-117.81893,-72.162758,-75.607346,-73.333633,-67.837708,-22.483461,90.31955
3815000000,-2.3150351,-60.842186,-70.60302,-157.73453,-73.247513,-167.81113,-23.806108,102.5303
3820000000,-5.6751919,139.42123,-68.129288,132.08838,-69.044632,129.39963,-23.459972,112.35339
3825000000,-0.91130036,-65.444946,-68.66671,36.117176,-70.206856,45.232815,-21.163261,66.472145
3830000000,-16.358442,-126.37499,-69.409096,-36.380333,-69.393791,-36.66777,-15.820038,128.7366
3835000000,-13.560164,-93.280563,-68.24028,-131.90208,-67.527016,-138.27954,-45.293247,-24.438955
3840000000,-2.1769068,-100.89365,-66.581825,148.35358,-67.007591,145.14716,-18.842979,111.21542
3845000000,-9.4932423,45.761215,-67.323372,47.751762,-66.362839,54.266685,-29.641466,94.603333
3850000000,-2.0453825,-107.40634,-66.131371,-31.938816,-65.861282,-26.192987,-24.33399,102.98552
3855000000,-9.0540438,-92.631935,-66.538063,-116.66497,-66.807007,-109.52285,-19.085089,68.073906
3860000000,-16.437565,-50.056908,-64.612572,150.44298,-64.792274,154.58865,-22.582222,132.78333
3865000000,-3.8853467,-118.80759,-66.274857,62.814976,-66.889282,62.616074,-16.301922,60.941906
3870000000,-6.2356358,-41.183468,-65.433144,-30.939245,-65.603027,-24.457581,-17.965374,139.21761
3875000000,-6.8153982,-135.37219,-66.063736,-122.53255,-66.015533,-126.49206,-20.528046,62.101528
3880000000,-5.0704584,-122.29342,-66.015739,149.17693,-66.834862,147.54057,-22.068907,118.69911
3885000000,-6.996778,-10.842975,-69.719879,60.470924,-70.095795,53.37244,-19.420225,80.830696
3890000000,-2.394455,-133.43454,-71.76429,-38.222115,-70.406975,-46.74971,-38.271313,158.66002
3895000000,-6.8313093,-77.470871,-72.173912,-148.36774,-74.375351,-151.9574,-15.414357,55.301121
3900000000,-8.4646397,-97.673859,-80.748772,121.15636,-81.939148,118.63771,-20.207401,123.84695
3905000000,-5.5687861,-155.6566,-80.332916,-58.0023,-81.527901,-23.638178,-18.193459,38.984722
3910000000,-3.0229013,-41.579754,-75.399666,-171.88675,-76.4981,-179.25903,-16.654274,105.13927
3915000000,-4.6091027,-155.27443,-71.581284,77.824821,-69.688583,74.430847,-23.484526,47.328362
3920000000,-5.4692259,-87.559448,-67.280746,-19.348305,-68.293808,-13.375065,-20.114109,94.678581
3925000000,-7.2760873,-107.58337,-66.587288,-124.6456,-67.573982,-120.34754,-19.630566,56.267357
3930000000,-10.322604,136.49706,-65.041481,146.04985,-63.597694,144.60593,-25.946247,145.6754
3935000000,-0.091837384,-94.802719,-63.521534,54.739143,-65.089851,52.703228,-14.541578,31.384819
3940000000,-20.080975,55.528313,-63.921349,-36.580006,-63.530457,-36.687302,-19.482861,121.59571
3945000000,-2.2923024,-137.78438,-62.608418,-137.42476,-61.845066,-137.8969,-17.332829,27.438522
3950000000,-6.9844785,-87.447266,-62.441322,124.34151,-63.007721,128.90752,-17.567947,85.835258
3955000000,-21.097895,-153.24062,-62.729939,31.000053,-62.042839,31.799723,-27.024212,83.854767
3960000000,-3.9489391,-130.87645,-64.062172,-60.647114,-64.525192,-62.933235,-19.158136,37.200348
3965000000,-7.8022656,-84.355652,-64.435501,-163.8672,-64.735489,-163.535,-20.784039,96.245209
3970000000,-8.8592634,-177.5197,-64.633171,100.32948,-64.225792,106.40359,-25.107449,10.159926
3975000000,-2.1834879,-125.86753,-66.718452,-8.4192009,-66.779976,-2.4997327,-18.222475,34.461216
3980000000,-12.672541,-45.165653,-69.837227,-109.06073,-69.374573,-102.4187,-20.265202,94.200623
3985000000,-4.345149,-154.83037,-73.526169,132.76233,-70.048996,135.67526,-19.503748,7.8221316
3990000000,-7.5279951,-116.33831,-72.293671,31.076487,-72.392128,33.745049,-19.566622,85.901962
3995000000,-11.677026,-78.272278,-70.099098,-104.68806,-70.595963,-96.507736,-23.470448,39.722115
4000000000,-1.1113342,-170.93275,-67.731201,146.01083,-67.685211,144.37196,-32.169601,16.399225
END

