!CSV A.01.01
!Keysight Technologies,N5247A,US56070710,A.10.64.09
!Date: Friday, November 18, 2022 23:14:07
!Source: Standard

BEGIN CH1_DATA
Freq(Hz),S33(DB),S33(DEG),S34(DB),S34(DEG),S43(DB),S43(DEG),S44(DB),S44(DEG)
3000000000,-4.1873689,-118.17609,-68.376442,-115.89341,-68.513359,-125.08981,-10.308848,-139.21996
3005000000,-6.3560371,-100.90239,-73.571075,155.27733,-76.158211,151.74319,-19.104891,-99.569122
3010000000,-4.1475849,-122.78143,-74.039619,-170.01578,-73.456261,-179.46255,-14.959258,162.45348
3015000000,-6.6161785,-109.90841,-68.216515,-138.75066,-67.930206,-143.82063,-9.7149401,-136.92316
3020000000,-4.530252,-104.95897,-68.556046,124.41464,-68.366547,119.30786,-32.177059,-6.8759208
3025000000,-5.8649731,-124.14954,-71.758003,113.69903,-71.832489,110.31229,-10.279076,-174.68198
3030000000,-4.4415503,-101.49413,-84.311913,115.77953,-84.825951,111.24906,-13.438543,-128.83336
3035000000,-4.821301,-123.24501,-69.333176,94.069038,-68.691025,95.27803,-22.906664,161.89433
3040000000,-6.4237952,-120.24645,-66.699135,84.023476,-66.447868,83.125473,-9.6250153,-178.28099
3045000000,-4.696866,-107.14227,-70.235039,9.79,-70.450714,13.923152,-17.135107,-104.10739
3050000000,-6.3929524,-122.14042,-78.610985,21.249561,-76.806496,18.842627,-12.586695,149.0983
3055000000,-4.2669992,-110.28343,-75.216354,3.9221039,-75.843285,10.75177,-11.668304,-161.33781
3060000000,-5.1484718,-124.6431,-72.109001,2.3756759,-71.224655,0.50839728,-20.425636,-137.28053
3065000000,-7.3513064,-121.95629,-74.102928,-106.0687,-73.989235,-110.15144,-11.30277,148.44505
3070000000,-3.9512215,-115.43311,-73.239655,-128.81041,-72.655457,-137.42867,-11.92235,-142.2753
3075000000,-7.9376845,-127.0341,-77.698318,-20.708683,-77.619659,-43.922668,-18.877472,121.29457
3080000000,-4.4863138,-115.44485,-73.26091,-86.767677,-74.080864,-97.726151,-11.735853,165.41856
3085000000,-4.3757114,-129.83807,-72.35408,-153.93051,-70.026833,-160.21071,-14.352463,-144.57068
3090000000,-7.8658462,-116.00426,-75.129768,168.26459,-76.593575,175.37311,-14.929028,108.75421
3095000000,-3.8397641,-129.89815,-75.940964,123.32327,-79.087212,119.91029,-9.7907305,-176.3313
3100000000,-8.5513411,-115.75436,-75.715813,162.96576,-76.396423,155.76683,-26.663004,-175.8671
3105000000,-4.3054185,-122.49554,-75.303497,133.41298,-76.288078,116.28655,-14.093814,136.48474
3110000000,-5.8786349,-134.15562,-70.853821,65.679588,-71.186798,62.628124,-11.62526,179.97389
3115000000,-5.761075,-114.52264,-87.175552,26.526827,-88.278366,21.863949,-30.777643,11.905204
3120000000,-5.312448,-145.19301,-83.640823,37.109169,-85.073433,45.774952,-10.167563,144.14243
3125000000,-6.9878254,-115.04007,-69.932655,46.619473,-69.533119,46.627365,-16.108391,-157.91222
3130000000,-5.7440939,-124.63624,-67.312569,31.713791,-67.784729,26.367355,-19.485014,110.82282
3135000000,-6.3929472,-137.63649,-69.729904,-50.322426,-69.441483,-45.807796,-10.951941,149.71176
3140000000,-5.1823821,-121.83344,-89.127861,-108.17593,-82.306671,-57.531593,-19.312197,-124.38194
3145000000,-6.588696,-145.92973,-74.514236,-5.001143,-74.919624,6.4818659,-12.980792,113.80891
3150000000,-8.2125711,-127.12723,-70.307137,-73.829941,-71.429779,-74.705963,-13.50787,177.78075
3155000000,-4.9347577,-125.72306,-72.176407,-128.79674,-73.938377,-126.04855,-26.435579,-165.68985
3160000000,-8.9091387,-140.64632,-74.213959,114.6339,-73.54866,108.1218,-12.217095,113.39767
3165000000,-4.3676605,-126.97829,-79.500443,-51.442833,-82.527908,-55.782803,-12.937955,-165.61198
3170000000,-7.4594345,-157.22557,-74.105438,-103.9833,-75.873978,-105.31919,-19.043394,81.03688
3175000000,-8.4339552,-120.15427,-74.364685,110.85665,-74.583488,109.04546,-13.303974,144.88686
3180000000,-5.1709781,-135.99493,-74.629707,70.14048,-73.781937,66.004601,-15.408246,-171.93752
3185000000,-10.898015,-131.76233,-79.76545,-51.876305,-78.569794,-54.01638,-19.179657,70.159294
3190000000,-4.2977662,-138.0955,-71.913605,143.36018,-72.068817,146.43835,-10.539413,158.40509
3195000000,-9.2822771,-149.25572,-69.770958,42.519142,-70.113396,35.835033,-29.68202,-80.618011
3200000000,-8.6780672,-132.03822,-70.715729,-16.658363,-71.61451,-21.911947,-14.389989,115.79598
3205000000,-6.6334114,-150.79691,-69.006737,-72.295761,-68.667915,-72.871033,-13.868429,166.13957
3210000000,-8.2529058,-112.88157,-78.18412,-18.038614,-77.18087,-12.995311,-32.537945,-29.368971
3215000000,-5.0780802,-150.21675,-69.762924,-35.924534,-69.592819,-32.802299,-11.260325,124.91812
3220000000,-10.128737,-149.27652,-65.861549,-100.66236,-66.90271,-106.20539,-16.26218,-164.81018
3225000000,-8.1884089,-129.88017,-78.762695,-92.543945,-77.973007,-93.060814,-21.358347,102.49799
3230000000,-8.7154694,-158.03914,-77.468163,104.17138,-76.109581,91.604805,-12.671718,131.69951
3235000000,-8.5102701,-122.31234,-69.800247,-97.10038,-69.819382,-94.46096,-16.570368,-142.53044
3240000000,-7.6267457,-148.99448,-71.371666,-149.82133,-71.465393,-143.16644,-13.900216,91.301048
3245000000,-9.2137794,-154.68369,-71.586052,115.87117,-71.729599,116.83335,-13.124203,169.69191
3250000000,-7.6713233,-135.4447,-69.632805,-121.73276,-70.469604,-127.4062,-25.688114,154.63332
3255000000,-11.85078,176.40639,-69.687889,-126.84215,-70.141266,-112.95485,-14.492801,102.80614
3260000000,-7.8228049,-112.47907,-67.158562,158.50496,-66.38961,158.65044,-11.836079,170.23676
3265000000,-6.8256035,-159.93594,-83.648026,136.96272,-82.487648,113.9987,-22.538525,42.193981
3270000000,-13.68775,-153.33334,-71.814133,-140.30948,-73.179176,-131.73203,-12.235775,136.058
3275000000,-6.5275416,-151.32628,-71.994316,149.09438,-71.941513,139.91386,-17.170374,170.9718
3280000000,-19.9736,-175.32454,-71.8685,102.69086,-71.724152,101.93874,-20.483971,79.23613
3285000000,-7.9298358,-131.73405,-79.56073,-30.736849,-77.126244,-30.060711,-10.685755,135.98929
3290000000,-8.8080864,-156.13486,-71.495499,-148.18506,-72.079231,-151.02917,-24.183861,-146.64151
3295000000,-13.5348,-142.53363,-69.604012,77.365509,-69.651199,85.362801,-13.850874,103.67532
3300000000,-8.4358778,-167.93924,-76.770485,35.137135,-76.027382,39.111389,-13.608753,142.76643
3305000000,-18.466631,-124.80747,-74.215286,-121.01553,-74.571007,-120.76627,-23.391695,-162.20334
3310000000,-9.391139,-141.11859,-75.03112,151.67685,-73.679161,149.08711,-11.08148,101.70264
3315000000,-10.572627,-169.20259,-68.863632,77.220146,-69.278732,78.576073,-15.017163,-179.21147
3320000000,-13.254479,-124.43952,-73.533272,-81.326897,-74.534676,-69.237236,-16.672049,83.107391
3325000000,-9.4223194,-169.07346,-67.885162,129.47057,-68.941696,129.29169,-13.435228,117.76429
3330000000,-19.319666,-129.75549,-68.82206,95.045639,-69.221687,92.566917,-15.418101,161.56464
3335000000,-11.212237,-138.05228,-72.171028,25.288321,-72.867249,21.789057,-15.365267,63.062801
3340000000,-15.740891,169.60229,-81.578445,-166.787,-82.200119,-178.62318,-10.80537,139.83884
3345000000,-10.167247,-122.34447,-66.096962,95.237694,-65.76487,93.944878,-26.312731,119.64877
3350000000,-12.842758,164.11803,-66.818878,22.213696,-66.12458,15.205226,-14.026437,84.479828
3355000000,-18.18771,-118.8578,-81.691368,88.692879,-82.699921,99.306015,-12.335088,142.01913
3360000000,-11.135405,-145.5374,-78.079575,-151.92705,-78.674538,-160.9702,-21.341621,23.766768
3365000000,-21.020121,92.089493,-64.727264,14.481153,-65.081192,14.161453,-11.409949,105.32509
3370000000,-9.0496979,-120.90055,-69.179016,-27.136034,-67.747299,-33.675495,-18.234436,136.49532
3375000000,-16.029909,147.30962,-68.828522,-160.86208,-68.418938,-168.70152,-20.269894,72.120483
3380000000,-16.488005,-121.43572,-72.534416,19.046877,-73.185905,14.763637,-10.73779,103.41972
3385000000,-15.401506,-173.51108,-70.378929,-34.170776,-69.294647,-35.508556,-24.404406,-143.34799
3390000000,-17.03845,-38.644306,-66.659447,-102.85947,-66.808334,-100.13509,-12.655487,74.798424
3395000000,-11.805519,-144.00069,-95.261673,47.547298,-86.990044,148.36551,-15.283016,118.06239
3400000000,-22.292879,-155.08185,-71.395332,-39.296413,-72.2994,-37.015957,-30.121759,145.05745
3405000000,-18.782366,-104.14732,-66.454887,-125.78351,-66.979881,-130.59474,-11.535028,66.147133
3410000000,-18.900461,164.82468,-66.999313,143.07272,-66.390022,141.58086,-15.218416,150.88249
3415000000,-11.746304,-41.749706,-73.56163,97.257072,-73.093018,91.832634,-15.974433,42.169216
3420000000,-13.164665,-145.90109,-70.840027,-77.729401,-70.419266,-88.966362,-15.483861,89.139
3425000000,-36.918137,-161.1498,-70.588692,-156.58109,-70.127419,-163.76511,-17.354572,140.38298
3430000000,-16.157915,-91.402245,-70.82531,59.91188,-71.702652,60.662251,-14.684028,19.924606
3435000000,-24.395126,130.52943,-69.615585,-45.859901,-70.549881,-43.894245,-12.697793,119.85925
3440000000,-10.589779,-61.025452,-70.697227,-114.24339,-70.254433,-114.70393,-23.833685,-4.8032622
3445000000,-19.376873,-144.71227,-74.99633,94.273697,-73.415413,96.644073,-15.899624,61.968983
3450000000,-17.808195,-39.34737,-69.481667,11.104612,-69.392166,12.932505,-15.367072,105.63466
3455000000,-12.394255,-122.24516,-66.132874,-108.42023,-65.719131,-108.24258,-21.740124,-52.730541
3460000000,-15.659212,33.407215,-69.699463,-155.75272,-70.907364,-156.34016,-12.438567,77.091599
3465000000,-9.3212194,-76.441933,-70.985367,71.611191,-70.240433,65.353569,-23.635859,164.96693
3470000000,-20.469332,-130.39908,-78.215439,-115.36489,-74.637688,-108.71017,-21.196018,19.403959
3475000000,-12.989701,-42.37492,-65.825317,-172.92531,-66.027878,-176.96371,-14.381457,84.115532
3480000000,-12.870888,-121.76198,-65.013084,88.71228,-64.900841,86.033783,-22.462326,-132.68187
3485000000,-13.221041,-4.5407715,-71.231728,-17.869728,-70.658195,-6.6266608,-14.606129,41.344009
3490000000,-11.731647,-88.955696,-66.888519,-126.07415,-67.17717,-124.36795,-19.496487,127.16103
3495000000,-19.3141,-67.662827,-65.177933,123.77314,-65.422516,120.77605,-38.123997,153.78545
3500000000,-10.509953,-58.49728,-66.727791,27.041853,-66.494164,25.791853,-14.915441,39.286579
3505000000,-14.905693,-138.53745,-67.382118,-73.045921,-68.490417,-68.580467,-15.020691,154.0423
3510000000,-11.860899,-30.688536,-67.102219,150.11511,-67.833549,146.53239,-18.723999,-7.6734667
3515000000,-11.862803,-80.054184,-67.796303,56.884174,-69.001106,58.817074,-19.216331,92.922729
3520000000,-21.281595,-80.754189,-62.453396,-51.36813,-61.929337,-48.89484,-23.064035,139.43062
3525000000,-8.0810852,-67.094582,-67.660515,-158.50429,-68.018921,-153.52063,-20.398275,-21.615005
3530000000,-17.56245,-148.37305,-65.401894,85.298019,-65.717918,83.447533,-13.009421,102.18214
3535000000,-9.432128,-43.633659,-64.566162,-31.18984,-64.280228,-33.779778,-22.014027,-100.02296
3540000000,-11.561702,-99.630028,-64.744667,-117.76764,-63.83461,-118.21462,-19.192562,68.664436
3545000000,-14.51974,-17.565981,-63.726444,132.35974,-63.944695,130.35133,-18.744406,112.62853
3550000000,-7.6312046,-87.704971,-65.103874,14.164309,-65.513603,4.5929132,-22.154438,-118.10399
3555000000,-28.040915,-36.252998,-63.514462,-108.36375,-63.514687,-112.40466,-15.43904,63.50843
3560000000,-9.4892254,-72.890793,-62.316147,159.24525,-63.155346,155.01694,-18.631441,172.40208
3565000000,-14.642551,-90.265373,-63.769264,66.200096,-63.929348,64.061089,-25.732075,34.140064
3570000000,-12.218997,-38.771515,-66.101753,-63.386909,-66.494438,-64.924202,-17.832638,63.368454
3575000000,-9.2670155,-97.273605,-62.670605,169.28854,-62.685894,168.36649,-15.643743,167.17728
3580000000,-15.861994,-53.799072,-62.019619,79.557625,-62.098679,74.595093,-16.653803,10.0301
3585000000,-10.017035,-73.147736,-66.183464,-32.371384,-66.271759,-32.460217,-15.015261,129.45079
3590000000,-14.393679,-114.73345,-66.907669,-140.91406,-67.199539,-140.49098,-33.708569,-144.39577
3595000000,-8.7916203,-37.109829,-62.943794,100.27856,-62.826038,98.605568,-20.540592,40.254177
3600000000,-9.6078691,-107.90699,-64.224945,3.3211844,-64.082359,-0.27471283,-15.123545,122.6487
3605000000,-11.832193,-43.271809,-67.640785,-94.120499,-67.141563,-96.701836,-20.672249,-57.487762
3610000000,-9.7074623,-83.962791,-66.575653,128.60899,-66.747215,126.31187,-15.897037,84.425476
3615000000,-20.964195,-102.55551,-65.028351,18.591631,-65.218231,17.541471,-20.453962,128.26898
3620000000,-7.7780318,-50.987968,-64.624672,-56.833542,-64.386192,-62.574417,-25.723465,-55.681526
3625000000,-11.363784,-105.04926,-69.180527,162.12991,-68.853966,158.86226,-12.907149,86.175034
3630000000,-12.861774,-45.852589,-70.264015,60.115112,-70.46402,55.42749,-19.252213,-136.05807
3635000000,-7.392334,-89.215233,-65.874695,-29.582598,-65.132477,-31.575197,-16.450603,54.328487
3640000000,-20.335329,-23.02006,-69.987312,-154.72791,-71.539375,-168.14072,-21.577503,110.94167
3645000000,-6.4067221,-70.183006,-68.575356,100.37939,-68.491989,98.667503,-22.184656,-168.57213
3650000000,-20.044756,-96.324654,-67.310478,-21.594931,-67.666832,-20.386009,-14.091208,34.496456
3655000000,-7.1080713,-47.856594,-69.527138,-94.424942,-68.633438,-92.282127,-16.423033,155.12776
3660000000,-8.846694,-106.4762,-76.583038,167.31223,-78.151688,149.87878,-22.057791,18.005424
3665000000,-14.436774,-20.29401,-68.81974,29.770544,-69.325371,22.43512,-21.382004,57.691147
3670000000,-8.7932825,-80.684326,-67.000343,-85.85453,-67.182541,-78.679634,-16.523809,137.93341
3675000000,-12.610376,-51.706879,-68.385124,-111.3349,-68.934052,-111.73066,-16.415049,-31.8757
3680000000,-7.1230397,-67.982857,-72.406952,30.367289,-72.282784,38.439621,-13.899395,110.85686
3685000000,-11.504905,-109.90018,-72.261307,-73.512451,-72.437508,-70.541672,-25.211071,-68.437836
3690000000,-10.447749,-31.60652,-65.199738,-140.33183,-66.448357,-143.8931,-24.567024,29.000986
3695000000,-8.9249229,-73.805283,-73.373154,157.74101,-75.904663,150.77049,-16.33469,91.615997
3700000000,-12.434625,-68.341553,-83.966599,-40.53167,-88.916214,-109.22811,-18.900591,-104.78663
3705000000,-6.6330996,-65.604706,-72.298141,-119.82977,-71.672646,-106.49279,-15.411634,60.761787
3710000000,-16.493473,-127.47224,-70.290947,145.64272,-71.063202,145.71945,-23.332794,172.6136
3715000000,-6.2294278,-43.268505,-74.464142,118.95642,-76.016762,129.86542,-38.508862,-59.538971
3720000000,-9.0490227,-95.423164,-78.0896,-102.52065,-79.209846,-95.566734,-17.443068,56.377132
3725000000,-12.203807,-38.610832,-70.555222,170.75429,-70.607254,170.95271,-17.990444,-162.47255
3730000000,-5.7687712,-76.415749,-70.733635,149.51982,-72.078911,136.97389,-18.480806,17.292465
3735000000,-23.357662,-47.494587,-80.223167,-37.155483,-78.028847,-21.269281,-21.927517,124.60798
3740000000,-5.2967362,-59.921471,-79.225883,-159.71997,-80.006302,179.5424,-22.084742,177.09261
3745000000,-10.756828,-95.526642,-71.343544,151.38377,-71.642418,145.41325,-18.508312,-3.1339083
3750000000,-10.244208,-37.711678,-71.359116,50.35091,-72.616112,65.009033,-15.005491,139.93367
3755000000,-6.8570771,-91.109657,-84.560699,130.54619,-82.585938,126.3204,-21.586567,-53.706852
3760000000,-9.778986,-35.158504,-72.998718,140.48811,-74.190155,143.69788,-25.046764,101.38967
3765000000,-6.10041,-75.848885,-78.064735,86.120697,-75.617363,79.796623,-20.439613,134.22484
3770000000,-11.528875,-89.109673,-86.974648,1.0306802,-89.939774,58.183628,-19.600887,-79.04689
3775000000,-8.0152178,-37.122475,-80.681175,-177.35057,-81.236519,-160.3353,-14.25084,93.73481
3780000000,-7.3163743,-88.385384,-70.278076,107.69312,-69.444145,92.65461,-19.014706,-135.04744
3785000000,-8.7692137,-46.21627,-82.314278,26.159195,-89.76561,33.420181,-26.290392,64.591354
3790000000,-6.4645824,-76.369843,-82.46035,-26.196207,-80.37487,-73.955269,-19.049599,98.714775
3795000000,-12.541813,-86.059418,-74.982185,71.15699,-76.748154,80.832848,-16.195477,-150.83322
3800000000,-5.8820128,-45.817356,-77.669525,29.201288,-75.43808,35.437824,-17.414751,45.799957
3805000000,-8.7471857,-92.932678,-70.395599,-47.022945,-71.816116,-53.003513,-17.257696,169.9017
3810000000,-6.685369,-47.000469,-89.025978,137.94992,-90.620598,84.243446,-30.319408,112.60127
3815000000,-5.717886,-87.168892,-75.459831,129.98911,-73.672928,126.13123,-23.554399,49.930157
3820000000,-15.320281,-36.809196,-72.133179,-2.6136932,-73.89492,-13.260848,-14.281803,152.66441
3825000000,-3.9132216,-63.848793,-82.427956,42.014053,-89.301102,80.070282,-20.595325,-17.738678
3830000000,-11.954549,-85.207695,-75.42868,64.034859,-75.110489,69.892326,-14.352685,128.30704
3835000000,-5.2356586,-58.441723,-73.164368,-4.2126555,-72.586594,-5.9360585,-23.081909,176.04243
3840000000,-7.1128197,-94.370102,-70.3246,-35.20528,-69.377518,-34.102734,-31.387165,-10.16113
3845000000,-9.5337744,-36.525093,-80.491318,-173.10808,-78.466003,-156.12863,-13.744541,111.02139
3850000000,-3.5690365,-77.963493,-79.641457,7.4775195,-81.258949,-7.1056108,-19.960798,-115.33503
3855000000,-11.419773,-66.0961,-69.97094,-63.371731,-70.156578,-63.654987,-17.060078,81.37233
3860000000,-4.3896589,-67.145271,-79.763496,-95.048302,-76.972549,-85.843018,-18.6082,122.86087
3865000000,-8.8405323,-89.076241,-78.012802,164.30414,-84.123863,150.74278,-23.940443,-159.33931
3870000000,-5.9478898,-43.764069,-75.272087,-46.188324,-77.387718,-23.024971,-13.902742,76.968071
3875000000,-3.9743879,-89.046577,-72.319397,-103.54472,-74.184998,-105.54105,-16.574133,-179.61899
3880000000,-10.679709,-61.261906,-75.398621,142.23935,-75.337608,150.63277,-21.20112,62.327095
3885000000,-4.1903596,-66.821281,-77.260284,45.857185,-76.945099,44.83849,-19.341249,85.950134
3890000000,-7.512289,-89.257019,-85.775848,178.55547,-81.328468,-178.44615,-15.436811,163.83192
3895000000,-4.9981647,-56.563793,-70.298584,-143.37257,-70.843094,-151.65396,-14.708593,18.233814
3900000000,-4.731256,-87.821457,-88.918541,50.801712,-88.09407,23.03264,-12.72268,134.74899
3905000000,-8.4398031,-55.253658,-79.46331,32.507027,-76.901672,39.668282,-27.302124,28.364798
3910000000,-3.154036,-73.97113,-75.188278,-153.18295,-73.687485,-156.42651,-20.572168,68.52684
3915000000,-10.560184,-87.486588,-84.920815,147.12383,-94.405899,50.393867,-14.031969,117.25417
3920000000,-2.4939086,-61.963264,-81.436539,70.061264,-78.580727,65.318886,-20.905052,-48.487175
3925000000,-7.1805143,-102.33458,-73.310555,-90.21315,-71.753426,-89.454071,-13.118728,97.053131
3930000000,-5.6191955,-53.10041,-85.092758,-156.8676,-88.046631,-178.98163,-30.196867,119.21643
3935000000,-3.0323222,-90.006393,-77.280754,111.48672,-76.432739,111.19968,-28.986511,47.746914
3940000000,-9.6387825,-67.365944,-75.862099,-92.044785,-74.696304,-96.210777,-12.597942,77.704895
3945000000,-2.9580333,-75.584595,-98.844994,-68.526535,-81.632004,-138.87468,-19.037226,-145.54158
3950000000,-6.2898426,-90.050842,-70.081444,112.09356,-70.324173,124.86553,-13.321399,55.981808
3955000000,-5.0085578,-61.633762,-76.405159,-86.163322,-75.884911,-91.263885,-21.589027,141.36539
3960000000,-3.5230515,-95.552208,-73.691231,-76.639214,-73.230202,-90.976952,-25.885389,93.16526
3965000000,-8.0461206,-65.423531,-71.681519,171.02942,-75.339836,162.8073,-15.578553,45.674458
3970000000,-2.9016464,-82.216331,-83.803352,12.134113,-81.571732,6.7927351,-17.802286,152.54814
3975000000,-6.0489988,-95.01268,-79.706154,-50.611202,-79.487473,-62.852276,-17.419624,16.559795
3980000000,-3.7589469,-64.089066,-73.517677,157.51003,-72.967529,152.14104,-19.520796,82.523071
3985000000,-4.0020618,-104.88717,-78.73201,98.1698,-83.029076,96.167252,-20.276772,120.38425
3990000000,-6.0455899,-63.01025,-75.699043,32.084423,-73.575005,21.840277,-17.122259,-7.3787508
3995000000,-2.9455822,-94.085884,-80.798096,-159.06345,-84.566811,175.89467,-13.851298,108.90258
4000000000,-7.1288404,-86.33136,-69.357841,121.7606,-70.866844,115.66144,-22.400578,-31.313505
END

