!CSV A.01.01
!Keysight Technologies,N5247A,US56070710,A.10.64.09
!Date: Saturday, November 19, 2022 23:27:57
!Source: Standard

BEGIN CH1_DATA
Freq(Hz),S33(DB),S33(DEG),S34(DB),S34(DEG),S43(DB),S43(DEG),S44(DB),S44(DEG)
3000000000,-12.542883,165.7545,-66.520767,-177.86562,-66.625717,-179.85626,-18.142227,-158.66031
3005000000,-14.493752,81.016106,-68.44857,42.777908,-66.859879,39.39957,-17.30945,-152.65001
3010000000,-12.089237,141.11288,-65.12532,-38.447029,-65.322594,-48.13168,-15.535528,-166.59943
3015000000,-12.553716,157.62192,-63.806789,-152.59212,-63.649944,-154.98169,-15.868398,-153.71178
3020000000,-19.059416,87.231857,-65.626587,116.27134,-65.428505,115.11871,-16.472795,-173.89084
3025000000,-8.2746553,135.8661,-64.945541,-0.93223345,-65.111015,-2.4191654,-14.612067,-160.66475
3030000000,-29.262957,84.185745,-63.12545,-92.66407,-63.083027,-94.74707,-18.566906,-178.2946
3035000000,-12.798664,102.00455,-65.787224,179.46724,-66.209763,177.98997,-14.051723,-172.14413
3040000000,-9.279109,141.44135,-65.61412,67.36824,-64.706032,70.096191,-18.266502,178.0901
3045000000,-25.400921,143.01495,-67.321808,-51.451473,-67.423759,-57.004478,-15.622497,176.81552
3050000000,-9.7347193,97.47007,-60.625496,-155.4865,-60.545177,-157.23969,-14.50474,168.81738
3055000000,-10.55634,140.23824,-64.355865,127.52215,-64.32238,129.27187,-16.025856,-173.3813
3060000000,-18.344692,53.271412,-62.626038,-4.7777052,-62.518139,-0.95913786,-15.004842,159.82475
3065000000,-7.9397311,117.00545,-59.793446,-87.948929,-59.791473,-89.603111,-15.613715,-173.91972
3070000000,-15.835362,155.9693,-63.799427,153.25943,-63.049339,150.97665,-16.916399,155.68506
3075000000,-10.941289,80.599884,-63.946865,50.048088,-63.476055,48.350037,-16.18964,166.308
3080000000,-6.9880385,118.75256,-63.602314,-31.523134,-62.959976,-31.53623,-16.381958,157.47745
3085000000,-22.498791,-160.18735,-67.186951,-171.25569,-67.00074,-167.98827,-17.114307,155.49324
3090000000,-7.6590023,88.316795,-61.999264,105.18482,-62.638569,110.00755,-13.98776,150.4783
3095000000,-12.197801,146.44394,-61.747215,4.6410694,-61.507286,3.1665995,-17.777464,170.98242
3100000000,-13.323245,96.183708,-61.741272,-86.540855,-62.184902,-83.051003,-14.802402,141.88858
3105000000,-8.4281797,89.457497,-61.792297,176.21346,-61.916489,176.09572,-16.685909,170.90871
3110000000,-10.249647,139.85066,-63.259323,81.190674,-63.976952,76.991913,-17.351675,135.10408
3115000000,-12.793654,39.836185,-62.360847,-59.664791,-62.416824,-59.310284,-17.082895,156.59578
3120000000,-7.0035162,112.61556,-60.587353,-154.51158,-60.445541,-157.03455,-16.843855,132.84584
3125000000,-16.194098,130.22296,-61.305378,99.096848,-61.313946,93.945366,-17.426888,150.9454
3130000000,-8.5591192,68.335327,-58.563606,6.1934724,-58.913929,4.7374663,-15.62445,129.04903
3135000000,-8.6083546,108.20821,-60.087132,-99.970909,-60.626396,-100.54656,-17.577669,163.55852
3140000000,-17.356886,98.273697,-60.894867,153.65067,-60.515011,154.69679,-16.109671,122.08771
3145000000,-9.1083584,67.216141,-60.428936,63.346561,-60.147591,60.558987,-17.307117,154.98511
3150000000,-8.1136694,123.81522,-61.023357,-51.678898,-60.800884,-52.693096,-18.135223,138.98965
3155000000,-11.814334,60.078243,-61.337372,-168.01826,-61.140976,-161.17313,-19.45392,127.4055
3160000000,-8.188858,82.684761,-58.943996,90.555183,-58.771461,90.467171,-16.405176,139.96742
3165000000,-11.904697,103.46486,-59.842529,-2.5378938,-60.4496,-5.2545028,-19.39666,119.67255
3170000000,-13.05569,70.614899,-58.719563,-105.28851,-59.045731,-104.04997,-15.691195,136.7372
3175000000,-8.5773916,94.810448,-60.65329,154.81009,-60.303123,155.44946,-18.125591,141.81772
3180000000,-15.810762,77.35376,-61.334076,48.725277,-61.265232,45.653782,-18.125832,128.74327
3185000000,-7.0529776,61.206707,-60.256805,-63.607613,-60.921463,-61.720478,-16.910076,150.80655
3190000000,-10.28706,91.099815,-59.498016,-173.4425,-59.405075,-172.453,-20.645569,137.11804
3195000000,-14.897176,60.862278,-60.342621,82.914604,-60.643723,83.53791,-21.64946,127.29223
3200000000,-7.0931768,66.652542,-56.713203,-17.53916,-56.969833,-20.340736,-15.93628,124.30742
3205000000,-8.6909752,112.97274,-60.003479,-112.59431,-59.956459,-116.16128,-25.225943,139.43137
3210000000,-9.1970997,27.620617,-59.27375,142.37169,-59.328495,146.37805,-14.210329,118.42148
3215000000,-8.621954,75.219475,-60.059425,38.807022,-60.672451,36.84164,-21.625488,142.20569
3220000000,-11.943375,84.434319,-60.80518,-71.271347,-61.334263,-70.064857,-15.777544,129.82864
3225000000,-10.14119,38.151878,-60.671185,-178.45253,-60.302799,-179.89899,-19.0973,131.80119
3230000000,-7.4452572,80.391449,-60.169987,77.658386,-60.506786,74.728958,-17.866573,146.34238
3235000000,-13.956987,71.194687,-59.459953,-23.995859,-59.568413,-25.061207,-20.470772,112.89468
3240000000,-5.2325454,40.636543,-60.250511,-123.44657,-60.647831,-125.07095,-16.930635,129.7066
3245000000,-12.751961,106.07923,-59.408775,130.15704,-59.379879,131.76645,-19.950581,140.53055
3250000000,-10.672259,44.478443,-60.340511,29.512079,-60.26292,33.25993,-17.323624,105.31226
3255000000,-7.4830108,57.666256,-60.98793,-74.824127,-61.447693,-76.828705,-17.694422,140.25049
3260000000,-11.230981,78.753487,-60.474125,176.92865,-60.081871,176.97255,-16.290684,112.44674
3265000000,-8.2342434,23.815916,-60.598076,68.178131,-60.309677,67.147476,-18.34,139.09984
3270000000,-7.3007402,68.785477,-59.537899,-31.790211,-59.119324,-29.543232,-16.6516,123.66869
3275000000,-17.432499,36.967937,-59.147797,-130.28395,-59.304699,-126.19557,-21.254946,114.24296
3280000000,-8.2880239,49.628586,-58.931953,123.55367,-59.128693,122.00291,-14.650865,121.16865
3285000000,-7.8961339,65.252823,-59.952614,24.8382,-60.148766,23.794678,-20.511326,122.84715
3290000000,-14.128985,2.6257038,-60.280743,-93.405006,-60.400093,-96.094543,-16.147583,110.77765
3295000000,-6.7039866,33.457928,-59.64645,161.15953,-59.586479,161.33075,-15.745409,119.69238
3300000000,-10.557212,75.593941,-59.913628,60.100597,-59.672974,59.209381,-17.581381,125.04571
3305000000,-10.137707,8.9944067,-59.119526,-48.25317,-59.395412,-50.462318,-16.702047,112.39723
3310000000,-7.4418592,51.503933,-59.540039,-141.67087,-59.547329,-146.30981,-16.972294,126.72255
3315000000,-11.695729,53.612442,-60.550026,113.05457,-60.568718,115.49184,-19.868412,103.64608
3320000000,-9.0416555,7.8102283,-61.376743,3.0749817,-61.081985,4.2581644,-15.209643,106.65364
3325000000,-8.3941345,44.291233,-61.471413,-91.776268,-61.798347,-94.002716,-19.644026,106.85971
3330000000,-22.534311,-23.610928,-61.731014,145.91982,-61.298569,144.62849,-14.289023,102.52529
3335000000,-4.49511,26.776754,-60.741081,40.910725,-61.193523,41.290947,-17.776161,106.66351
3340000000,-11.32708,45.24374,-60.527138,-52.951431,-60.139992,-54.903221,-14.975529,110.52491
3345000000,-12.476283,7.4131417,-61.035408,-156.68202,-60.99736,-157.76527,-19.447893,96.42569
3350000000,-5.903831,16.298386,-61.556,103.87958,-61.642654,99.625572,-14.827394,111.15457
3355000000,-14.113872,73.042755,-62.390823,1.6133468,-63.323418,3.0659058,-21.973448,78.984154
3360000000,-9.6087122,-6.7141542,-62.423687,-105.28397,-62.117901,-108.24802,-15.224091,96.93763
3365000000,-6.120337,31.139202,-62.676395,141.35861,-62.686535,142.46959,-19.070543,78.749153
3370000000,-12.902633,9.7462606,-63.274387,27.418407,-62.619434,30.178791,-15.064567,90.914963
3375000000,-7.0850024,1.874414,-61.033386,-74.447693,-61.709641,-74.671303,-17.178047,85.441124
3380000000,-10.46898,46.853149,-60.923306,-166.78285,-61.611526,-171.27078,-17.319296,101.09138
3385000000,-15.660733,19.070469,-62.602829,81.828156,-63.437157,84.525246,-17.455254,75.272636
3390000000,-5.1121035,1.4013426,-63.119999,-13.609851,-63.585991,-18.714993,-17.428181,87.529213
3395000000,-13.364023,64.992027,-67.01033,-118.39915,-66.229233,-120.28541,-18.989632,79.317017
3400000000,-7.4274354,-20.298605,-65.441521,122.92664,-65.425064,116.76538,-16.876774,76.369736
3405000000,-9.6250057,-1.148515,-66.120026,3.1086149,-66.365036,1.5662129,-19.333931,70.494133
3410000000,-10.507784,51.400478,-67.09539,-97.885925,-66.131752,-99.395241,-16.104307,71.659592
3415000000,-5.5777054,-23.896149,-66.256004,173.57092,-66.73616,176.01276,-19.062328,76.678787
3420000000,-8.5549726,40.889332,-68.651115,84.014702,-70.166176,84.353333,-16.747295,85.053078
3425000000,-12.52412,-14.903814,-70.437401,21.342993,-69.77494,10.573519,-21.77426,45.443501
3430000000,-7.7807817,-15.352165,-70.254486,-101.92831,-71.103394,-95.153717,-17.55562,87.163773
3435000000,-12.702714,26.237928,-71.343071,170.37924,-71.237839,174.46054,-21.29311,48.36235
3440000000,-11.908114,-21.227213,-70.797493,42.40559,-70.108757,46.366482,-20.917967,55.286789
3445000000,-5.9406872,0.33941051,-68.956932,-53.632019,-68.474129,-66.220253,-17.493017,57.321129
3450000000,-12.314729,-2.100358,-66.196404,-149.29875,-66.581635,-149.5074,-21.912846,70.153336
3455000000,-11.122218,-38.997551,-66.837914,100.39741,-66.989449,98.766068,-18.311617,56.426689
3460000000,-8.3759089,13.011893,-65.04261,6.6018858,-66.22345,3.7262425,-20.954304,72.622757
3465000000,-12.880058,-14.222898,-67.558723,-83.751617,-66.495453,-85.70253,-24.966669,71.911026
3470000000,-8.4040709,-24.440836,-66.623726,168.81487,-68.912384,170.32661,-18.24662,60.495792
3475000000,-8.168478,9.41502,-67.418053,50.671604,-67.194443,54.291832,-37.703564,97.234749
3480000000,-12.5758,-70.961327,-69.392242,-60.071507,-69.844902,-52.815441,-20.681263,49.848385
3485000000,-5.2990713,-2.5064821,-66.676445,-177.1546,-67.041023,-171.60928,-21.527199,42.82106
3490000000,-22.227171,-9.8067732,-65.335693,94.623283,-64.966965,91.964668,-23.142704,99.493607
3495000000,-9.486412,-12.691635,-66.172745,-6.4012432,-66.677696,-3.2568293,-19.040718,15.98473
3500000000,-6.4424682,-25.754705,-64.633476,-103.14439,-64.648651,-103.2907,-17.953028,110.33381
3505000000,-20.376051,67.564964,-67.259399,140.66745,-66.857773,139.32887,-23.502567,16.076521
3510000000,-5.6269193,-39.615799,-64.993736,41.997868,-65.089233,51.880791,-23.38463,102.49104
3515000000,-10.627575,15.42721,-66.867149,-69.013557,-66.016563,-69.673035,-28.174208,65.206444
3520000000,-16.423471,-41.00391,-64.929451,175.73039,-66.102409,179.56706,-25.962301,33.308224
3525000000,-8.226141,-30.925417,-66.215569,77.602364,-65.859047,78.779236,-21.624714,57.949955
3530000000,-9.1449423,-8.5191612,-66.042458,-35.325603,-65.703102,-37.386463,-22.64156,97.811653
3535000000,-13.010815,-78.634506,-65.078583,-138.08757,-65.016861,-135.96277,-26.036152,49.89566
3540000000,-8.0114632,-19.520979,-65.362953,112.21893,-66.049759,116.65031,-18.747795,95.050636
3545000000,-12.860288,16.433271,-65.658592,0.58355415,-67.484413,9.3584547,-34.095436,-132.71361
3550000000,-7.6832032,-52.521027,-67.733177,-87.931442,-68.654373,-84.843262,-19.149742,87.048561
3555000000,-10.968425,6.3285704,-67.166214,143.84286,-66.676384,149.3826,-44.87447,52.22963
3560000000,-11.904634,-45.968945,-65.359344,60.461246,-65.427071,56.673145,-24.175764,91.733345
3565000000,-12.535997,-75.49453,-67.57093,-51.047733,-68.025536,-43.957397,-25.607283,50.172356
3570000000,-5.9363861,4.4991317,-66.905746,-166.57126,-66.269943,-164.07426,-21.999249,90.118279
3575000000,-12.867818,-104.58669,-68.876099,93.875977,-68.247818,102.66883,-23.865614,58.700298
3580000000,-7.4060559,-23.610426,-66.31176,-28.770151,-65.799484,-25.210361,-21.623055,102.27475
3585000000,-11.077695,-37.688492,-65.007988,-106.39674,-66.415977,-109.94141,-22.81126,95.947319
3590000000,-20.348417,-119.38485,-66.671707,132.91991,-65.871025,142.12183,-31.035469,55.619179
3595000000,-5.1215105,-27.706867,-64.227303,35.595551,-64.251259,32.04768,-20.180885,89.368599
3600000000,-28.32954,43.675385,-65.285851,-78.472717,-65.230598,-73.922325,-32.601616,121.13987
3605000000,-6.3213425,-47.493835,-65.136284,172.22765,-65.410774,172.74883,-20.828413,54.05875
3610000000,-12.293091,-33.647873,-63.068077,58.735939,-63.360977,57.729313,-23.29064,85.583572
3615000000,-21.301001,13.288243,-64.107437,-56.190327,-63.471504,-58.279415,-23.741827,85.966682
3620000000,-8.203475,-55.055565,-61.878525,-156.46696,-61.871876,-156.77998,-21.251661,68.328094
3625000000,-9.6060028,-21.153563,-62.078461,100.11515,-63.03302,98.929832,-23.600195,97.3424
3630000000,-29.255774,-94.089554,-61.678059,-22.534235,-62.05051,-21.556269,-27.456379,95.349937
3635000000,-5.9505372,-57.043854,-61.969406,-123.4716,-61.743782,-121.61783,-20.564312,56.774101
3640000000,-15.180968,4.5770755,-61.960323,118.71715,-62.079166,120.05737,-23.548012,140.96788
3645000000,-8.2386732,-67.869576,-62.543362,10.432659,-61.753292,11.575548,-19.079533,9.9953098
3650000000,-14.700748,-27.471354,-61.300713,-100.21442,-61.912491,-98.353859,-19.014608,110.52485
3655000000,-7.5570045,-13.216784,-61.565475,156.35878,-61.497955,157.72908,-21.852566,18.612385
3660000000,-6.9040289,-92.378403,-60.911816,54.137417,-60.96983,60.150848,-23.305986,95.123482
3665000000,-7.9281201,11.665577,-61.51202,-56.063011,-61.639587,-58.529503,-22.064793,68.024422
3670000000,-11.047591,-101.07167,-62.216419,-167.57065,-62.295212,-159.37144,-29.947376,113.80072
3675000000,-10.789916,-22.914104,-62.18671,87.826981,-62.775963,92.592781,-23.143488,45.770336
3680000000,-7.4186187,-44.457436,-61.775169,-23.381607,-61.180344,-22.229053,-25.171453,128.97974
3685000000,-16.036869,-109.22377,-61.038784,-119.80811,-61.600388,-117.0612,-24.361595,-25.87718
3690000000,-6.1057291,-38.508736,-60.38311,135.7186,-60.662659,133.18024,-19.866539,68.725342
3695000000,-22.701462,-26.078876,-61.483452,28.988388,-61.500957,32.12756,-30.272228,-39.10104
3700000000,-9.5122013,-64.133507,-61.655071,-81.391838,-61.669418,-85.634468,-21.662031,75.989281
3705000000,-7.698247,-34.386139,-61.261253,174.41611,-61.652641,174.74904,-23.574524,29.928715
3710000000,-20.549879,-105.91582,-62.907654,63.076511,-62.82568,65.683716,-23.692259,139.22429
3715000000,-6.3890543,-55.336205,-60.70335,-36.068638,-61.374699,-35.276466,-20.707609,23.09931
3720000000,-11.448467,-38.529812,-60.158428,-137.92886,-60.894352,-139.53883,-21.092291,154.35304
3725000000,-21.713371,-80.116158,-60.200466,111.68362,-60.507179,115.261,-22.057467,0.42214957
3730000000,-4.5838957,-53.400372,-60.790081,8.6986332,-61.033936,11.853319,-28.272335,100.20264
3735000000,-21.678917,20.830959,-61.438248,-95.894875,-61.289978,-96.136757,-24.436804,89.488106
3740000000,-7.8134885,-63.415855,-61.180817,157.30284,-60.706978,157.96948,-38.094528,20.72072
3745000000,-8.6677237,-71.949722,-61.259979,46.932167,-61.048836,52.698021,-23.705458,96.788177
3750000000,-10.421021,9.7923613,-61.912998,-53.089939,-61.743347,-54.988468,-29.242407,160.75087
3755000000,-5.0116758,-110.42502,-60.306767,-148.74478,-60.960842,-151.8416,-29.322668,38.870399
3760000000,-5.809648,-1.7212669,-60.540981,105.08789,-60.661655,106.29642,-22.499529,135.86497
3765000000,-5.3251266,-88.521317,-61.205093,2.4955244,-61.573013,5.4544373,-26.463272,-45.14069
3770000000,-14.611605,-99.201065,-60.792995,-103.45355,-61.365002,-104.44946,-21.870466,103.91588
3775000000,-5.2119994,-27.663307,-61.418549,155.37309,-61.050556,156.07326,-26.937332,52.925743
3780000000,-11.022745,-136.27037,-60.720413,42.17292,-60.786476,45.029758,-24.014357,155.46558
3785000000,-5.1012158,-44.834732,-59.733677,-59.087845,-59.867817,-60.508659,-19.476048,57.857071
3790000000,-10.520711,-69.448761,-60.510433,-159.59439,-60.488575,-158.91843,-17.882957,159.84705
3795000000,-10.681309,-108.60234,-59.69474,96.748398,-59.968319,96.75309,-26.253393,33.552612
3800000000,-6.8648553,-46.647049,-59.919014,-2.7405019,-59.667969,-1.9421675,-20.08054,141.08315
3805000000,-13.46106,-62.014828,-61.615761,-111.93249,-61.690353,-110.9625,-41.993752,84.472916
3810000000,-8.9815559,-88.660576,-59.959469,141.31734,-60.007553,142.98965,-22.750767,89.620598
3815000000,-4.5041399,-58.870247,-61.052128,46.213455,-60.782082,42.744644,-24.067369,113.99329
3820000000,-15.423577,173.92276,-60.293861,-69.464851,-60.669781,-70.143494,-23.498539,117.39767
3825000000,-3.4735711,-61.49556,-60.320263,-171.21298,-59.57616,-166.46878,-21.56551,69.457382
3830000000,-15.798496,-106.81036,-59.837898,87.308334,-59.822556,87.263329,-16.257614,131.65092
3835000000,-9.000289,-54.44574,-59.800915,-13.734093,-59.451298,-15.048191,-49.884674,-93.213043
3840000000,-4.291182,-97.998993,-60.44228,-111.79646,-60.100212,-111.90898,-18.447392,111.74332
3845000000,-13.306139,10.219398,-60.665516,135.26714,-60.403522,140.2635,-30.912722,104.78344
3850000000,-3.6734712,-95.022263,-60.393986,40.761314,-60.133678,37.925716,-23.866451,109.92019
3855000000,-12.077024,-85.789291,-60.409851,-69.025291,-60.796299,-66.141228,-19.391022,73.218559
3860000000,-8.9526176,-56.708584,-59.731979,-171.61676,-59.659302,-174.02327,-22.116331,137.7003
3865000000,-6.3316989,-105.03674,-59.589233,84.989784,-59.734333,86.87265,-16.846443,61.537155
3870000000,-7.2939267,-52.746975,-59.968498,-17.86875,-59.909161,-17.618923,-17.572172,143.72906
3875000000,-7.4713559,-117.44534,-59.392517,-119.08895,-59.482056,-118.78235,-20.422123,63.135933
3880000000,-10.057334,-86.981064,-60.189732,136.5905,-59.721218,137.74197,-22.3403,122.66532
3885000000,-7.8566952,-55.206242,-59.896267,26.950562,-59.41309,30.78171,-19.34737,86.631958
3890000000,-5.0619535,-114.96201,-59.554913,-70.654472,-59.088078,-72.719971,-36.602726,159.37985
3895000000,-8.8254318,-82.002197,-59.728207,-179.23216,-59.751041,-179.32759,-15.515912,59.826012
3900000000,-7.7392025,-80.589661,-58.572296,79.643356,-59.457626,82.637039,-20.47489,129.64578
3905000000,-8.0971842,-111.8365,-59.230118,-22.87451,-59.165489,-21.470566,-18.703609,43.751862
3910000000,-6.743516,-55.883678,-58.937881,-127.60928,-59.482433,-124.5183,-16.553572,107.46025
3915000000,-6.9538703,-127.01041,-59.535927,128.49257,-60.100319,130.36195,-24.160727,46.114388
3920000000,-6.7068157,-74.228302,-59.066933,27.745127,-60.133198,28.193287,-19.846994,100.88441
3925000000,-7.6251597,-103.63757,-58.891602,-76.819908,-58.946117,-73.997093,-19.464735,58.292416
3930000000,-17.024,-123.06974,-59.562275,177.90126,-59.739723,176.10535,-24.857191,150.16475
3935000000,-2.7552888,-93.176956,-58.621056,75.249954,-58.971634,76.868088,-14.630737,33.512093
3940000000,-21.284328,-76.320869,-58.668404,-24.616917,-59.298443,-23.389181,-18.942167,128.93338
3945000000,-4.3597083,-115.83396,-58.997364,-132.9207,-59.083057,-133.05806,-17.246067,29.547108
3950000000,-8.2971249,-86.974228,-58.877861,127.4527,-58.992001,127.59496,-17.911943,88.966209
3955000000,-10.817421,-99.974518,-59.375893,19.434294,-59.316536,20.791172,-26.790512,93.053963
3960000000,-5.8859453,-123.52112,-58.564175,-84.850777,-58.607899,-82.312248,-19.028736,40.001812
3965000000,-9.7993059,-74.43351,-58.92551,176.11098,-59.13493,176.93864,-20.759029,99.439209
3970000000,-7.181077,-127.92666,-59.087746,69.722275,-59.008968,65.10424,-25.638084,15.12969
3975000000,-5.1392317,-116.65956,-58.954784,-26.922039,-59.573437,-30.814167,-18.535666,38.385143
3980000000,-10.425437,-86.491714,-59.120579,-136.37196,-59.259331,-133.46365,-19.924244,97.316864
3985000000,-7.1425748,-134.30605,-59.325912,122.68326,-59.033001,122.73282,-19.670309,7.0622859
3990000000,-8.746006,-100.91041,-59.349892,17.892435,-59.279816,16.48704,-19.418703,91.884888
3995000000,-7.9471874,-100.19041,-59.380497,-88.494339,-59.34251,-87.512726,-22.973269,41.01091
4000000000,-4.089292,-152.83527,-57.304428,165.13094,-57.400196,164.05521,-33.915092,18.84985
END

