!CSV A.01.01
!Keysight Technologies,N5247A,US56070710,A.10.64.09
!Date: Sunday, November 20, 2022 00:52:50
!Source: Standard

BEGIN CH1_DATA
Freq(Hz),S33(DB),S33(DEG),S34(DB),S34(DEG),S43(DB),S43(DEG),S44(DB),S44(DEG)
3000000000,-8.0321436,-150.62729,-67.469063,141.17348,-66.693932,140.90556,-18.615051,-157.76143
3005000000,-9.4105282,91.238441,-63.694454,35.024498,-63.656738,36.302715,-17.147411,-157.47339
3010000000,-20.567741,108.72397,-67.571739,-50.500347,-68.081131,-47.414768,-15.560613,-164.98972
3015000000,-6.3319297,175.44958,-65.721458,-175.65009,-65.310684,179.57974,-16.20965,-155.53629
3020000000,-10.440974,37.027462,-73.807983,139.12831,-73.992706,134.88281,-16.229025,-177.02907
3025000000,-6.4992199,162.30128,-67.12767,23.116957,-67.141907,18.969383,-14.519234,-160.18886
3030000000,-14.446955,101.80818,-67.707657,-154.71811,-66.689819,-151.00145,-18.677063,176.56126
3035000000,-16.741861,21.946972,-67.506149,147.92921,-67.606773,151.69431,-13.692916,-172.14688
3040000000,-3.9409912,150.97357,-69.717178,32.075542,-69.329803,31.349537,-18.66991,177.29239
3045000000,-14.740103,-10.017938,-67.214561,-54.01862,-67.047234,-46.736412,-15.470987,173.60423
3050000000,-9.1951427,134.4261,-63.628841,-167.76718,-63.582829,-168.82466,-14.32768,169.87427
3055000000,-7.1586294,116.19762,-65.660774,110.12774,-65.818726,109.65934,-16.421703,-174.30579
3060000000,-11.942262,-57.715714,-71.129898,-3.6076858,-70.974525,-10.333489,-14.730402,156.85988
3065000000,-3.0424795,118.7547,-69.395126,-129.68959,-69.024803,-129.65752,-15.332539,-173.17772
3070000000,-18.084871,-95.353127,-66.647728,138.22186,-66.291969,139.44031,-17.192163,151.53575
3075000000,-9.9647875,120.54367,-63.624638,43.825085,-63.823181,40.550846,-15.625562,164.98042
3080000000,-5.3007212,95.108482,-63.68597,-47.036812,-64.941536,-45.35067,-16.61484,156.94986
3085000000,-8.6175165,-127.21982,-68.958725,-162.37292,-68.484566,-160.19936,-16.950413,152.88443
3090000000,-3.5882401,83.705109,-67.411705,104.92279,-67.4804,98.574516,-13.657728,150.47972
3095000000,-13.758136,-160.12631,-73.338715,-11.982907,-70.757652,-4.6275878,-18.280836,172.0741
3100000000,-8.7721329,132.2771,-75.092972,-168.13785,-73.995308,-176.56651,-14.423054,138.83827
3105000000,-6.2464409,60.793446,-65.214279,123.58151,-65.077644,122.81471,-16.359816,170.93954
3110000000,-6.1262789,171.68756,-67.215919,28.087143,-67.248444,30.204443,-17.596186,133.3492
3115000000,-7.9925308,41.966843,-64.316414,-74.519508,-63.813721,-74.113091,-16.539057,151.61424
3120000000,-9.9732399,128.39653,-81.802162,85.126678,-79.487877,84.504013,-16.95582,137.71237
3125000000,-7.720458,146.19296,-68.159866,26.88867,-67.807083,28.996031,-17.561783,145.26642
3130000000,-6.0099812,33.338394,-66.601799,-26.808123,-67.727676,-32.09454,-15.37781,130.72853
3135000000,-5.2963285,142.99146,-71.113976,-127.97347,-73.20565,-117.47001,-17.818447,163.30595
3140000000,-10.893645,59.580349,-65.758141,107.90047,-65.948158,110.88508,-15.896078,119.1644
3145000000,-18.642881,38.692703,-68.903526,15.501124,-69.272499,10.672324,-16.790319,154.65858
3150000000,-2.85764,124.66112,-63.970791,-66.5121,-64.941139,-66.486794,-18.580814,137.20294
3155000000,-9.3651886,1.236764,-75.686714,-128.80064,-73.426025,-128.42915,-18.730358,124.98663
3160000000,-5.0964632,111.31127,-76.056801,133.81277,-75.502045,130.45297,-16.205263,141.1638
3165000000,-11.174231,64.569977,-69.177971,-29.079197,-69.336113,-34.437904,-19.678177,116.10735
3170000000,-20.367294,171.98683,-73.321533,-149.85817,-71.767143,-152.25388,-15.180994,134.85219
3175000000,-3.4197531,91.916603,-73.103271,179.2263,-73.907913,168.14435,-18.127781,144.67578
3180000000,-18.91362,-85.88485,-67.862915,-0.54092139,-67.273636,0.56108201,-18.225874,122.35108
3185000000,-4.3409519,76.24424,-71.62159,-66.308723,-74.785088,-58.370155,-16.076391,149.84543
3190000000,-12.372749,70.436241,-66.618271,-168.07532,-67.752609,-163.70587,-21.653608,138.41859
3195000000,-15.429247,156.70567,-69.30867,123.00116,-69.158524,126.91105,-20.256908,120.992
3200000000,-3.4163935,60.123634,-75.578423,-34.335167,-75.118118,-22.865091,-15.967775,127.36819
3205000000,-9.8545694,151.18506,-71.130814,-158.47458,-70.603233,-161.93987,-25.509335,134.87509
3210000000,-8.1353312,48.965588,-71.902061,78.375977,-73.083107,88.860504,-13.905038,116.6674
3215000000,-7.7995892,58.802979,-80.72773,-22.23078,-78.224396,-30.84297,-21.120665,146.82874
3220000000,-9.867528,137.80736,-71.026268,-99.839478,-71.761993,-101.68329,-16.149309,125.36766
3225000000,-5.6582875,27.939627,-66.881973,-151.27939,-67.032051,-152.14461,-18.030533,131.76807
3230000000,-8.2597561,118.55832,-66.671776,66.876389,-66.766586,70.152695,-18.165901,147.08904
3235000000,-7.8698969,79.923172,-74.817261,3.0291262,-76.084106,17.064697,-20.117336,108.91214
3240000000,-4.783443,11.671103,-77.971634,-106.85733,-78.730392,-102.36623,-16.292242,130.21362
3245000000,-4.4303536,131.71765,-74.604965,51.032677,-73.389114,60.138763,-20.503155,141.85095
3250000000,-6.646534,8.6179132,-74.033707,47.945366,-71.351334,52.819241,-16.801321,103.06848
3255000000,-8.3905106,89.888702,-65.608559,-103.04942,-65.879883,-94.45517,-17.43115,141.70799
3260000000,-6.5740833,76.456795,-67.699532,-169.96323,-68.48819,-165.08766,-16.44939,110.43435
3265000000,-9.3974857,-22.499317,-71.438477,80.270668,-72.203407,66.365013,-17.790871,133.86816
3270000000,-2.3875055,80.364761,-72.263588,15.807148,-72.741081,13.144868,-16.72204,127.13791
3275000000,-12.105105,-52.529556,-71.494484,-137.85258,-70.882301,-127.81038,-20.800982,107.39597
3280000000,-7.2548428,86.480072,-82.062714,124.40859,-79.930733,79.672096,-14.218714,121.38659
3285000000,-3.7563918,53.539509,-66.717506,9.5178423,-67.529732,4.3605309,-20.879286,126.04916
3290000000,-11.697913,-96.526016,-67.01252,-118.29541,-67.99501,-112.83788,-16.005836,107.0056
3295000000,-2.7507353,50.50835,-69.171684,-177.05135,-69.425568,-177.02559,-15.155192,120.95464
3300000000,-16.417711,62.030315,-64.138939,69.844658,-64.616707,77.873482,-18.294662,124.87624
3305000000,-17.92338,56.2593,-76.043068,-57.750965,-76.333038,-77.499115,-16.177654,108.47956
3310000000,-3.1003854,40.062801,-67.704918,-173.47345,-68.588837,-165.83214,-16.436611,129.87798
3315000000,-14.047734,158.0773,-68.812546,82.424644,-68.114342,81.677574,-20.036324,95.178841
3320000000,-4.5368261,26.25486,-67.187347,-33.678059,-67.267189,-34.546696,-14.664681,107.88289
3325000000,-11.940408,18.310066,-65.496788,-107.70053,-65.92868,-114.64078,-19.527863,110.43387
3330000000,-11.180988,127.37794,-66.141052,128.88426,-65.701149,131.752,-14.606883,98.930992
3335000000,-1.7900249,7.8461938,-65.565659,25.78322,-65.287117,27.832237,-16.50597,106.6564
3340000000,-8.4000635,118.71898,-64.427071,-89.732162,-64.518425,-93.829254,-16.008379,113.94044
3345000000,-5.7676177,10.094508,-66.517143,159.05316,-66.663231,152.84128,-17.73254,89.913292
3350000000,-9.6391363,-6.866436,-62.151516,50.277561,-62.105301,51.802078,-14.855045,113.40384
3355000000,-5.7665377,90.245941,-61.496944,-60.257317,-61.790989,-58.796009,-22.11904,76.590668
3360000000,-5.6632023,-37.979645,-61.561863,-154.96284,-61.512581,-150.76605,-14.533574,95.114441
3365000000,-4.0033164,63.585838,-61.250301,100.29935,-61.688236,102.16861,-19.2391,84.513214
3370000000,-8.5753136,-6.6086106,-61.107395,-15.885629,-61.167507,-19.930325,-15.400536,86.52021
3375000000,-10.594036,-13.02821,-60.537621,-122.74869,-60.744537,-122.86236,-16.360788,88.115074
3380000000,-5.4646564,61.3092,-58.899914,120.72985,-59.500687,116.59116,-17.467876,102.88194
3385000000,-17.866066,-57.340202,-59.436779,3.4419086,-59.696175,2.8742571,-17.144417,67.951218
3390000000,-4.1031775,17.885044,-58.496449,-91.975708,-58.951279,-93.038803,-16.684137,93.14492
3395000000,-13.882406,48.410408,-56.820541,161.95238,-57.200253,161.63235,-19.205809,78.81591
3400000000,-10.856712,-40.716999,-58.498844,54.656757,-58.436909,52.902866,-16.318993,71.94883
3405000000,-4.8484173,20.65852,-58.183228,-60.638058,-57.553852,-58.447964,-19.515387,79.16317
3410000000,-20.415205,78.546989,-58.151154,-172.63173,-58.453903,-173.45346,-16.284504,69.279785
3415000000,-6.0820498,-0.57435292,-57.303123,86.059509,-57.245922,85.468803,-17.840109,74.575829
3420000000,-6.8588667,19.044676,-57.263004,-28.626961,-57.684994,-26.497633,-17.517174,88.52771
3425000000,-17.836359,139.51611,-56.884308,-134.1969,-56.74081,-134.79007,-20.944086,43.339138
3430000000,-2.2605605,-9.416646,-56.590321,123.94329,-56.282124,124.65201,-16.42223,87.37925
3435000000,-14.180521,133.5685,-56.739323,15.19146,-56.953243,15.240877,-22.32362,40.87542
3440000000,-7.3853755,11.509947,-57.466557,-87.8769,-57.566509,-88.137268,-20.333069,58.378338
3445000000,-5.5583897,-26.123137,-57.89296,160.00983,-57.712467,162.78181,-16.811491,61.125237
3450000000,-6.9720688,73.406624,-57.540359,51.862728,-57.826679,53.513435,-23.418299,66.466248
3455000000,-3.7206075,-52.511093,-57.486195,-58.57468,-57.445148,-56.063992,-17.660124,54.04488
3460000000,-8.6910686,65.730438,-57.071522,-157.32581,-56.973602,-156.80641,-20.52564,84.348831
3465000000,-8.1018724,0.92382389,-56.211967,92.938362,-56.284935,93.331558,-23.78227,51.778934
3470000000,-8.7154379,-56.646786,-57.377613,-13.433517,-57.528587,-9.596384,-18.29434,63.842815
3475000000,-3.9774888,38.382858,-57.150848,-115.09619,-57.123444,-113.15166,-32.856842,117.39458
3480000000,-6.90939,-85.434464,-58.649593,143.0661,-58.359341,142.1588,-19.979601,44.846725
3485000000,-6.4798474,11.501428,-59.260605,34.369091,-58.63018,35.008739,-21.020163,47.151749
3490000000,-11.271811,29.76133,-56.968826,-70.607147,-57.142845,-70.111259,-24.356735,112.21706
3495000000,-11.45707,-70.086792,-57.04306,178.20213,-57.042419,178.1077,-17.762939,22.99976
3500000000,-3.54897,7.9093933,-58.020771,69.536636,-58.448589,70.257332,-18.252916,112.04517
3505000000,-16.306795,-97.764015,-58.094963,-18.207359,-58.514793,-19.518845,-24.136446,10.166902
3510000000,-12.139631,-31.67325,-58.81937,-137.03993,-58.648598,-137.05838,-21.566223,96.165131
3515000000,-4.326015,6.2478261,-59.386677,122.98114,-59.310799,126.43434,-27.351898,68.83976
3520000000,-11.652424,-167.70427,-58.783283,17.03636,-58.590084,15.906249,-26.570751,19.159946
3525000000,-2.9831278,-11.762639,-59.11079,-100.8042,-58.671429,-100.96966,-20.195559,66.15506
3530000000,-14.2584,-46.972351,-59.081837,170.50795,-59.009624,168.48656,-22.525301,100.907
3535000000,-21.291758,24.791111,-58.724503,59.513153,-58.94397,61.915516,-25.126358,32.893349
3540000000,-4.2223368,-36.94455,-58.924446,-42.730911,-59.160954,-39.603748,-17.970715,101.70224
3545000000,-7.5657067,84.314049,-59.208786,-153.06281,-59.548901,-149.40196,-38.023479,-135.86107
3550000000,-3.1035225,-47.942883,-59.724133,102.17364,-59.445282,100.43971,-19.283787,79.170059
3555000000,-15.9762,39.386459,-59.451355,-5.224051,-59.990543,-6.5849342,-34.486992,136.93254
3560000000,-10.514901,-6.6486926,-61.045292,-104.11868,-60.643063,-102.62282,-24.778605,88.985657
3565000000,-7.6943927,-92.803802,-59.406731,152.52573,-59.400478,155.76057,-22.691917,49.822475
3570000000,-3.6878049,30.258469,-61.26659,45.991581,-60.651527,40.684074,-22.623066,102.68043
3575000000,-9.0025148,-91.374016,-62.049564,-76.159378,-62.135872,-72.595627,-24.306246,56.887318
3580000000,-10.075554,-33.501869,-60.68877,-176.19232,-61.44838,-177.55431,-19.764174,93.144844
3585000000,-7.3360376,4.7206173,-62.555729,87.769211,-62.914513,86.835976,-25.414154,104.20659
3590000000,-7.574203,-130.12196,-62.432873,-19.501179,-63.386101,-21.349756,-28.011896,65.250099
3595000000,-3.2676709,5.9339623,-61.833801,-119.07034,-61.471684,-123.4841,-19.379353,88.058655
3600000000,-13.643205,-70.969711,-62.622627,132.03581,-62.848591,133.8586,-34.61993,132.7823
3605000000,-14.689162,-66.460594,-64.895821,36.067318,-64.5131,38.611828,-20.331072,51.200882
3610000000,-3.9390335,-12.131665,-65.141411,-73.843544,-64.782593,-75.283775,-21.316797,97.760109
3615000000,-9.5204201,-176.38864,-67.881035,-177.2784,-66.846832,179.33575,-25.163786,67.848473
3620000000,-5.1966019,-15.877161,-64.929337,70.510025,-64.322662,75.59272,-20.573475,69.323044
3625000000,-9.4926128,-53.649452,-68.258835,-28.970493,-67.941246,-26.528425,-22.281399,107.87019
3630000000,-11.49571,92.018181,-66.224953,-121.52325,-65.557831,-126.3501,-27.925093,67.350204
3635000000,-0.94190562,-58.484676,-66.818184,127.85542,-66.617569,134.28508,-19.887583,62.025284
3640000000,-8.4311113,104.35701,-65.242104,23.688869,-65.710594,29.102116,-22.958555,146.88472
3645000000,-4.6242766,-47.28767,-66.645027,-79.411255,-66.852058,-80.90139,-18.383961,12.861165
3650000000,-15.893161,-70.338661,-69.952454,166.32056,-69.926659,159.19312,-18.462608,109.85187
3655000000,-5.8357463,20.026497,-69.684349,72.855453,-71.188423,79.77655,-23.157482,11.037416
3660000000,-2.352869,-92.945213,-68.574135,-52.151516,-67.201225,-57.025169,-21.847086,86.084602
3665000000,-4.7517381,45.268375,-72.589119,-133.20471,-71.85569,-141.33266,-21.629683,74.815361
3670000000,-8.4485283,-77.044609,-66.195953,126.84922,-67.218597,119.59856,-36.936703,122.24906
3675000000,-13.685767,-69.939903,-71.325661,-15.357311,-72.302025,1.0994108,-21.107742,54.14946
3680000000,-5.0188141,5.6407328,-79.435562,34.016666,-81.837906,99.745697,-24.964487,135.35968
3685000000,-5.6276898,-112.86322,-75.019089,133.19864,-74.054131,123.1867,-23.497044,-21.449131
3690000000,-7.4444232,-3.2435577,-84.28347,-95.550041,-85.458427,-76.143723,-19.515982,70.865479
3695000000,-10.325355,-29.094587,-73.38726,-66.497238,-73.528725,-80.81723,-34.441074,-54.953156
3700000000,-10.176856,-143.34428,-78.831512,168.28117,-78.003159,-178.53554,-21.388762,60.83868
3705000000,-0.89738441,-10.228388,-74.760406,119.88306,-76.299088,111.41525,-24.227751,46.506001
3710000000,-5.6255741,-153.62054,-74.622368,123.7321,-76.355339,134.45401,-24.89155,143.10437
3715000000,-5.6902981,-12.693425,-77.823563,-7.4930744,-77.382965,3.9617884,-19.620228,26.212185
3720000000,-5.6248326,-57.775757,-76.988579,-62.528606,-81.568542,-74.319084,-20.553743,151.65881
3725000000,-7.7298789,126.19926,-85.721855,99.009491,-84.943901,153.50497,-22.705324,-4.3508539
3730000000,0.46235016,-43.971764,-97.971786,25.198381,-81.447647,74.365807,-25.784958,86.720116
3735000000,-10.745524,145.48752,-71.586273,41.860069,-70.357468,52.308163,-24.2456,97.693054
3740000000,-7.0559592,-28.250536,-75.299835,-175.03105,-79.675133,-155.62912,-35.925232,-13.814909
3745000000,-3.9428885,-79.853958,-78.641968,168.97522,-79.577469,130.53183,-21.808241,93.874428
3750000000,-5.6675391,62.589218,-87.177933,-8.1554108,-86.894958,-115.80714,-28.236998,169.02463
3755000000,-2.054086,-91.812881,-76.223022,-59.690582,-74.347397,-76.309929,-27.373987,29.553522
3760000000,-7.5570006,17.820642,-76.911575,-143.0712,-76.055374,-144.15244,-21.179417,132.94727
3765000000,-6.4509888,-59.717319,-69.196823,100.98428,-68.390007,111.71748,-26.766577,-49.081844
3770000000,-5.5423989,-120.38876,-76.509529,-19.42337,-76.630196,-29.052999,-21.890318,94.754219
3775000000,-2.8607781,16.158133,-72.55423,-76.768295,-71.911224,-78.303406,-26.798582,74.696594
3780000000,-5.0050836,-107.64537,-89.765404,-153.33061,-77.30928,167.11517,-25.352674,158.68198
3785000000,-10.160461,-29.851845,-72.011444,37.551418,-70.636574,51.116158,-18.550892,59.382984
3790000000,-4.6705008,-31.779245,-68.468582,-65.970894,-69.032867,-63.490562,-17.578291,162.48189
3795000000,-3.1329291,-151.45473,-68.959282,-179.46182,-70.586853,-171.96263,-25.255688,31.14526
3800000000,-1.5041544,-0.3729665,-67.973358,121.4827,-67.122108,120.45342,-19.411697,135.39024
3805000000,-5.3510356,-101.12489,-73.221985,16.951193,-73.31485,20.711294,-48.267189,108.67168
3810000000,-32.251774,71.200592,-68.866127,-60.064068,-71.208961,-58.452854,-22.552019,88.054398
3815000000,0.13876845,-53.330376,-71.428291,165.08308,-71.991867,149.72516,-22.413744,109.04194
3820000000,-3.1197627,144.90382,-75.061401,39.514236,-74.406799,9.9644918,-24.093233,126.17134
3825000000,0.65489274,-39.679897,-67.976616,-56.851295,-68.903168,-57.624886,-20.517094,65.60479
3830000000,-7.7469325,-142.5358,-68.014763,-154.09972,-67.861938,-151.03204,-15.830982,134.12543
3835000000,-10.326885,10.035824,-71.282768,131.11656,-72.67691,126.5293,-41.523407,-10.840077
3840000000,-0.13774556,-84.745186,-67.356056,13.722809,-68.168022,15.239776,-18.23308,107.97141
3845000000,-6.6327901,86.850014,-79.26429,-130.0657,-78.760521,-110.17961,-28.029852,126.97536
3850000000,-0.89851248,-70.854332,-70.885056,118.22406,-71.056427,124.46442,-24.812511,93.33651
3855000000,-8.7015247,-124.92692,-70.42897,31.253017,-70.465019,22.243387,-18.482481,79.785095
3860000000,-7.1580992,14.872022,-67.865318,-57.025089,-69.660362,-57.107914,-22.770639,144.3667
3865000000,-0.48166668,-99.852203,-68.733856,-148.4754,-67.437073,-149.71277,-16.42239,59.708839
3870000000,-9.7243328,26.900881,-66.243896,108.93222,-67.312485,107.09076,-16.904203,140.0173
3875000000,-3.4537001,-81.532822,-71.265724,-0.96808636,-69.841309,-7.243228,-21.777157,58.30434
3880000000,-5.796032,-147.48404,-73.729233,-67.959076,-78.125061,-68.278908,-21.327503,111.69504
3885000000,-1.3233197,1.088012,-68.530441,153.65422,-69.884544,151.75809,-18.986658,91.155029
3890000000,0.86312681,-125.10011,-67.245262,29.998055,-67.70826,29.621233,-44.774792,-164.69054
3895000000,-8.794631,6.0180655,-66.560577,-51.606289,-66.308624,-49.904976,-14.899623,62.04253
3900000000,-2.5345857,-79.189293,-68.386299,-173.11214,-70.218231,-162.17461,-20.179735,133.33037
3905000000,-5.82656,179.59492,-73.0429,104.63216,-70.451714,120.58599,-18.367758,41.604191
3910000000,0.7005378,-26.891026,-69.757065,5.7281694,-68.402802,5.1461868,-16.206261,104.77356
3915000000,-0.72627842,-153.84024,-66.641655,-112.7871,-66.321075,-97.976021,-25.725157,55.870975
3920000000,-5.2690635,-26.480247,-67.198708,150.70378,-69.043343,148.87622,-19.625191,89.723801
3925000000,-2.8611295,-98.80159,-69.761185,47.397671,-70.417931,54.961441,-19.478176,65.556534
3930000000,-8.0863352,116.016,-69.744247,-65.893318,-68.41478,-62.522385,-25.86772,151.86346
3935000000,1.4984488,-72.491806,-67.947289,-148.69283,-68.556046,-140.62366,-14.231003,35.059494
3940000000,-10.718274,143.91679,-74.423775,102.17123,-72.442291,101.92442,-18.342102,130.15369
3945000000,-6.218214,-87.414307,-69.385689,4.2857776,-70.207329,10.072933,-17.187653,25.884104
3950000000,-3.1833711,-93.172379,-75.853485,-111.42843,-72.339676,-117.45072,-17.374113,89.058784
3955000000,-12.679994,90.649551,-72.213051,134.09921,-72.10392,134.99278,-25.67528,90.43721
3960000000,-1.188475,-91.538216,-69.025826,62.697536,-68.23851,69.093605,-19.472343,35.72036
3965000000,-15.027962,-140.97525,-70.798073,-81.018494,-71.830933,-81.069984,-19.252722,93.428864
3970000000,-10.272246,-56.450829,-72.752106,-170.64787,-72.185493,-159.02341,-28.537718,15.812172
3975000000,0.17516541,-126.06249,-67.348694,111.70957,-67.375565,110.90154,-17.592403,34.815002
3980000000,-6.2193437,21.385296,-70.15696,-12.924696,-72.481476,-6.6629539,-18.952631,101.59135
3985000000,-0.81768173,-118.19827,-72.351006,-87.461029,-70.489166,-77.408218,-20.05003,1.9574432
3990000000,-21.390341,-176.80698,-71.650116,169.63173,-70.792908,150.93224,-18.543255,84.088913
3995000000,-2.4775748,-58.765755,-69.427925,43.449726,-69.921471,31.330023,-24.290668,50.277939
4000000000,0.2995007,-169.89594,-71.638489,-31.084898,-72.190102,-47.994053,-31.057613,5.6982703
END

