!CSV A.01.01
!Keysight Technologies,N5247A,US56070710,A.10.64.09
!Date: Sunday, November 20, 2022 21:22:12
!Source: Standard

BEGIN CH1_DATA
Freq(Hz),S33(DB),S33(DEG),S34(DB),S34(DEG),S43(DB),S43(DEG),S44(DB),S44(DEG)
3000000000,-1.8884556,-89.021942,-68.056519,26.05895,-69.057335,3.9362667,-18.04641,-157.34445
3005000000,-8.0357447,-110.15918,-62.931522,-88.106445,-66.732422,-61.019669,-18.373384,-166.33308
3010000000,-3.1364064,-69.772888,-57.256451,-172.3734,-56.666039,-173.01323,-17.066206,-171.80357
3015000000,-3.1941905,-114.57474,-54.81395,96.69912,-57.555901,99.693962,-16.519968,-173.45151
3020000000,-5.7154574,-67.989647,-56.772972,6.9299374,-55.014748,2.8579593,-17.463305,-178.64374
3025000000,-2.5153658,-98.347069,-58.016758,-64.640198,-55.580948,-86.122749,-16.268534,-178.89153
3030000000,-8.7119417,-96.680275,-54.557957,-167.79196,-58.490406,177.61763,-16.603148,178.78247
3035000000,-2.0770226,-77.411865,-58.607647,131.22427,-56.091824,105.0859,-16.603817,176.57332
3040000000,-4.9642882,-126.99187,-62.643936,-2.7475791,-64.934143,29.079176,-16.035641,172.22395
3045000000,-4.3418379,-72.404373,-68.426826,-111.50146,-67.292923,18.591175,-16.568207,162.81033
3050000000,-2.622175,-102.99542,-63.018353,84.968102,-60.99575,59.908237,-15.016994,161.7317
3055000000,-10.793483,-92.649132,-59.809685,-30.079273,-59.162514,-25.857338,-16.023504,160.82433
3060000000,-1.1349831,-86.62603,-57.542988,-124.14675,-57.578571,-90.841827,-16.067293,163.12131
3065000000,-7.9311242,-128.72945,-55.90094,145.03307,-57.698429,149.6801,-15.377319,157.60915
3070000000,-3.6566422,-76.92775,-56.205833,50.59111,-55.718109,76.245987,-16.20052,160.12366
3075000000,-3.1656914,-111.31879,-54.731201,-9.6435442,-54.769646,-11.332859,-15.438105,150.19402
3080000000,-9.8325005,-73.852814,-60.513962,-114.40739,-59.223133,-115.07731,-15.814515,148.42477
3085000000,-0.89007539,-101.61278,-64.014099,-176.29192,-67.361588,-107.52266,-16.061968,146.88867
3090000000,-10.973488,-107.76385,-76.031387,-71.448463,-82.378654,23.906742,-15.711879,140.05367
3095000000,-2.4958594,-84.045448,-63.520473,-132.4368,-61.328674,-170.00963,-15.748227,149.0641
3100000000,-4.3071995,-125.12611,-66.871651,171.7361,-63.752941,103.07455,-15.202193,142.01724
3105000000,-5.9691143,-71.153282,-55.539433,30.73033,-58.234417,25.090464,-16.064619,141.88231
3110000000,-2.1857374,-114.85592,-57.871014,-41.188786,-58.746555,-64.406937,-15.545534,139.83891
3115000000,-8.5436268,-86.276085,-56.873871,-147.51761,-56.302452,-147.29572,-16.641537,130.28427
3120000000,-2.5644631,-93.535942,-57.000607,117.00674,-57.835751,141.50441,-15.815024,133.8559
3125000000,-5.757493,-136.82957,-62.449684,33.794342,-57.337425,55.935642,-16.354216,133.00841
3130000000,-4.1665926,-72.943619,-70.300529,-52.179821,-62.206429,-23.251945,-16.375879,132.36362
3135000000,-3.1070387,-125.94071,-64.452698,-76.934143,-66.135262,-74.991814,-15.201469,130.89162
3140000000,-8.9791231,-90.644295,-65.196442,-4.7109132,-63.730522,-26.699989,-16.509043,129.16467
3145000000,-2.0093129,-98.865997,-62.881203,-103.46075,-59.325203,-64.908073,-15.587829,127.66325
3150000000,-8.7672176,-148.21672,-56.812794,-165.86256,-60.294418,172.56502,-16.839111,131.17937
3155000000,-3.2157187,-84.213303,-61.384052,133.46629,-62.971657,86.739822,-17.447874,125.70443
3160000000,-4.5898032,-131.7816,-61.623295,43.684345,-61.854668,1.9586731,-16.5247,124.10469
3165000000,-8.8327646,-80.729851,-60.271786,-63.85693,-58.642624,-80.519997,-16.434011,125.57019
3170000000,-1.6768408,-113.48528,-60.834831,-178.36577,-64.883072,-170.57626,-16.082111,122.35008
3175000000,-14.80351,-116.6175,-71.594315,115.49068,-61.974434,114.10607,-16.222746,121.62662
3180000000,-2.4278219,-97.582115,-67.756538,-135.52449,-75.365952,-72.671127,-16.591265,129.4413
3185000000,-7.5697188,-140.88956,-59.573544,159.46364,-69.976372,-174.67061,-17.375034,123.49915
3190000000,-6.6868215,-78.793121,-58.542553,78.002632,-60.553886,92.1231,-17.318512,132.34061
3195000000,-2.3192747,-129.26999,-57.876057,-17.059837,-57.947296,-23.217432,-18.213646,118.57301
3200000000,-13.531974,-75.442719,-55.132614,-107.53316,-58.245472,-95.608818,-16.420971,118.80979
3205000000,-2.6225102,-114.43905,-60.437065,-151.83801,-62.334511,159.93912,-16.915199,116.46191
3210000000,-9.7443523,-138.16081,-61.303761,106.10069,-62.032742,94.479622,-17.513605,113.37399
3215000000,-5.0529661,-85.598251,-60.248833,-7.0335097,-67.236839,-13.367774,-15.894264,117.5594
3220000000,-4.5262985,-148.60112,-66.572227,-115.67875,-73.701416,105.68999,-16.780722,123.25049
3225000000,-7.9073043,-78.712074,-71.426826,74.230896,-74.314499,48.177307,-16.526178,122.5366
3230000000,-3.8016188,-124.62946,-62.863403,-56.787354,-64.458374,-63.772427,-16.673107,119.47762
3235000000,-12.001356,-153.56871,-61.676289,-148.56299,-61.254242,-111.54498,-17.020725,120.73396
3240000000,-3.8317022,-88.545349,-60.256866,137.21999,-58.707531,169.52731,-16.39333,113.5725
3245000000,-5.4830489,-167.79359,-57.431236,79.240761,-56.427647,30.130922,-17.357615,122.27249
3250000000,-6.9442506,-77.398048,-71.756058,28.623186,-62.43943,-24.499058,-16.487795,112.92497
3255000000,-3.8199108,-133.40262,-61.206692,-129.60428,-63.404045,-59.676689,-15.995241,114.46543
3260000000,-25.476412,-146.58549,-60.213825,132.08633,-66.534241,135.91241,-15.507698,121.65802
3265000000,-2.3405008,-104.36784,-66.112297,67.881676,-73.57373,-26.970015,-16.156399,112.42119
3270000000,-10.44381,160.41772,-72.562424,-114.01023,-89.451393,-95.036743,-16.0669,119.89968
3275000000,-5.5329528,-84.053627,-65.328583,129.45682,-65.680557,155.97433,-16.331308,110.51791
3280000000,-4.3888659,-148.88362,-63.632572,19.243748,-67.36586,-9.2044401,-16.583231,114.87348
3285000000,-15.914627,-43.261669,-57.96851,-42.448883,-59.036766,-44.173889,-15.18836,112.44866
3290000000,-2.8161945,-125.97384,-70.851807,-132.14963,-64.854996,-147.33418,-16.049047,109.37706
3295000000,-43.871624,-86.936829,-76.830658,53.826385,-65.67807,122.57626,-14.880186,109.5786
3300000000,-5.8271708,-102.45309,-67.619675,18.765148,-64.285034,-10.252324,-14.803453,108.49184
3305000000,-6.6848087,-161.91751,-64.690407,-55.36916,-79.098328,-79.768616,-15.886851,113.62769
3310000000,-9.4820538,-51.356903,-68.366928,48.631405,-80.568878,86.65876,-14.951632,108.38953
3315000000,-4.136559,-151.27164,-67.541931,-43.527107,-71.767693,101.70401,-16.3111,109.45609
3320000000,-21.082405,-49.993839,-63.526188,-51.338375,-59.850281,-100.11086,-14.763545,105.3579
3325000000,-5.1672168,-102.87074,-61.018726,-151.71265,-64.053368,-149.58864,-15.207912,96.591988
3330000000,-8.2862234,167.02661,-70.683525,104.85099,-59.935574,94.07209,-14.677803,106.30571
3335000000,-6.2062049,-63.941868,-64.310234,66.411507,-68.99704,70.717369,-14.84366,94.863419
3340000000,-6.0869007,-167.09875,-72.303749,-28.275269,-65.600372,3.0130723,-14.645614,104.41544
3345000000,-17.03895,-24.167011,-60.417892,-158.68907,-63.73159,-144.25049,-15.664508,100.4952
3350000000,-4.9224725,-113.44041,-66.136429,-117.73252,-74.968246,-59.575977,-15.135562,93.350815
3355000000,-10.976812,115.03934,-65.285347,-155.10999,-68.514229,-152.4922,-14.760051,100.20664
3360000000,-4.4130354,-89.811882,-61.640594,150.88277,-62.874081,122.16158,-16.023754,84.482697
3365000000,-9.9047022,166.74615,-73.955032,96.532333,-75.603378,44.930176,-14.720109,86.580505
3370000000,-11.371834,-28.934904,-60.557156,-4.7182012,-67.77092,6.8742304,-14.134317,89.430328
3375000000,-5.2770996,-134.14809,-59.480511,-110.76667,-66.262665,-103.67682,-15.684508,89.476639
3380000000,-14.326554,40.369019,-68.800125,31.598721,-75.053719,106.00499,-14.630635,89.995369
3385000000,-5.6946831,-112.19769,-65.040985,-152.83591,-63.978161,-130.71481,-15.964409,86.937958
3390000000,-15.721598,154.87294,-68.316544,166.80934,-69.02668,85.511452,-14.825356,78.455971
3395000000,-9.7717543,-47.911541,-60.513626,83.137009,-64.258797,115.21308,-15.103462,83.336487
3400000000,-7.0685372,-147.68025,-60.494007,42.355499,-64.633446,68.399574,-16.94792,79.769302
3405000000,-11.212349,-10.942705,-59.555767,-53.781609,-72.965599,-60.954994,-14.918567,72.083199
3410000000,-7.8383946,-123.06149,-74.897903,-154.20947,-60.538815,-151.6165,-15.69551,80.244629
3415000000,-23.623135,94.812439,-60.824089,107.41795,-66.040009,88.347122,-15.922933,76.267639
3420000000,-7.1287775,-61.374611,-70.74028,41.835197,-96.696144,112.8175,-15.371368,74.765099
3425000000,-8.4296932,170.56963,-70.328049,70.222488,-74.558296,150.68823,-16.51219,78.350197
3430000000,-7.067297,-32.7425,-60.365547,34.607891,-62.241085,38.773811,-17.339445,67.561272
3435000000,-7.9902248,-132.49658,-63.93671,-80.569839,-58.188503,-67.097229,-16.843037,75.520416
3440000000,-14.192142,48.048027,-65.436203,-165.41566,-62.184288,-122.29173,-17.938881,63.303684
3445000000,-5.3049769,-81.181007,-63.287304,118.94202,-60.425598,158.11324,-16.330631,64.835114
3450000000,-11.256372,106.66681,-66.136833,56.187309,-73.809601,25.779018,-16.281248,74.1978
3455000000,-5.8316655,-58.002159,-72.823402,-173.40091,-68.399605,162.85362,-18.582073,66.141327
3460000000,-11.254147,-157.29405,-66.92543,66.455765,-64.514816,14.94498,-16.563807,64.763145
3465000000,-8.8701286,8.3139887,-59.784412,-30.123911,-62.246494,-9.3187332,-18.845728,77.000664
3470000000,-4.8342109,-108.32278,-67.599213,-114.72687,-60.123711,-137.33427,-19.255857,69.129219
3475000000,-9.5431032,51.08725,-60.072899,166.97414,-61.655949,131.29564,-18.744169,66.012787
3480000000,-5.7609439,-67.30735,-55.803936,91.238586,-58.248398,98.282913,-20.135546,67.983154
3485000000,-14.434413,-155.73822,-68.378448,7.7075295,-61.679157,10.341724,-17.794943,58.670841
3490000000,-8.0037842,-8.1670876,-67.89975,-24.375397,-69.456627,-69.036522,-19.567181,70.445374
3495000000,-7.7847733,-126.23416,-67.370323,-92.788673,-66.75872,-40.008018,-19.480534,63.232582
3500000000,-9.8746958,4.3548803,-62.211514,-51.445465,-63.514988,-66.778137,-18.946533,67.388023
3505000000,-7.7769575,-75.651321,-60.306465,-169.49927,-58.586121,174.91798,-18.695904,88.447113
3510000000,-16.75938,-172.73718,-59.770016,119.99522,-57.915043,116.02637,-21.535837,69.692657
3515000000,-5.2447405,-31.134895,-59.535873,26.897079,-60.240059,48.682667,-21.02755,73.431808
3520000000,-9.1569557,-154.86412,-60.611267,-74.313629,-59.314953,-46.751179,-19.750191,69.570366
3525000000,-7.6488638,-11.541878,-61.653847,-130.02477,-58.059258,-141.39331,-21.616362,65.648918
3530000000,-5.7106061,-90.83886,-65.812927,178.29893,-69.335052,-173.08797,-18.461706,78.291039
3535000000,-12.782529,76.541161,-62.642803,153.6015,-62.073673,142.25529,-20.860523,81.289467
3540000000,-3.4246018,-63.302883,-64.762115,80.325729,-58.819374,114.97549,-19.124947,84.625603
3545000000,-15.052609,146.00629,-61.418854,27.369158,-57.014835,42.579376,-19.661537,81.398056
3550000000,-6.3492436,-31.123867,-61.94194,5.9865913,-57.515438,-12.235934,-21.836864,88.970932
3555000000,-7.5899482,-114.84106,-57.249569,-92.106651,-59.483917,-81.234138,-19.754551,75.555298
3560000000,-8.9891472,17.600046,-60.266953,177.63184,-57.644741,-160.44579,-21.220169,83.489471
3565000000,-4.1099644,-85.986191,-59.534641,110.31623,-58.178169,117.72663,-20.975281,88.71032
3570000000,-18.827192,52.37994,-58.600395,51.051945,-57.385441,51.626957,-19.217575,65.174988
3575000000,-6.7466612,-41.931301,-58.361645,5.4717045,-62.296513,-6.0374255,-18.185919,93.405754
3580000000,-9.3455391,-121.31358,-60.681507,-74.84462,-61.262779,-65.352303,-20.105394,73.73658
3585000000,-6.25207,-6.4630189,-60.596718,-80.250328,-55.53167,-93.498802,-19.601547,89.349594
3590000000,-5.857697,-104.5288,-58.182266,-171.47311,-57.113289,-179.77969,-20.409746,84.97364
3595000000,-15.40276,1.4431216,-57.157017,141.06223,-55.41127,133.59146,-20.371483,71.798935
3600000000,-5.3645558,-46.795898,-53.846478,58.388561,-58.547974,62.221684,-18.697863,90.154854
3605000000,-11.837852,-147.28607,-58.346573,1.6958666,-57.815235,-10.663502,-20.202267,71.321434
3610000000,-4.5671449,-24.290983,-56.730999,-61.25584,-58.256775,-109.63532,-19.041981,71.632843
3615000000,-7.8126955,-119.07002,-59.22007,-149.43704,-58.247929,-142.35556,-17.995417,80.777679
3620000000,-11.53032,2.7424438,-59.05582,119.62937,-61.463898,141.72783,-21.365974,80.009056
3625000000,-3.478898,-69.45639,-65.130714,81.214821,-67.069809,111.53757,-17.920748,81.229019
3630000000,-12.480989,118.09281,-61.900043,43.649864,-61.459068,42.316002,-21.324812,82.856087
3635000000,-2.8569798,-49.857052,-57.578758,1.9318225,-56.985119,-4.1300364,-19.357155,73.395325
3640000000,-12.519873,-130.5621,-55.61372,-88.308273,-58.027657,-79.979668,-19.159721,75.139442
3645000000,-8.0384092,-13.719945,-59.638073,-155.26477,-56.99873,-148.26965,-21.753101,75.449715
3650000000,-4.7899971,-91.48674,-56.999744,142.18625,-59.000069,140.21307,-20.022789,60.03619
3655000000,-9.7995777,32.665604,-60.230846,98.75486,-56.901279,44.9865,-19.1607,70.563911
3660000000,-3.729933,-65.611008,-56.245216,0.93190366,-58.930286,3.7614338,-19.97204,76.380333
3665000000,-21.124554,-116.02734,-61.520016,-52.581367,-69.279617,-59.87994,-19.658831,65.177849
3670000000,-7.2925382,-22.243168,-64.836426,-100.03687,-59.706467,-71.351257,-19.452848,79.131508
3675000000,-6.4885917,-106.59509,-58.996281,-167.52699,-57.574318,-146.29472,-21.278555,63.155701
3680000000,-8.1884327,-0.80173188,-57.890697,130.47876,-57.122852,123.79341,-20.564505,74.570137
3685000000,-5.2220192,-74.502861,-55.824005,65.969101,-60.272228,63.697281,-23.248734,71.321754
3690000000,-25.846638,-83.781113,-56.501926,2.3994939,-56.207245,1.1108364,-21.099646,58.005177
3695000000,-4.0311141,-29.432644,-56.880032,-75.120903,-59.03093,-70.973099,-18.933832,67.726891
3700000000,-7.3760071,-135.42958,-58.103695,-123.61082,-56.754269,-123.45582,-22.630558,76.432922
3705000000,-5.2862496,-12.509954,-58.19611,161.92461,-57.498341,175.07803,-20.171413,59.935928
3710000000,-6.2233272,-86.186172,-58.396206,111.17442,-57.983288,115.76814,-21.687735,76.275658
3715000000,-16.746384,12.349196,-61.087845,63.647099,-61.389881,79.996521,-21.773407,80.417343
3720000000,-2.4977231,-53.861107,-57.319714,-2.7940843,-60.941097,-7.6175733,-22.907055,77.361366
3725000000,-13.044941,157.76375,-59.169319,-32.458637,-56.345753,-40.056934,-23.537453,80.130981
3730000000,-3.6213217,-34.218933,-55.385674,-123.97217,-57.918663,-110.67802,-21.851606,58.77634
3735000000,-7.5940628,-103.19672,-57.431492,178.56531,-61.110821,177.1907,-21.056942,77.623474
3740000000,-8.3476791,12.809443,-53.837616,108.27415,-57.694962,113.17287,-22.440628,92.880928
3745000000,-2.2054603,-77.377304,-64.716827,28.651152,-64.307816,51.829136,-25.274422,68.298767
3750000000,-12.516523,55.432358,-59.218201,-36.881413,-57.571182,-25.66338,-20.474415,92.393715
3755000000,-4.543344,-49.198647,-64.991333,-70.295425,-63.040028,-95.1763,-23.509882,85.345497
3760000000,-9.0939074,-99.080658,-56.903973,-130.47153,-59.356956,-134.59773,-23.124498,94.129799
3765000000,-5.9703555,-1.2977594,-58.820011,153.24295,-59.210659,166.59125,-21.796984,76.340927
3770000000,-3.6466925,-88.834175,-59.085041,113.03753,-63.98822,116.40657,-25.277334,85.981247
3775000000,-10.831516,5.9312925,-57.206558,39.784061,-59.48534,20.461973,-19.719749,83.553886
3780000000,-4.7267084,-46.207077,-58.265705,-23.67972,-56.95644,-27.417017,-22.549025,102.05635
3785000000,-10.988925,-113.37839,-56.817673,-91.772827,-60.613411,-85.507538,-20.770695,91.672356
3790000000,-3.3603027,-15.88569,-56.848244,175.98294,-58.717438,-176.21019,-19.269062,89.987373
3795000000,-5.1829562,-103.76968,-60.603363,128.98776,-60.926311,174.95711,-20.883703,116.81583
3800000000,-7.6877685,-4.0025506,-59.946705,36.099606,-60.499809,14.000127,-21.856213,90.203217
3805000000,-2.8647497,-60.505096,-67.646507,39.89513,-58.930359,46.110405,-22.449268,92.832047
3810000000,-17.127327,136.39308,-61.75378,-53.116497,-65.421944,-14.88571,-19.04793,99.693329
3815000000,-0.65250558,-41.497036,-62.758247,-92.940926,-60.653034,-81.435883,-21.250311,87.826889
3820000000,-9.8810272,-144.21835,-57.575447,-175.68541,-55.812733,-169.46533,-18.541721,100.5051
3825000000,-4.2260404,-19.911346,-57.852646,119.62642,-56.016342,133.94388,-19.11298,85.371826
3830000000,-3.198436,-80.207603,-58.58569,32.95137,-57.009117,82.027512,-18.110363,105.327
3835000000,-10.845454,34.14624,-55.62014,-6.9489141,-57.522457,5.8076282,-18.893311,109.25755
3840000000,-1.2252749,-59.69278,-60.987381,-77.997826,-61.413811,-82.815468,-23.434467,98.33725
3845000000,-25.154158,-93.884636,-68.640686,-103.5587,-62.064209,-113.4031,-17.793688,92.477142
3850000000,-3.8068321,-28.40521,-62.28299,-168.47002,-60.190235,165.32271,-19.851318,92.817307
3855000000,-3.8197093,-96.201271,-62.399334,-178.14201,-62.175758,122.07869,-19.095238,85.001915
3860000000,-6.018219,5.2620564,-61.737843,27.748764,-62.533691,35.826,-17.444542,80.57991
3865000000,-2.4103928,-70.933853,-57.941528,-13.969477,-56.51989,-18.32649,-17.937494,92.186493
3870000000,-14.948564,-42.486328,-56.708569,-66.567253,-54.377331,-82.592278,-17.072886,91.579689
3875000000,-2.6217601,-32.713242,-56.259388,-131.61533,-59.690094,-141.13583,-18.216808,92.61277
3880000000,-4.6812773,-112.41508,-60.015099,150.38754,-58.538414,144.82681,-18.397287,95.071838
3885000000,-3.4944413,-9.4199696,-57.148155,53.877537,-60.84116,97.423897,-17.360779,77.361923
3890000000,-2.757724,-80.441414,-62.132721,79.801712,-62.616123,28.424271,-18.78334,95.837128
3895000000,-12.804782,-20.734894,-64.727524,-23.429379,-63.079769,-19.790268,-18.039989,63.954475
3900000000,-0.39676768,-49.087872,-59.833721,-48.905525,-64.132423,-73.711601,-16.435247,84.432137
3905000000,-9.2242641,-147.77687,-60.369671,-154.17735,-64.238342,-149.54378,-17.754269,82.41256
3910000000,-1.1523573,-28.257528,-63.432373,162.39084,-59.188522,130.48544,-17.329821,78.415009
3915000000,-3.83129,-93.715767,-55.881054,70.879868,-59.356712,85.89489,-16.882853,80.624977
3920000000,-7.1881528,-10.762414,-61.415661,26.446466,-61.186565,9.2615232,-17.831291,77.611183
3925000000,-0.55574799,-67.784767,-60.204617,-19.59433,-61.119461,-43.522804,-17.667017,72.987473
3930000000,-23.202576,67.3283,-61.42205,-138.0508,-65.552223,-147.00531,-18.347218,77.942749
3935000000,-1.2183425,-48.73719,-61.024963,-152.60544,-64.242516,-153.16522,-18.481762,66.523811
3940000000,-6.051342,-92.010773,-67.283279,-171.09131,-67.450287,179.4536,-16.091908,68.647545
3945000000,-6.5871987,-14.531097,-59.156944,110.92506,-60.548328,97.664749,-17.845217,73.323669
3950000000,-0.49023154,-80.611046,-61.959488,-25.108051,-66.304245,48.228275,-16.620432,67.781822
3955000000,-10.980602,5.06634,-61.968349,-61.772827,-72.718483,-94.889885,-18.666534,73.041382
3960000000,-1.4095801,-56.108456,-61.675667,-107.22405,-61.288376,-100.57146,-17.6196,67.819801
3965000000,-7.2490764,-107.77232,-59.267319,169.78317,-62.787109,-165.53308,-19.106262,68.527054
3970000000,-2.4910932,-18.970652,-61.596634,100.93766,-70.969032,177.38101,-18.193979,67.488853
3975000000,-1.1252924,-100.04233,-56.981758,62.049461,-57.92123,61.853195,-17.862923,60.535805
3980000000,-6.0053606,-9.6776438,-60.935223,-11.819072,-56.321392,-23.759472,-18.763271,59.192284
3985000000,-0.76108694,-64.422028,-60.955147,-84.799431,-66.533318,-33.542847,-17.110107,62.676044
3990000000,-11.443117,-130.9442,-68.914749,-122.11712,-70.699356,140.22328,-19.753992,58.928696
3995000000,-0.12579711,-38.715668,-65.094246,169.56564,-64.659286,179.69386,-18.162035,68.330925
4000000000,-4.1433787,-118.47081,-60.621349,141.4008,-66.687347,115.77039,-20.002104,58.41272
END

