!CSV A.01.01
!Keysight Technologies,N5247A,US56070710,A.10.64.09
!Date: Saturday, November 19, 2022 20:49:51
!Source: Standard

BEGIN CH1_DATA
Freq(Hz),S33(DB),S33(DEG),S34(DB),S34(DEG),S43(DB),S43(DEG),S44(DB),S44(DEG)
3000000000,1.7606558,-136.26718,-60.819141,136.0255,-60.967285,131.0612,-16.742952,-124.27424
3005000000,0.70732653,83.174217,-66.028221,27.966574,-65.131546,24.451317,-16.078062,-133.90852
3010000000,0.54750162,-75.087029,-71.79837,-91.137733,-69.758957,-100.30074,-15.776353,-146.72485
3015000000,1.7413146,147.56754,-65.958145,94.938309,-66.326332,96.883064,-14.474652,-135.63695
3020000000,-0.62454021,-12.505418,-64.571281,-9.2141485,-64.426888,-17.853617,-17.550085,-157.72534
3025000000,1.8309672,-164.69537,-60.569244,-117.26663,-60.47628,-118.17033,-13.630788,-144.42822
3030000000,-0.027037494,56.989231,-58.501526,145.05392,-58.501522,144.93678,-18.236633,-151.9574
3035000000,1.2008591,-100.89978,-57.793823,49.532204,-57.914997,51.485168,-13.909912,-151.41309
3040000000,1.9093994,119.74204,-56.76017,-44.292324,-57.020962,-45.108917,-15.767724,-156.82014
3045000000,-0.16217649,-43.296947,-55.768112,-136.57663,-55.914547,-139.13225,-15.11951,-155.40169
3050000000,2.3075607,174.22903,-54.273731,123.86169,-54.338268,124.54283,-15.07551,-173.88127
3055000000,-0.10074507,32.283169,-55.03186,30.841915,-55.397446,29.026608,-14.545712,-153.37572
3060000000,1.9968718,-128.69443,-54.478256,-64.50898,-54.774757,-64.314735,-16.912313,-176.30167
3065000000,1.631561,87.908089,-54.813156,-162.01793,-54.822906,-163.14455,-13.902557,-161.14343
3070000000,0.52349764,-78.250519,-55.576241,107.55732,-55.763718,107.18566,-17.527256,-170.93214
3075000000,2.4148664,143.85327,-56.167252,8.0080013,-55.729488,8.5573654,-14.279826,-175.50729
3080000000,-0.54492241,-1.0637782,-57.78656,-72.559425,-58.242241,-73.293564,-15.988327,179.45477
3085000000,2.5442681,-161.49892,-59.100101,179.07892,-59.235291,176.35805,-16.306978,-174.68117
3090000000,0.82502711,56.118683,-61.596756,88.69944,-61.555935,86.610146,-15.422115,167.03987
3095000000,1.0496528,-109.21033,-65.252518,-8.2203588,-66.06089,-13.051989,-15.616207,-165.25822
3100000000,2.1838586,119.58611,-68.691383,-149.42184,-70.990273,-153.62314,-16.200457,164.06306
3105000000,-0.74576116,-35.590168,-72.429184,53.936203,-70.709541,51.053452,-15.193988,-175.58435
3110000000,2.4089077,168.98929,-67.870338,-85.804543,-67.421082,-91.801414,-16.587404,167.82825
3115000000,-0.39101642,27.92185,-63.761822,-177.40691,-63.781544,-178.51103,-16.991032,168.98007
3120000000,1.2020551,-134.5706,-60.352879,79.926826,-60.579536,82.057091,-16.403807,165.5132
3125000000,1.7187536,97.544411,-57.664673,-13.780634,-58.294895,-11.666118,-17.883032,179.61432
3130000000,-0.21712603,-65.536484,-57.784935,-103.90924,-58.113277,-107.60802,-16.64554,155.82831
3135000000,2.8032568,142.81648,-55.756744,155.60948,-55.433243,154.293,-15.914969,-179.97014
3140000000,-0.49800044,1.0008191,-56.034939,66.866852,-56.457317,65.841316,-17.977011,148.36388
3145000000,2.0422533,-159.39197,-55.970966,-33.969685,-55.717251,-33.573219,-15.903581,166.11436
3150000000,1.3083655,68.490143,-56.008625,-117.55623,-56.667282,-119.16019,-18.178999,159.98044
3155000000,0.31969067,-103.42645,-56.277935,147.04692,-56.85891,146.04054,-19.288794,163.67015
3160000000,2.5186334,114.86686,-56.773956,45.825432,-57.049873,44.210419,-16.206659,158.48825
3165000000,-0.77842087,-31.568541,-57.530659,-42.99398,-57.619835,-42.598835,-19.027275,175.1344
3170000000,2.5612066,171.02586,-58.414783,-137.20862,-58.94212,-134.42123,-16.298607,145.67207
3175000000,0.65799326,37.383167,-59.925804,124.37536,-60.312988,122.15925,-17.0158,172.59775
3180000000,1.0398117,-135.36694,-62.657887,33.60984,-62.985207,32.943634,-19.484333,146.06287
3185000000,2.3587921,88.234131,-67.017685,-77.919693,-67.189644,-81.544449,-17.717926,163.17986
3190000000,-0.98570544,-64.29464,-73.458824,-97.181358,-72.968651,-102.04671,-18.819687,163.52435
3195000000,2.5313191,145.95992,-77.798409,3.309598,-76.175735,-20.380064,-20.182074,164.00279
3200000000,-0.56875205,9.4729214,-71.920944,-156.08427,-72.206734,-173.07817,-16.022131,148.81323
3205000000,1.1927822,-168.73978,-65.437012,98.130646,-65.513206,94.573082,-20.358929,174.71103
3210000000,2.2255118,64.054123,-63.581867,24.218096,-63.823425,17.053427,-16.900425,133.59271
3215000000,0.36581346,-96.084549,-60.755871,-77.203239,-60.927818,-68.106796,-17.893764,169.1557
3220000000,3.5850124,118.54932,-59.642307,-169.54892,-59.95348,-168.02013,-18.044687,150.20468
3225000000,0.59284568,-24.463093,-59.212048,101.84934,-59.716194,101.07896,-18.328903,163.62015
3230000000,3.0095358,170.24382,-59.416698,7.8537478,-58.767345,6.0129561,-16.843157,153.93835
3235000000,2.2900734,43.725735,-58.736538,-82.372353,-58.700417,-83.364998,-20.134588,167.77269
3240000000,1.1688864,-120.88683,-58.530693,-168.97743,-58.789356,-169.81264,-16.4674,137.28957
3245000000,3.4957387,94.524887,-57.86607,97.59642,-58.355003,94.229843,-18.462099,177.69156
3250000000,0.74379194,-58.155052,-59.769997,7.303915,-59.681595,6.0458813,-18.243404,134.57645
3255000000,3.6393154,139.58784,-60.365108,-81.747681,-59.830853,-81.783455,-18.176472,162.11058
3260000000,1.6208186,11.493406,-60.370907,-166.81462,-60.840744,-167.89909,-16.795549,144.24377
3265000000,2.2662258,-159.2561,-60.677792,103.87278,-60.776649,101.86122,-18.893759,150.95804
3270000000,3.3855519,63.419632,-63.016762,17.446058,-62.728252,13.321606,-15.914223,145.4071
3275000000,0.90426409,-95.464302,-63.777756,-67.031883,-63.603306,-64.603485,-20.259888,153.12965
3280000000,3.6326015,115.61991,-62.986828,-164.92288,-62.880104,-159.98026,-15.999827,138.87497
3285000000,1.2729994,-14.219792,-65.892555,118.0924,-65.339943,113.42856,-17.473404,162.30006
3290000000,2.702028,171.6351,-67.981644,51.88253,-68.193062,52.784618,-17.54784,134.03548
3295000000,2.8134775,37.521862,-74.621468,-15.702028,-73.499199,-15.422643,-16.078669,147.23004
3300000000,0.40961739,-127.04198,-70.764732,-65.048325,-68.393936,-68.850288,-16.929432,144.64685
3305000000,3.2548287,92.437889,-67.206642,-132.11172,-67.084053,-134.87184,-19.715403,137.5867
3310000000,0.51963615,-47.38942,-64.895164,146.4879,-65.165794,151.54054,-14.939692,137.49896
3315000000,3.3892767,141.62552,-62.663361,64.023033,-62.202255,60.719025,-21.303581,153.58784
3320000000,2.8531456,11.736732,-62.263763,-24.902094,-61.871738,-19.684225,-14.915066,127.11218
3325000000,1.6134232,-156.10666,-59.346119,-111.1646,-59.447071,-114.15793,-18.200529,140.10446
3330000000,4.0323305,69.771957,-58.385799,153.54672,-58.569626,156.80655,-15.982485,128.45007
3335000000,1.0934802,-82.232483,-57.061291,69.051292,-57.64949,71.074966,-17.56951,123.54136
3340000000,4.0544858,112.9642,-55.767864,-25.927361,-55.431126,-29.257389,-15.940176,135.29546
3345000000,1.9622753,-20.195307,-55.084953,-122.13988,-54.620117,-122.87115,-19.508801,121.39874
3350000000,2.3877678,170.77957,-54.519592,140.42033,-54.61018,140.1593,-14.664105,126.57729
3355000000,3.6188991,36.937992,-54.412052,44.010708,-54.995003,42.805138,-20.321775,138.43909
3360000000,1.2582029,-125.48764,-54.134228,-51.354958,-54.596478,-51.863476,-15.157668,107.91669
3365000000,4.1529164,82.745544,-56.0392,-155.15895,-55.878574,-156.86247,-18.690809,127.21241
3370000000,1.0431156,-50.47702,-56.4394,100.39611,-56.953213,100.10796,-16.69109,109.99941
3375000000,2.6057453,138.03271,-59.47517,-10.804435,-59.185318,-12.268629,-18.838791,109.11382
3380000000,2.6601591,11.257893,-60.41222,-118.34821,-61.25367,-117.23708,-16.093513,121.2209
3385000000,1.1947725,-159.4987,-61.156792,112.96185,-60.94577,108.77335,-20.555603,96.872742
3390000000,3.7826009,59.952438,-60.302059,-17.639877,-61.281338,-12.858444,-15.422105,108.12024
3395000000,0.51619601,-78.705452,-58.396679,-132.11461,-59.128746,-129.44028,-20.404173,104.31896
3400000000,3.0024052,114.79285,-57.162941,118.12642,-57.497528,121.53222,-16.899529,96.724251
3405000000,2.3955863,-18.037611,-55.650902,18.595816,-55.565807,17.374485,-19.463018,104.20992
3410000000,1.7954071,168.99831,-54.555542,-83.846985,-54.692852,-84.413155,-18.201719,101.73573
3415000000,3.7343402,34.722153,-53.719486,175.4503,-53.682835,174.78358,-19.470448,89.254837
3420000000,0.78735435,-113.66528,-52.742695,74.159462,-52.650688,77.595886,-16.558683,111.0339
3425000000,3.8491397,87.078918,-52.605747,-21.189886,-53.008205,-21.785688,-24.116022,65.611313
3430000000,2.3480737,-47.475578,-53.328365,-118.65776,-53.087193,-119.66879,-16.839512,97.013641
3435000000,2.7655456,140.229,-53.49398,141.76431,-53.694069,140.14716,-24.805229,83.431046
3440000000,3.4656656,10.498949,-54.85627,44.234615,-54.46323,43.07972,-20.231815,86.940506
3445000000,0.57974601,-148.91135,-55.17308,-52.868092,-55.048412,-53.19709,-19.866819,75.176056
3450000000,3.7146542,59.210823,-56.268147,-159.97247,-56.792885,-162.54904,-20.203533,109.38962
3455000000,1.3051492,-82.46209,-58.19109,96.048729,-57.7276,96.438721,-21.112768,52.569073
3460000000,3.0201511,108.31212,-59.209053,-16.878246,-59.026501,-17.910225,-18.278177,103.69753
3465000000,2.7336853,-17.124598,-61.988914,-128.64505,-62.062366,-125.13223,-30.068964,29.611439
3470000000,1.148945,176.64291,-61.859528,107.74934,-61.901691,108.41365,-18.372509,87.494049
3475000000,3.6434891,34.222805,-60.669754,-9.8928442,-61.419643,-11.991097,-28.922789,100.73877
3480000000,0.37261438,-111.93762,-58.249077,-127.96268,-58.353813,-130.35974,-23.514225,93.370499
3485000000,2.9698219,83.098419,-57.386459,127.82002,-57.340214,127.9472,-22.638996,60.457298
3490000000,1.8753692,-41.667564,-55.060539,28.447649,-55.302208,31.958555,-22.629009,124.81087
3495000000,1.6549553,146.13531,-54.214027,-72.036011,-54.449562,-71.112457,-23.072897,23.949463
3500000000,3.4825993,10.228473,-54.029156,-169.92004,-54.383141,-169.16644,-19.988867,114.5675
3505000000,0.70654547,-144.38225,-53.608734,90.775002,-53.623741,91.493462,-39.722778,40.015774
3510000000,3.5160322,61.205994,-53.802517,-8.4695549,-53.871288,-8.5219793,-22.56559,87.423149
3515000000,1.8754689,-69.149948,-53.12154,-107.393,-53.579662,-106.1442,-28.91474,100.32235
3520000000,2.563915,116.39641,-54.286118,151.73703,-54.368511,150.23537,-25.420309,99.142982
3525000000,3.1140482,-16.0674,-54.759945,50.687489,-54.956749,51.120888,-26.026525,51.375259
3530000000,0.39348778,179.48206,-55.392525,-52.282536,-55.405571,-52.278568,-20.32868,128.51221
3535000000,3.3735657,33.450878,-56.778938,-154.96147,-56.788773,-155.81525,-33.048859,-13.695011
3540000000,0.90772462,-108.30128,-57.744747,100.16671,-58.200321,99.257355,-19.276073,115.65736
3545000000,2.9203947,81.703148,-59.573616,-18.030964,-59.771667,-21.286358,-43.861515,167.17947
3550000000,2.1268551,-45.520264,-59.683556,-141.82205,-60.438057,-140.17624,-24.141491,109.04821
3555000000,0.89529896,142.86116,-58.306435,96.757202,-57.557526,95.129341,-27.070183,93.923248
3560000000,3.0935469,10.483569,-56.609402,-17.943127,-57.135777,-16.2507,-25.515186,143.69388
3565000000,0.43262243,-139.76003,-54.879105,-117.62032,-54.509686,-117.62309,-27.78529,54.358078
3570000000,2.7975833,59.137508,-54.312954,136.89449,-54.33952,134.21783,-20.18294,122.85571
3575000000,1.392746,-71.001785,-53.092937,32.006729,-53.152122,32.972485,-36.043129,81.171951
3580000000,1.4414474,117.57107,-53.095444,-67.320557,-53.032742,-68.315331,-20.271696,107.39982
3585000000,3.3265474,-12.772223,-52.418892,-170.61493,-52.549118,-170.08623,-31.064665,132.87445
3590000000,0.94561011,-172.06831,-52.380371,84.986153,-52.616547,83.159348,-24.220072,115.49892
3595000000,3.3808868,37.74625,-52.931568,-17.898851,-52.866611,-17.109337,-23.367134,84.992805
3600000000,1.0941579,-96.948151,-53.511597,-122.17197,-53.405529,-121.45209,-20.578125,157.65369
3605000000,2.4900405,92.291,-54.440979,133.41412,-54.655872,134.43178,-23.450222,40.305779
3610000000,3.0364785,-40.118298,-55.875145,28.261303,-56.213486,28.993567,-19.538498,124.40027
3615000000,1.5220309,149.73209,-57.807888,-81.195908,-57.852001,-81.8339,-32.171051,84.185478
3620000000,3.5032713,10.406739,-59.027924,154.18481,-58.589619,154.52368,-24.205694,104.32952
3625000000,0.90304601,-133.09937,-58.762371,36.021526,-58.983353,35.50835,-25.12385,105.97208
3630000000,3.0330615,65.230209,-56.940277,-74.709511,-57.636127,-74.890274,-27.327164,119.46489
3635000000,2.1688902,-69.988846,-56.540863,171.59409,-56.521587,170.34563,-22.705229,66.917946
3640000000,1.2778771,118.18603,-55.427612,67.697372,-55.370022,67.980446,-20.708195,137.23682
3645000000,2.8629887,-16.900061,-55.186028,-36.072262,-54.884689,-35.97237,-22.965693,12.072089
3650000000,0.34828424,-170.6727,-54.420944,-138.16734,-54.388947,-138.30756,-18.595869,114.9523
3655000000,3.4781263,35.212399,-54.501698,120.45961,-54.240791,119.83336,-35.557652,39.530651
3660000000,1.4931397,-97.067528,-53.680504,19.604477,-53.76231,21.495718,-23.562737,109.14571
3665000000,1.9746155,90.294739,-54.236454,-80.572784,-54.261448,-81.922821,-24.114824,77.817451
3670000000,2.5086074,-35.65255,-54.259922,177.48346,-54.763264,-179.49615,-27.022699,155.01567
3675000000,0.37812704,159.89758,-54.475464,80.213478,-54.673721,80.838402,-22.184206,45.209343
3680000000,3.5712194,13.892479,-56.528633,-22.145975,-56.445229,-21.143591,-22.441204,145.46844
3685000000,1.0362607,-130.04773,-56.817326,-119.02681,-57.161648,-118.00661,-25.67873,-8.8845348
3690000000,3.0523772,63.563366,-59.78558,132.72791,-59.947395,132.31764,-21.305119,105.86534
3695000000,2.438961,-61.608307,-60.032669,21.693056,-60.27832,20.935312,-44.603222,31.972446
3700000000,1.3573486,128.08629,-61.417263,-98.710991,-61.279499,-98.158401,-29.560726,95.388306
3705000000,3.4196658,-10.780232,-61.689423,144.94853,-61.183975,138.65207,-23.570875,50.534042
3710000000,0.46800354,-166.53694,-59.72253,36.220417,-59.703094,34.275848,-23.015022,165.70833
3715000000,3.2894542,35.243168,-59.312469,-70.527382,-58.633606,-71.976311,-23.219364,17.192106
3720000000,1.5993698,-92.469612,-57.503582,-177.63332,-58.011978,-175.77425,-21.268074,150.13684
3725000000,2.0310507,93.748337,-56.711819,82.078789,-56.898663,78.804825,-28.846788,-10.737434
3730000000,3.0938857,-36.259243,-56.436028,-21.182697,-56.376534,-23.639338,-25.254936,113.65524
3735000000,0.11942536,159.36102,-55.748413,-123.81657,-55.865337,-126.29781,-33.892113,116.73974
3740000000,3.1372163,15.09411,-55.16243,139.45206,-55.320946,138.87141,-30.626919,-168.37592
3745000000,0.7130841,-118.65992,-54.804924,39.607609,-54.572823,39.7551,-28.509291,50.632854
3750000000,2.1458542,65.555183,-55.031906,-57.540634,-55.376137,-57.286251,-21.682499,173.40068
3755000000,2.2458563,-62.634106,-56.011463,-153.97858,-55.648994,-154.55711,-26.316816,-3.109925
3760000000,-0.12854798,126.21712,-56.252434,103.65511,-56.382652,106.99316,-20.829756,147.4075
3765000000,3.24439,-8.7619534,-57.574703,0.99918628,-57.657616,1.5736147,-31.488493,-42.265385
3770000000,0.040790986,-153.38206,-59.225094,-95.893486,-59.081127,-100.84133,-26.266718,140.48817
3775000000,2.9189003,38.06525,-60.318245,152.8277,-60.049274,152.32544,-29.074997,113.07339
3780000000,2.0246727,-86.572296,-62.202229,42.956573,-62.038582,41.508446,-23.393583,-171.78664
3785000000,1.5956205,99.645218,-61.234653,-70.943092,-60.594734,-67.647789,-25.891798,80.321831
3790000000,3.77948,-28.979275,-61.065239,177.49316,-61.508305,179.36226,-19.709921,165.59761
3795000000,0.58071828,173.68146,-60.472385,69.072807,-60.801922,66.239082,-36.70985,-33.39077
3800000000,3.5117199,15.770366,-59.94614,-35.331123,-59.916195,-37.794292,-20.979044,137.69327
3805000000,1.5016,-113.61802,-58.945435,-147.7515,-58.745045,-149.53966,-29.680801,-160.55014
3810000000,2.5035598,70.102394,-57.759098,107.66644,-57.686424,105.00937,-24.699177,146.90379
3815000000,3.7644401,-56.857079,-55.940556,14.59857,-55.999374,14.885858,-25.050949,115.55027
3820000000,0.8932994,131.95668,-55.830181,-89.324234,-55.958393,-90.971024,-20.541992,172.8477
3825000000,3.6565595,-10.922319,-55.500172,177.84428,-55.800331,178.17691,-23.234007,68.918762
3830000000,0.22205254,-147.58707,-55.61937,75.737823,-55.088371,76.789154,-17.948025,161.18138
3835000000,2.6000402,41.744686,-56.129879,-18.741985,-55.505569,-19.814585,-36.60675,108.87596
3840000000,2.7349093,-81.925056,-56.168785,-116.81291,-55.801456,-116.65344,-21.261557,135.56192
3845000000,0.69521463,101.66209,-56.231094,142.46162,-56.469254,138.28357,-22.14142,139.46791
3850000000,3.7542062,-30.778603,-57.818478,43.081779,-57.422474,43.53759,-25.26025,154.8295
3855000000,-0.29190376,-175.77475,-57.557266,-59.183147,-58.373653,-61.261742,-19.743313,101.12043
3860000000,3.348114,19.086056,-59.388527,-161.27304,-59.379578,-161.94382,-19.553358,166.59785
3865000000,2.233609,-107.1628,-59.900383,95.500153,-59.998802,93.588882,-22.738913,65.08181
3870000000,1.6754829,72.132935,-61.192448,-8.569685,-61.382557,-11.772305,-16.842987,151.58746
3875000000,3.6755826,-52.523102,-62.711391,-123.6805,-62.178513,-124.88337,-27.436666,77.661102
3880000000,-0.11016333,149.66127,-62.575287,120.85935,-61.844601,125.43703,-20.212755,135.70738
3885000000,4.2315102,-4.258882,-60.458927,12.939602,-60.489506,9.9554443,-20.208305,100.5723
3890000000,2.095798,-138.29938,-59.596088,-98.019409,-59.187828,-100.69886,-24.166782,169.14287
3895000000,3.0392373,45.268631,-58.448711,159.18364,-57.809566,157.63248,-17.393686,74.207222
3900000000,3.5063057,-76.031738,-56.579571,56.919479,-57.003033,57.476009,-18.204391,159.01082
3905000000,-0.28176507,113.4254,-55.867531,-43.174042,-56.127254,-41.966156,-22.451714,64.777275
3910000000,3.7157593,-28.378628,-56.748932,-139.10002,-56.393391,-143.88309,-18.3076,124.8288
3915000000,0.5761227,-168.61699,-55.920048,116.6392,-55.714649,115.82607,-23.765181,92.198334
3920000000,3.2792315,16.334938,-56.158424,19.853241,-56.167622,17.563034,-22.350048,117.44617
3925000000,2.9874096,-101.42027,-55.723339,-79.993431,-55.612289,-79.456001,-19.433041,85.043289
3930000000,0.70324844,76.776718,-55.92247,178.14877,-56.100342,178.03098,-22.710682,165.98077
3935000000,3.905668,-54.21526,-55.84446,79.913269,-56.252716,81.308113,-17.758196,53.056786
3940000000,-0.84259075,154.66081,-56.118217,-22.047955,-56.39637,-20.650759,-18.034712,139.09216
3945000000,3.1548781,-3.6155381,-57.285961,-116.86655,-57.516762,-116.08952,-21.678162,48.630669
3950000000,2.1869512,-123.89625,-58.606171,141.15179,-58.327164,140.08745,-20.312355,105.12585
3955000000,1.4883081,50.118877,-60.014023,35.92733,-59.572151,30.888258,-23.6479,86.6633
3960000000,4.1131172,-73.85936,-60.161068,-79.322693,-60.826153,-76.839058,-26.081957,81.414764
3965000000,-0.13463788,119.82638,-60.9645,172.45737,-60.528366,172.4597,-19.33893,82.886513
3970000000,4.2073107,-26.753761,-59.580235,65.274094,-59.254547,62.45689,-27.368427,151.36224
3975000000,1.5441808,-161.15245,-59.129066,-41.799801,-58.905163,-42.643616,-17.939478,50.450203
3980000000,2.7005255,19.092464,-58.272064,-148.43842,-58.439842,-149.03961,-20.850214,127.18092
3985000000,3.840374,-100.04119,-56.952148,106.76282,-56.809589,109.23183,-22.187046,35.685925
3990000000,0.38469478,84.35405,-57.505344,4.8130007,-57.447186,2.8345747,-24.225613,102.04079
3995000000,4.8742948,-50.248383,-56.493725,-94.785408,-56.480846,-90.903847,-22.56424,75.346024
4000000000,-0.13572608,163.97893,-55.502686,160.52887,-55.198559,158.35402,-39.172775,86.325035
END

