!CSV A.01.01
!Keysight Technologies,N5247A,US56070710,A.10.64.09
!Date: Friday, November 18, 2022 22:56:17
!Source: Standard

BEGIN CH1_DATA
Freq(Hz),S33(DB),S33(DEG),S34(DB),S34(DEG),S43(DB),S43(DEG),S44(DB),S44(DEG)
3000000000,-17.795605,-155.94882,-72.672676,145.50487,-72.141754,140.69504,-10.903216,-138.05342
3005000000,-22.178699,-58.24284,-85.71328,-149.04573,-82.744751,-113.10702,-18.059286,-114.16566
3010000000,-15.723736,-148.86369,-78.858467,-78.072845,-81.687485,-82.809456,-16.271612,171.34627
3015000000,-31.544449,73.65564,-74.41378,84.656685,-74.697159,81.596321,-10.069511,-139.92883
3020000000,-16.653332,-96.051132,-74.869087,90.614426,-74.128448,93.313461,-31.31304,-92.88308
3025000000,-21.615868,175.00621,-73.857765,14.176844,-74.658401,10.774774,-10.879089,-170.68335
3030000000,-19.191402,-80.037933,-76.004189,-69.775665,-76.233101,-68.213348,-13.526129,-134.07251
3035000000,-15.006495,-153.78772,-77.737282,129.21617,-79.148369,122.91144,-21.99474,-172.9959
3040000000,-22.968027,84.185699,-71.391197,-99.55172,-72.122063,-96.051849,-10.102312,-178.26788
3045000000,-17.513468,-104.35184,-84.903816,-11.601137,-83.242477,-31.980141,-16.690575,-114.23272
3050000000,-20.655357,161.32541,-75.135635,80.539398,-73.113091,77.507034,-13.313895,156.1759
3055000000,-17.843739,-84.867844,-88.433456,113.31564,-88.760109,122.96124,-11.910667,-163.12477
3060000000,-14.349779,175.28845,-72.116928,-54.516068,-73.1819,-55.914455,-18.267824,-138.3707
3065000000,-25.630989,38.058235,-76.176521,108.83382,-75.296158,114.83377,-11.966869,151.25827
3070000000,-16.147465,-138.58272,-80.180595,95.689774,-76.024269,95.861679,-12.148573,-145.19095
3075000000,-20.252144,115.82146,-77.984344,-73.146118,-78.534302,-53.331329,-19.218164,140.74187
3080000000,-17.937601,-104.15669,-76.882324,-87.266212,-76.188545,-77.536903,-12.671387,165.55244
3085000000,-14.301312,165.66762,-77.686646,76.797066,-77.230865,62.97089,-13.731237,-151.29694
3090000000,-29.209965,-6.405292,-88.324051,-150.75412,-100.45514,0.92569202,-16.439693,117.1387
3095000000,-15.711452,-174.28333,-84.304886,-96.485603,-80.498978,-97.534576,-10.29798,-176.75108
3100000000,-21.565451,81.952705,-74.685478,81.552727,-75.236694,71.10405,-22.445518,-176.06802
3105000000,-17.035633,-129.00748,-75.302948,164.60524,-76.9328,158.03876,-15.139133,142.48628
3110000000,-16.225466,135.82715,-84.256378,-72.547867,-80.85508,-120.64353,-11.781851,178.1474
3115000000,-27.165125,-124.75226,-74.709938,76.911728,-76.397469,69.237946,-47.594093,-146.26566
3120000000,-14.891608,156.35626,-87.628036,-159.14636,-84.031509,-126.3797,-11.107335,147.92235
3125000000,-21.307846,59.458477,-79.917778,-50.565014,-78.132118,-47.320797,-16.112547,-166.13989
3130000000,-18.640366,-150.75711,-81.273422,39.19696,-80.833084,16.964605,-20.675838,131.00273
3135000000,-15.857141,120.6731,-79.127846,-110.67583,-80.505547,-106.22487,-11.538456,149.0374
3140000000,-23.616211,-131.7551,-74.073883,-93.160469,-74.791847,-92.78019,-18.619982,-135.44955
3145000000,-12.690615,139.29329,-78.21553,88.283226,-78.978096,68.348526,-14.165133,119.9449
3150000000,-18.229404,41.613117,-86.369881,-23.775688,-86.056442,-15.811823,-14.12306,174.06787
3155000000,-15.190743,-173.02512,-86.261192,-127.64237,-81.076317,-159.91402,-21.874187,-165.89235
3160000000,-16.255125,81.08419,-82.435303,13.576083,-81.444107,13.347651,-13.31795,114.14145
3165000000,-18.539274,-158.46304,-74.878838,-58.739319,-75.303291,-74.894882,-13.061081,-169.08427
3170000000,-11.468527,115.79569,-78.7789,-60.464714,-78.289063,-57.905567,-20.414396,93.407883
3175000000,-21.665257,35.462288,-76.139626,141.05322,-76.657158,138.65314,-14.143641,147.14671
3180000000,-15.8061,153.42346,-73.49984,96.090843,-73.78228,79.863914,-14.977415,-176.8586
3185000000,-17.323465,68.483124,-91.728119,-88.631836,-88.091347,-46.743057,-21.914133,79.44696
3190000000,-16.43083,173.6286,-78.377724,-154.84778,-76.647903,-167.15318,-11.194266,158.44818
3195000000,-12.417867,101.05151,-79.943283,46.02684,-81.304024,32.0116,-28.769321,-133.63141
3200000000,-22.477131,60.21402,-80.624733,-4.3889337,-84.082954,7.6653762,-16.021942,120.3242
3205000000,-14.854283,120.70618,-79.525826,-116.41068,-79.056854,-136.12994,-13.968314,161.19931
3210000000,-19.509459,44.722401,-80.178963,146.26227,-80.354813,116.20473,-30.952827,-109.88643
3215000000,-14.315949,161.90956,-79.104538,23.937016,-80.733261,3.1622214,-12.14125,125.88714
3220000000,-10.806351,79.024841,-85.345551,173.0811,-80.051132,173.07816,-16.350946,-172.2373
3225000000,-31.647491,86.759567,-81.229233,-170.84686,-78.994591,-162.92932,-22.828718,127.57114
3230000000,-12.247048,100.38667,-79.638268,-7.4035997,-77.850548,-14.909687,-13.329078,129.31299
3235000000,-18.705322,28.780785,-77.41404,-28.201691,-80.048012,-31.578426,-15.837253,-150.58557
3240000000,-13.947216,135.28821,-78.517685,141.56479,-79.428833,121.37617,-15.371359,94.278137
3245000000,-12.074398,65.670082,-76.642349,35.784863,-76.53273,21.136562,-13.759556,167.17525
3250000000,-20.99353,132.44724,-75.198486,22.486813,-78.842728,15.845993,-21.172804,163.68958
3255000000,-9.2471828,78.636833,-75.156548,-165.69109,-74.561356,-175.7784,-16.125019,101.91114
3260000000,-18.33271,-7.9569802,-78.117485,120.82767,-82.026009,124.03017,-11.723056,167.01161
3265000000,-11.265299,120.13033,-73.417252,-2.8166063,-73.09095,0.46706873,-28.28019,57.007893
3270000000,-13.013639,51.361366,-74.734711,-123.35716,-75.578079,-128.43442,-13.357541,136.36966
3275000000,-14.371708,117.14857,-93.293007,162.32314,-86.003395,-178.16365,-16.135019,165.25159
3280000000,-9.8676472,58.025059,-81.397018,46.338863,-77.832092,52.882072,-24.432928,93.995255
3285000000,-22.57095,17.864662,-76.354652,-46.373116,-76.510414,-66.6446,-11.16599,134.50656
3290000000,-12.19896,101.16351,-76.39727,-113.08077,-77.692039,-107.18674,-23.05916,-163.63521
3295000000,-13.511776,51.868244,-74.155045,82.702614,-73.330177,68.393097,-15.207977,111.21714
3300000000,-14.379597,94.420372,-74.26474,-46.846973,-74.762535,-55.33926,-13.609819,138.91736
3305000000,-9.2170677,53.421768,-74.944809,-87.667389,-74.799263,-82.310287,-20.377195,-163.12476
3310000000,-26.409901,15.072339,-79.580276,96.878021,-75.593552,117.54552,-11.999509,100.82444
3315000000,-10.069293,85.638138,-78.286232,31.361288,-79.854897,36.740246,-14.541201,175.07867
3320000000,-13.10616,26.389984,-79.482788,-82.11599,-76.590309,-94.034988,-18.36334,95.337593
3325000000,-12.375109,99.483833,-71.969849,146.44075,-71.728951,138.49672,-14.279297,112.27682
3330000000,-8.8793793,40.181274,-75.968201,58.898327,-75.751038,58.279881,-14.283425,161.67113
3335000000,-22.903088,87.342964,-71.698929,-50.915741,-75.056015,-65.853653,-16.942114,67.295593
3340000000,-8.7338877,55.847424,-78.134865,-143.25644,-81.599548,-151.99603,-11.624949,137.09192
3345000000,-18.356445,22.442337,-78.412674,115.87974,-78.433556,97.102135,-22.000704,140.52367
3350000000,-9.9354897,79.800858,-71.278435,-38.634895,-71.807961,-37.712555,-15.907887,83.576927
3355000000,-9.7949409,27.616573,-74.340141,-152.92972,-73.956779,-154.86992,-12.065751,136.81102
3360000000,-15.713358,79.897423,-74.143852,139.79863,-73.913208,134.02594,-25.509153,17.714945
3365000000,-8.5765457,47.931248,-69.539841,27.463823,-71.429985,22.909073,-12.258073,105.40331
3370000000,-18.448067,3.5208135,-85.258186,-107.25751,-81.992294,-113.52956,-16.633503,130.88811
3375000000,-9.6247768,68.435455,-71.584908,163.20074,-71.147453,161.06937,-24.191528,81.337814
3380000000,-10.995961,24.297426,-75.42514,51.086201,-73.349144,39.146404,-11.128632,100.64909
3385000000,-12.415718,63.41024,-74.16272,-39.59082,-72.721107,-47.881638,-22.088354,-170.99171
3390000000,-8.6351891,27.694674,-71.614304,-151.20773,-71.763573,-159.94119,-14.199557,74.195366
3395000000,-17.061697,33.050331,-73.387085,109.7261,-73.508652,112.82113,-15.659531,113.25137
3400000000,-9.219923,57.911083,-73.26239,0.23178732,-72.036484,1.7061901,-23.703369,157.69017
3405000000,-12.789639,18.925402,-72.839645,-141.00778,-74.154488,-138.31609,-12.307394,62.22403
3410000000,-9.7969351,58.836132,-70.927589,154.04472,-70.663948,155.06432,-15.28942,145.83397
3415000000,-8.0675001,12.176053,-73.422676,7.9317946,-71.383217,16.306318,-18.561354,50.004379
3420000000,-19.477737,57.818138,-70.33683,-54.029274,-71.488007,-52.179909,-16.186905,81.203659
3425000000,-8.0570574,40.226795,-71.754402,156.48488,-72.678116,158.37567,-16.375584,136.97331
3430000000,-14.55621,21.526594,-72.553589,52.863621,-72.469086,59.658268,-16.79981,12.544717
3435000000,-8.2032804,46.284946,-71.20784,-38.128494,-71.563393,-46.930973,-13.229425,114.30534
3440000000,-9.7724581,-0.70814818,-69.136543,-156.44904,-68.97435,-155.68188,-27.657829,24.60733
3445000000,-12.504093,54.468224,-73.700729,115.1985,-72.548019,109.87544,-18.866116,55.327431
3450000000,-8.8584881,21.572443,-73.516556,-26.091898,-72.584755,-28.643051,-14.650439,100.82352
3455000000,-16.532545,39.809433,-70.330421,-116.04426,-71.033684,-120.09941,-23.751444,-71.78405
3460000000,-7.26582,37.872002,-72.444687,116.83124,-72.174789,122.63207,-13.698302,73.045555
3465000000,-9.8098259,-11.199738,-69.483337,48.835293,-70.811211,41.835762,-22.550117,149.16061
3470000000,-12.632751,55.97543,-69.485069,-81.362083,-70.37252,-81.777374,-26.939062,18.393961
3475000000,-7.9469972,10.71549,-71.680763,168.65395,-72.668694,161.82115,-14.98879,71.971214
3480000000,-15.698944,33.801384,-68.846436,66.979591,-69.625679,60.924591,-21.421745,-156.71265
3485000000,-7.5523372,29.897104,-70.89978,-70.506325,-70.655594,-73.892609,-16.747747,38.127033
3490000000,-10.787145,-8.6163359,-70.922203,-163.92625,-70.487625,-166.79739,-20.857777,109.05057
3495000000,-10.458262,43.807178,-69.070694,101.23103,-69.891586,96.782394,-26.292274,164.02074
3500000000,-8.5744143,-3.8403304,-69.82917,-7.272521,-69.861954,-11.170707,-16.314499,28.972721
3505000000,-14.886102,50.544373,-69.792831,-116.20761,-68.851585,-114.9084,-15.139203,144.64812
3510000000,-6.7057738,18.635983,-70.559135,115.75549,-68.447044,107.05302,-21.086983,-17.157084
3515000000,-13.318372,-13.830145,-65.440956,11.43012,-66.0532,12.352864,-22.10997,90.670769
3520000000,-8.6039305,35.168392,-69.70491,-114.21612,-69.992241,-103.09652,-20.669538,126.59642
3525000000,-9.2814217,-16.929743,-68.178581,175.7628,-68.516479,-179.7455,-21.142624,-42.752632
3530000000,-13.143205,52.709324,-68.373375,47.562408,-68.591805,44.115456,-13.923709,98.041183
3535000000,-6.4983153,5.762044,-68.326424,-48.634167,-67.684235,-56.39109,-24.038822,-126.59683
3540000000,-17.087399,8.559454,-68.307007,-179.02167,-68.388954,-178.79425,-22.730598,68.009834
3545000000,-7.1610475,17.737568,-67.288712,64.773369,-66.714256,64.527924,-18.895838,102.51501
3550000000,-12.773052,-23.959126,-71.094185,-39.980736,-70.544357,-40.400806,-19.731899,-137.7375
3555000000,-10.029869,31.824202,-66.009811,-132.25929,-66.504288,-132.61195,-16.516182,56.742504
3560000000,-9.302597,-4.0153561,-67.434853,93.454041,-67.472771,97.42569,-19.546526,164.23737
3565000000,-12.175003,15.885791,-70.439888,0.90307343,-71.935135,6.6733589,-36.099133,89.741119
3570000000,-8.5546188,8.5797815,-65.864273,-112.8815,-66.032494,-112.23557,-18.406258,51.728119
3575000000,-12.189507,-12.660649,-66.518433,124.39227,-66.404106,120.80148,-15.51757,160.52805
3580000000,-10.230092,27.637917,-69.911247,36.579453,-69.553864,34.863594,-19.202349,2.0471168
3585000000,-8.9184084,-13.298591,-66.469986,-79.157845,-67.17057,-75.924408,-16.403698,126.14063
3590000000,-13.756351,36.855339,-67.029167,148.37592,-67.436478,140.04518,-26.958748,157.81874
3595000000,-6.5645866,-0.68443596,-70.302109,64.05085,-70.292969,68.528145,-23.719587,10.55459
3600000000,-16.112837,-24.26782,-66.037796,-57.863056,-66.662743,-63.085125,-14.662716,116.05875
3605000000,-7.7139173,17.970415,-69.351738,179.75848,-69.135849,179.21519,-22.292606,-78.888107
3610000000,-11.404985,-27.677299,-71.127785,105.88105,-71.488571,107.0308,-17.915127,79.387573
3615000000,-10.078405,32.574821,-67.358307,-28.622995,-67.050964,-28.229565,-19.354717,120.33562
3620000000,-7.1998901,-10.304233,-67.55764,-151.93767,-68.562843,-149.21484,-25.470905,-101.7709
3625000000,-16.83453,3.6688516,-67.704613,130.74167,-67.656525,125.57626,-13.784402,77.754074
3630000000,-7.3215504,7.3445468,-67.280624,13.524034,-66.129768,15.629333,-19.617643,-157.0699
3635000000,-13.20886,-29.189276,-69.593788,-104.09325,-69.709999,-106.69595,-20.604946,55.516876
3640000000,-8.7908669,25.191648,-71.666084,143.68448,-71.898369,151.65976,-21.338636,83.721443
3645000000,-8.6300755,-21.438601,-67.99147,31.437344,-68.054077,29.916048,-18.867764,-179.52
3650000000,-12.579624,26.059862,-70.615265,-44.605251,-72.402283,-49.318089,-15.471462,23.875015
3655000000,-6.5302382,-8.4716873,-72.848274,-155.00516,-72.577904,-159.32312,-16.612532,143.714
3660000000,-17.325014,-20.442709,-70.638107,91.757286,-71.095695,78.728676,-28.0721,23.918728
3665000000,-8.3901129,19.888992,-69.812454,-59.76865,-70.480843,-60.360165,-23.510015,33.746815
3670000000,-9.1225233,-17.366819,-68.631004,-131.81717,-68.552307,-129.26245,-15.533582,129.38901
3675000000,-10.503931,14.830537,-70.356918,132.8055,-70.49794,141.07326,-17.89172,-49.559059
3680000000,-7.8205953,-20.977337,-70.344383,10.913054,-71.650291,14.373755,-15.787313,104.17542
3685000000,-17.666929,13.638375,-74.545158,-71.648994,-73.08992,-68.63089,-35.925179,-108.03365
3690000000,-6.6067715,11.400546,-73.509239,164.62967,-71.726006,156.92412,-29.448322,-23.356754
3695000000,-9.7586946,-27.896429,-69.562019,48.848854,-69.635139,43.058426,-15.978354,81.442398
3700000000,-9.4743147,20.346556,-71.304863,-23.163418,-71.404213,-28.452318,-18.487631,-123.87238
3705000000,-7.9873338,-33.323486,-70.56076,-165.78532,-70.447014,-160.68292,-17.486723,54.083549
3710000000,-11.21318,40.834652,-71.729874,92.536644,-72.965775,84.836594,-25.111773,145.40013
3715000000,-5.7990727,-11.451873,-71.861267,-12.784003,-71.126198,-5.6671653,-25.802752,-152.42207
3720000000,-15.556708,-22.646055,-69.65802,-135.18802,-69.637901,-127.1028,-17.624786,38.221664
3725000000,-6.8067551,8.3035889,-75.341408,141.14978,-74.966515,136.12927,-17.585405,-178.37579
3730000000,-10.329398,-35.597412,-70.954277,24.450056,-69.957115,25.586956,-21.906254,1.2254272
3735000000,-9.3226662,24.305365,-71.848183,-85.148933,-72.799988,-79.600731,-26.030167,106.97402
3740000000,-6.283144,-21.112364,-69.741707,-178.74916,-71.074501,179.72295,-19.3048,158.57771
3745000000,-14.994355,0.39978078,-71.205429,72.608727,-70.976776,67.078903,-19.160715,-27.800974
3750000000,-6.8313971,-0.115178,-72.18856,-41.716038,-73.042213,-45.122345,-15.62519,132.00153
3755000000,-10.810773,-25.205202,-72.618011,-134.86792,-73.169601,-140.98978,-24.414465,-82.80159
3760000000,-8.1329498,5.5090275,-71.878036,116.36996,-71.671402,116.05285,-39.771339,104.6369
3765000000,-7.5726018,-22.636208,-75.656105,-12.775392,-73.247749,5.1631732,-19.10763,118.92599
3770000000,-13.768501,2.2129025,-73.489883,-84.534569,-73.900467,-85.432175,-18.395023,-101.67001
3775000000,-5.8886151,-2.4407542,-70.050156,137.51418,-69.623238,139.8927,-15.881768,86.439049
3780000000,-10.78302,-33.321754,-74.60041,7.1649327,-75.247108,12.642958,-21.27924,-152.11697
3785000000,-6.8227992,7.5263948,-70.666718,-55.911579,-72.037003,-63.556221,-30.385632,160.35339
3790000000,-8.1170988,-40.746937,-71.021385,162.27733,-70.796562,150.2276,-19.688425,76.258087
3795000000,-9.7662249,18.46159,-79.260109,104.8978,-79.217239,118.37643,-14.961355,-163.46071
3800000000,-5.6141562,-19.10906,-70.309967,-4.5276527,-70.286995,-6.0054784,-20.137972,30.402344
3805000000,-13.287396,-14.780878,-77.382484,-168.1902,-76.346832,-179.1595,-18.736692,157.39632
3810000000,-4.9794416,-8.8651314,-75.053314,145.48116,-74.813187,141.48399,-23.41699,153.44592
3815000000,-11.323641,-49.996017,-70.923248,8.8497314,-71.17263,16.639751,-24.337648,13.382058
3820000000,-6.6598167,13.052331,-74.713745,-131.54822,-74.602432,-125.19323,-13.773237,145.02492
3825000000,-6.2405834,-34.638496,-77.604485,-166.17867,-76.727341,-154.27695,-24.715393,-48.08778
3830000000,-10.313152,-0.39496034,-75.30925,34.904865,-78.461624,14.249757,-17.245123,125.66738
3835000000,-5.8021698,-22.712002,-82.231346,-47.885979,-82.029739,-48.508274,-19.351652,148.53848
3840000000,-12.305009,-28.967457,-78.491783,-169.8912,-74.83065,-150.24515,-25.071768,-97.215004
3845000000,-6.5341773,-1.6619638,-75.512901,91.218742,-74.981728,92.978485,-14.282842,102.48382
3850000000,-5.8405833,-38.562744,-72.765648,-20.461782,-75.100647,-25.538242,-20.273287,-138.38603
3855000000,-11.073333,2.9671438,-72.020332,-111.62246,-71.624046,-105.74987,-21.290854,89.63665
3860000000,-4.7299728,-30.46524,-75.963829,175.79822,-75.83136,171.58797,-18.108236,103.2533
3865000000,-14.259028,-21.345003,-79.824677,57.080662,-77.134041,48.629211,-18.702841,-167.97028
3870000000,-4.0518351,-9.0548658,-74.627045,-84.509743,-75.086807,-70.371643,-15.398811,66.639725
3875000000,-7.6059265,-60.833416,-79.698387,165.1987,-82.918457,172.22916,-16.480474,165.25278
3880000000,-7.6536617,5.87328,-74.660439,66.643127,-74.729584,78.233093,-25.295271,96.021866
3885000000,-5.0916929,-40.770702,-74.022385,-41.02549,-75.948639,-42.695835,-20.995487,66.009674
3890000000,-11.280354,-10.311629,-90.304939,28.972754,-95.028648,-90.323456,-14.319799,153.5843
3895000000,-4.4163885,-25.724791,-74.98156,136.78165,-73.059753,130.82732,-17.723818,6.7274675
3900000000,-10.08109,-55.107391,-78.551071,-17.853733,-81.251831,-30.212748,-14.288951,124.43054
3905000000,-5.7530432,-6.7209439,-78.798981,-42.441807,-78.166046,-43.743256,-25.25042,106.9797
3910000000,-5.9803181,-51.523911,-75.32074,164.84381,-76.151367,159.73872,-26.951464,43.031166
3915000000,-9.2799654,-6.8406763,-82.463188,0.49032471,-76.802803,13.108259,-13.324634,108.99126
3920000000,-4.253449,-37.782558,-82.45224,-33.843494,-86.227997,-27.966694,-22.906389,-85.722466
3925000000,-12.175401,-41.901764,-74.87426,-170.44,-73.469574,-172.74768,-15.349127,91.589645
3930000000,-4.9756718,-17.411957,-76.328064,112.09911,-77.54213,124.52842,-22.449024,98.671761
3935000000,-6.6947689,-59.789558,-75.540024,-2.9023328,-74.774033,-2.5696993,-29.882086,-168.05939
3940000000,-9.2924719,-14.699728,-78.419037,-112.34643,-78.478577,-125.01424,-12.986806,64.954727
3945000000,-4.3367877,-39.731007,-80.798721,-173.88058,-80.969673,171.53369,-18.596043,-173.71779
3950000000,-11.531007,-49.171684,-74.423805,37.082699,-74.917603,2.8982797,-16.583652,53.983345
3955000000,-4.2722769,-25.486507,-78.096344,-44.739105,-80.715416,-68.475258,-22.72175,99.245972
3960000000,-7.6214399,-69.853767,-75.568825,-170.64088,-73.486877,176.82489,-19.983463,137.15985
3965000000,-7.3675346,-9.6449842,-81.423782,33.542221,-80.805977,17.671553,-16.64974,22.411631
3970000000,-4.1965513,-55.746193,-78.515343,-16.297525,-75.089798,-11.228057,-17.024252,132.93845
3975000000,-12.006448,-24.875931,-77.617744,-157.58742,-75.803253,-155.29381,-22.660322,21.827909
3980000000,-3.685555,-41.295212,-83.518806,129.40953,-83.861809,146.88469,-22.845675,50.993591
3985000000,-11.125843,-70.652702,-77.75293,1.7415242,-78.817139,30.609688,-16.466213,110.74657
3990000000,-5.2643509,-26.634859,-89.773567,-145.2618,-83.882309,-176.75317,-19.576279,-37.505505
3995000000,-6.7801809,-68.549561,-78.632439,165.14049,-76.59391,170.86971,-14.930235,95.051292
4000000000,-7.7745862,-25.474983,-86.075699,70.435753,-82.987724,52.08522,-32.306145,12.18219
END

