!CSV A.01.01
!Keysight Technologies,N5247A,US56070710,A.10.64.09
!Date: Friday, November 18, 2022 23:30:43
!Source: Standard

BEGIN CH1_DATA
Freq(Hz),S33(DB),S33(DEG),S34(DB),S34(DEG),S43(DB),S43(DEG),S44(DB),S44(DEG)
3000000000,-4.1111393,-112.06725,-75.85331,127.09575,-75.157433,127.60699,-10.158502,-139.56853
3005000000,-5.9352646,-93.644241,-73.515198,132.10234,-72.950356,138.54631,-19.111517,-101.43218
3010000000,-4.4144139,-116.19344,-73.601738,25.763992,-73.388359,27.554842,-14.68962,163.21727
3015000000,-6.5987072,-102.5912,-73.239258,-31.763262,-73.824501,-39.539989,-9.6258678,-137.37541
3020000000,-4.3762646,-98.328682,-78.932106,-171.83246,-80.145332,-173.69304,-33.860134,-12.005831
3025000000,-6.0926485,-115.69392,-77.244728,144.99463,-78.234444,131.98103,-10.12482,-174.85658
3030000000,-4.3297105,-94.923294,-72.984085,-42.316685,-74.712746,-45.265312,-13.308569,-129.38455
3035000000,-4.8652248,-115.24353,-79.207405,-33.834297,-77.504906,-23.511633,-22.408129,162.10519
3040000000,-6.4743905,-111.30359,-76.420845,167.18913,-78.535149,173.95952,-9.5296202,-178.32501
3045000000,-4.7156005,-100.23465,-82.109138,-88.416885,-85.452217,-102.21261,-17.16658,-105.71485
3050000000,-6.6531057,-112.96886,-79.515778,154.412,-78.11869,161.82898,-12.415204,149.28983
3055000000,-4.0709333,-103.05391,-71.24057,-175.09398,-71.145996,-175.0343,-11.535807,-161.53951
3060000000,-5.2890987,-115.78362,-72.351913,127.7094,-73.599815,108.58097,-20.148659,-139.33691
3065000000,-7.1694145,-113.74216,-73.677551,2.2006807,-72.878067,-5.2202177,-11.229452,148.68604
3070000000,-3.9113426,-107.78327,-82.858101,92.125328,-85.205994,66.197144,-11.825575,-142.56161
3075000000,-8.2833767,-114.66217,-74.721817,-57.144787,-75.762215,-63.075459,-18.726929,121.83971
3080000000,-4.3021269,-108.13818,-77.553284,43.650925,-75.7509,1.3156945,-11.660768,165.50143
3085000000,-4.3411584,-120.70406,-81.018074,-57.189911,-83.317505,-47.73148,-14.312733,-145.42104
3090000000,-7.8291831,-106.72544,-76.201141,172.39609,-76.173927,166.32613,-14.844239,109.38404
3095000000,-3.8706179,-122.78478,-77.620911,19.859121,-82.792816,18.143002,-9.6519117,-176.49706
3100000000,-8.0680294,-101.75042,-88.958572,93.863686,-88.12072,26.782833,-26.289043,-177.06468
3105000000,-4.3749251,-115.70171,-72.391495,-92.066658,-71.540932,-103.15054,-14.089109,137.73801
3110000000,-5.546977,-125.25466,-81.449532,-126.48032,-80.25222,-121.17333,-11.559236,179.78653
3115000000,-5.4830642,-103.54881,-82.428284,65.321426,-84.001595,74.699249,-30.881271,8.6807337
3120000000,-5.6078525,-139.66714,-82.491508,109.73895,-83.926704,84.03524,-10.089745,143.9722
3125000000,-5.9931493,-105.44146,-76.966316,-176.07065,-75.155273,174.83929,-16.10504,-158.07237
3130000000,-6.0576444,-113.94025,-76.698044,5.5353751,-78.899261,22.69515,-19.249128,112.46584
3135000000,-6.1610847,-130.70363,-78.645424,-0.50264072,-79.292313,-10.024347,-10.901978,149.38824
3140000000,-4.5983934,-112.51877,-77.75032,-53.287132,-76.31929,-59.336674,-19.042248,-125.1039
3145000000,-7.0423841,-137.11691,-74.928635,164.60638,-73.569435,160.10928,-12.841458,114.48157
3150000000,-7.5509505,-118.97856,-76.607773,-65.955254,-77.791115,-63.989483,-13.419589,178.47237
3155000000,-4.8546219,-116.474,-79.293259,-15.791468,-83.434952,-69.562988,-26.026598,-165.69049
3160000000,-8.9924259,-128.45932,-78.12426,96.54641,-79.973747,109.62533,-12.246402,113.70578
3165000000,-3.7758701,-121.06385,-73.308571,137.45164,-73.022659,138.00095,-12.807018,-165.7589
3170000000,-7.8851151,-145.77167,-81.823822,-49.954525,-81.554222,-33.278389,-19.011791,81.427963
3175000000,-8.2825546,-113.82119,-89.790352,118.72635,-88.655434,165.05643,-13.270661,145.89555
3180000000,-4.8933086,-127.77634,-79.668907,111.3327,-80.369919,93.724983,-15.180682,-172.16766
3185000000,-10.337122,-116.06033,-85.397545,-11.286568,-87.7313,-15.413037,-19.313498,70.347916
3190000000,-4.1723957,-133.26707,-77.331375,-27.738686,-77.416237,-45.182812,-10.494585,159.18073
3195000000,-8.6510057,-138.52969,-76.379913,-94.550102,-77.090591,-108.73683,-29.106455,-80.984573
3200000000,-8.6136465,-121.69541,-75.784599,-109.51017,-76.066605,-104.79359,-14.34366,116.32303
3205000000,-6.6857815,-144.86833,-73.126526,-18.104855,-73.989532,-22.054716,-13.88571,166.48869
3210000000,-7.1065369,-104.39524,-81.503777,83.016884,-82.137253,46.374275,-32.219704,-32.414951
3215000000,-5.2253633,-143.9597,-74.013084,-152.47176,-74.897392,-151.54036,-11.161576,125.37128
3220000000,-9.9486885,-142.812,-79.369934,70.505341,-77.051544,66.811005,-16.277821,-165.10997
3225000000,-7.5786633,-123.3556,-73.061348,84.454468,-74.318344,83.577766,-21.573053,104.4087
3230000000,-9.1436234,-149.04964,-77.937508,-165.84842,-77.746574,-164.17685,-12.616866,132.36722
3235000000,-7.938539,-117.85695,-81.152992,-162.46875,-82.586388,-167.74197,-16.51103,-142.33984
3240000000,-7.6142015,-139.39206,-72.654755,53.602169,-71.713272,59.826782,-13.884983,91.515388
3245000000,-9.2316465,-147.6644,-75.425323,-95.963348,-74.735939,-107.03774,-13.06655,170.72038
3250000000,-7.1305203,-131.87146,-73.989372,-90.056175,-73.726974,-91.324005,-25.18738,154.17265
3255000000,-13.1801,-175.18692,-69.968513,72.555779,-71.688606,70.106194,-14.491671,102.72258
3260000000,-7.5050492,-107.71995,-88.670937,-66.818085,-86.230392,-153.00438,-11.77486,170.97388
3265000000,-6.8191013,-152.14865,-69.862701,-106.54285,-70.728302,-107.86629,-22.913372,43.472557
3270000000,-13.386567,-141.31512,-77.489891,104.33687,-75.65097,86.938705,-12.21321,136.10455
3275000000,-6.7805381,-148.58911,-71.756836,62.400631,-71.280548,59.728695,-17.348761,171.84236
3280000000,-19.90037,-160.19579,-77.973106,-80.921173,-78.453148,-78.942596,-20.632153,81.202751
3285000000,-7.7712975,-122.52951,-77.286034,161.77739,-75.558952,162.77016,-10.634632,135.56134
3290000000,-9.1413908,-148.70303,-70.146935,58.829334,-71.244225,57.894455,-24.405508,-146.41675
3295000000,-12.881502,-136.60115,-74.895126,-58.107002,-75.735023,-46.663116,-13.872674,104.34169
3300000000,-8.8985214,-163.06789,-70.149117,-137.72333,-70.188431,-144.4155,-13.400704,143.37584
3305000000,-18.264849,-103.67997,-87.621338,69.790009,-89.525932,48.78289,-23.445082,-163.80479
3310000000,-9.6324902,-135.84837,-71.727333,26.592505,-71.110199,21.163523,-11.238644,101.96044
3315000000,-10.541862,-161.77957,-68.346855,-117.77223,-69.042984,-121.8301,-14.752665,-178.50035
3320000000,-12.6988,-110.27599,-87.575722,114.70695,-94.501221,120.03089,-16.515997,82.853165
3325000000,-10.080853,-168.81758,-68.062088,46.042286,-69.107208,36.771835,-13.679087,117.5218
3330000000,-17.251753,-113.16235,-73.466537,-65.727119,-74.121468,-73.481125,-15.231849,162.6673
3335000000,-12.29812,-132.30167,-71.444321,-114.87887,-71.1455,-110.58497,-15.355038,63.495937
3340000000,-16.312559,-179.27696,-69.929062,68.118622,-70.110703,56.11359,-10.839523,139.14809
3345000000,-9.7721233,-113.85765,-79.215675,-46.631668,-77.232262,-29.457926,-27.438393,125.59107
3350000000,-14.208546,166.58223,-70.85112,-112.56535,-69.9729,-118.57768,-14.013003,86.231773
3355000000,-17.49497,-114.95479,-71.438225,94.556175,-71.492149,92.562202,-12.410848,140.9599
3360000000,-11.314836,-137.27864,-73.391487,82.072525,-73.35231,80.486771,-21.391823,17.068178
3365000000,-20.823662,66.282486,-77.952728,-97.343239,-77.197701,-97.437164,-11.366941,106.29477
3370000000,-8.4287176,-118.06303,-70.554413,165.2406,-70.218887,163.54854,-18.104353,133.71603
3375000000,-19.472443,156.96945,-71.206924,51.792603,-70.329247,50.876736,-20.632425,69.708885
3380000000,-17.656517,-120.50357,-75.029915,-38.21674,-75.514488,-38.456371,-10.831736,104.3576
3385000000,-15.473836,-163.3911,-75.215126,-101.1237,-75.801117,-113.30886,-23.935568,-146.4122
3390000000,-14.121517,-31.982317,-78.46524,133.68669,-79.190956,122.22704,-12.598278,73.070152
3395000000,-11.6898,-142.42255,-72.004494,-13.714334,-72.728752,-22.850935,-15.747563,120.73948
3400000000,-20.564526,-135.64041,-68.38855,-123.64893,-68.934685,-126.49681,-28.457766,147.89294
3405000000,-18.133688,-90.929115,-76.393326,145.38251,-77.102692,137.45598,-11.413797,64.331917
3410000000,-19.674213,156.93929,-72.17897,64.351654,-75.066254,55.773506,-15.336869,153.33269
3415000000,-10.790394,-44.807392,-75.397514,-44.587849,-75.522804,-23.130819,-16.245005,42.608486
3420000000,-13.833431,-137.91666,-74.494324,167.91154,-74.858482,162.30391,-15.365029,89.303375
3425000000,-31.251284,-164.07304,-74.417648,83.059624,-75.167191,76.729134,-17.788809,141.44023
3430000000,-14.504851,-84.169228,-71.957825,-37.028797,-72.761772,-39.566219,-15.058017,17.867224
3435000000,-23.590292,97.300468,-82.324173,-142.61429,-80.544876,-141.77043,-12.558055,120.25052
3440000000,-10.499324,-63.112873,-75.956673,120.32172,-75.445389,121.74979,-22.919827,-7.284833
3445000000,-20.992126,-124.27409,-76.663521,7.368556,-74.722427,2.7915709,-16.360907,61.038422
3450000000,-17.563419,-35.901497,-74.600815,-113.91224,-72.897064,-109.38818,-15.193682,107.84184
3455000000,-12.377253,-120.68134,-72.767319,171.52931,-72.238663,-172.69435,-21.488632,-51.193649
3460000000,-15.271317,30.383718,-73.114449,66.420609,-73.039345,58.824306,-12.677232,77.006683
3465000000,-9.604619,-68.369377,-82.63221,-78.242119,-79.138512,-100.59157,-22.725321,170.82535
3470000000,-21.112232,-128.1729,-78.248825,-125.10497,-76.242317,-120.84497,-21.546127,19.903973
3475000000,-12.16888,-38.463589,-74.129089,59.818218,-74.446968,47.238087,-14.643306,82.630661
3480000000,-13.596135,-122.90746,-74.295273,-20.062386,-75.739716,9.8859119,-21.049013,-129.72234
3485000000,-12.500155,0.14582548,-74.407692,-152.03763,-75.776726,-153.53401,-14.60692,42.805573
3490000000,-12.043591,-83.340599,-74.381004,145.13379,-75.542099,149.73456,-19.979332,126.87372
3495000000,-18.454643,-45.639847,-75.905426,13.665651,-76.655144,17.180775,-38.088497,-171.11105
3500000000,-10.505797,-54.193523,-89.561325,-117.73757,-83.345268,-89.397316,-15.248362,40.648159
3505000000,-16.261356,-135.28264,-77.960953,158.69427,-78.264389,153.29399,-14.911099,153.60118
3510000000,-11.274722,-22.108194,-73.314735,33.025696,-75.251396,19.832932,-18.545971,-12.35934
3515000000,-12.390403,-70.712242,-85.28006,-169.35741,-86.167931,-137.08562,-19.672741,98.361588
3520000000,-20.330019,-54.907986,-72.458794,-176.73164,-73.860443,-170.25616,-22.911205,139.96506
3525000000,-8.1094885,-60.277683,-77.506767,63.472855,-76.560234,65.419472,-19.91481,-23.289757
3530000000,-21.271305,-151.67024,-71.224663,-28.729422,-73.023628,-14.670942,-13.26137,103.68452
3535000000,-8.911727,-37.967049,-75.758873,-176.00426,-74.557846,-158.91382,-21.966028,-105.09719
3540000000,-12.621019,-90.460304,-86.694283,123.03094,-85.223541,171.84387,-19.060555,67.53833
3545000000,-13.290344,-10.544756,-76.390709,-62.68396,-74.489548,-79.199203,-19.377075,116.53712
3550000000,-7.5011039,-79.580612,-79.774681,-148.28116,-79.605293,-124.59373,-21.586176,-122.95683
3555000000,-21.006014,-1.7793216,-70.064568,113.26271,-71.893204,114.29641,-15.469896,63.378513
3560000000,-9.63762,-66.88343,-76.875725,-47.192749,-76.360435,-45.48341,-18.772711,175.45139
3565000000,-14.215562,-74.821915,-79.431679,-31.00704,-81.371231,-15.789733,-27.388565,31.355879
3570000000,-10.980999,-24.23671,-72.807678,84.643867,-72.326294,90.999611,-17.709938,64.574875
3575000000,-9.0989189,-90.222656,-79.329102,-58.392208,-79.700737,-48.65535,-15.779758,167.52611
3580000000,-13.534775,-38.724464,-74.26796,-125.2622,-74.734543,-117.83369,-17.008678,7.4363956
3585000000,-10.081266,-62.36425,-78.673813,58.520912,-81.607445,50.965317,-14.65149,130.84468
3590000000,-15.089975,-106.43994,-76.932732,-21.115732,-77.180214,-19.182526,-33.483768,-138.29747
3595000000,-7.1860418,-29.670082,-73.363716,-164.17392,-73.270302,-169.93547,-21.208303,37.619564
3600000000,-10.915958,-102.28687,-74.791718,117.63602,-76.052139,107.29718,-14.961955,124.7913
3605000000,-10.118052,-43.215836,-74.143867,-46.669113,-73.205139,-49.435493,-20.534361,-59.2617
3610000000,-9.6625633,-70.273651,-72.629776,163.12679,-71.648727,160.504,-16.057764,84.23745
3615000000,-23.674107,-80.407059,-70.214485,95.086754,-70.358376,97.35495,-20.626038,132.69794
3620000000,-6.8189135,-46.226665,-74.022865,-45.725334,-74.389862,-51.282883,-26.526224,-62.532928
3625000000,-11.875707,-88.290184,-76.897102,-125.49074,-75.067307,-129.76396,-12.944535,85.507362
3630000000,-12.660374,-37.720947,-69.103233,73.194008,-68.727875,69.751999,-18.264479,-135.0954
3635000000,-6.690052,-82.690536,-69.987213,-26.910505,-69.847427,-37.027519,-16.581682,55.569756
3640000000,-15.807123,-1.957301,-69.080215,-132.91483,-69.98542,-137.0146,-22.02894,113.92102
3645000000,-6.5093708,-67.794182,-78.901352,131.51767,-79.48082,124.16138,-21.994596,-164.18384
3650000000,-18.138929,-66.079224,-70.521927,-15.971704,-69.93148,-22.9422,-14.352122,33.416336
3655000000,-6.8255773,-39.468719,-75.85054,-131.30031,-76.239464,-133.83302,-16.23797,155.07829
3660000000,-8.2775764,-102.22424,-70.96537,146.16806,-70.027122,145.98676,-21.965254,15.195679
3665000000,-12.150259,-14.797118,-74.311798,30.36331,-74.276688,21.489794,-22.374685,59.164669
3670000000,-9.4051723,-73.793991,-76.983086,-86.582451,-76.661156,-101.17531,-16.211487,138.73361
3675000000,-11.581343,-44.10133,-81.250015,-167.25204,-79.411835,-177.63976,-16.209961,-34.155548
3680000000,-6.5843797,-59.857162,-74.687141,75.60704,-74.88295,89.788124,-13.971135,112.76648
3685000000,-11.997255,-105.67504,-73.499123,-50.760292,-73.543335,-42.705425,-24.479429,-73.158409
3690000000,-9.6717634,-27.244432,-71.244781,-129.21416,-72.133049,-122.25227,-24.939272,27.941181
3695000000,-9.0217609,-64.182915,-74.447906,85.072449,-75.18502,86.523811,-16.536623,91.659554
3700000000,-11.809185,-56.083042,-96.656715,-59.963837,-94.490959,-51.762684,-18.364643,-106.47677
3705000000,-6.3373294,-59.438576,-72.652252,-105.51247,-71.77121,-113.22793,-15.44416,61.829563
3710000000,-18.355886,-119.78357,-72.150009,107.57254,-72.467873,92.021477,-23.32773,175.95865
3715000000,-5.8316307,-38.030247,-68.97657,47.296589,-69.64502,45.995296,-36.910412,-90.080994
3720000000,-9.6623955,-85.814857,-79.550621,-69.271431,-76.762238,-106.92857,-17.651157,57.745758
3725000000,-11.27522,-32.317745,-83.472084,-138.4402,-83.632843,-151.07784,-17.656406,-160.53088
3730000000,-5.7145996,-68.428497,-79.683586,69.449371,-79.606987,74.485611,-18.650063,16.622746
3735000000,-21.386847,-21.609474,-68.926064,-64.343155,-70.423767,-73.734001,-21.972652,128.90338
3740000000,-5.0108919,-52.956291,-76.093765,-157.99237,-75.165756,-152.61377,-21.504103,176.4274
3745000000,-11.304884,-84.679077,-76.746155,97.889389,-75.423088,92.98423,-18.550053,-5.099442
3750000000,-9.2978172,-28.893204,-80.139099,74.503624,-80.12989,39.605927,-14.715547,141.95708
3755000000,-7.1976643,-83.114738,-74.493988,-99.219292,-75.831459,-100.83907,-21.714903,-56.686794
3760000000,-8.8273478,-24.615217,-78.145714,123.06456,-81.421356,118.02791,-25.338285,109.31626
3765000000,-5.8857422,-69.129005,-78.738983,40.197659,-76.798637,37.631332,-20.493988,137.43065
3770000000,-12.114323,-76.321892,-78.811623,-101.50022,-79.079994,-96.805481,-19.385191,-82.152557
3775000000,-7.4396558,-27.926586,-79.026962,-156.66518,-76.470985,-176.5397,-14.217915,94.319756
3780000000,-7.4449658,-79.834625,-74.267494,76.619133,-74.014664,65.885696,-18.502972,-135.55949
3785000000,-7.6397095,-36.122849,-75.49984,-48.717327,-75.644051,-68.342796,-26.587132,67.830643
3790000000,-6.7089143,-69.152191,-79.340889,-119.54414,-76.734489,-91.311462,-19.001003,102.62354
3795000000,-12.29239,-74.489906,-80.564766,169.75052,-86.938927,149.1848,-15.912719,-151.02785
3800000000,-5.2539387,-35.795181,-82.075508,-175.37204,-86.475937,-138.93694,-17.924627,46.49398
3805000000,-9.3007402,-83.283005,-75.240746,-179.93559,-78.529846,-166.50748,-16.97093,170.90356
3810000000,-5.7909746,-41.640137,-71.122269,98.848808,-72.026138,96.294456,-30.502186,121.79166
3815000000,-5.9084249,-77.832756,-82.176315,162.6485,-86.007568,166.33401,-24.274387,51.362976
3820000000,-14.097103,-19.718193,-73.819496,-41.247765,-74.843872,-39.00473,-14.133813,153.7003
3825000000,-3.5041585,-57.868786,-76.415573,77.559616,-77.099808,83.985207,-20.906771,-19.460169
3830000000,-11.451273,-63.86076,-88.631538,-111.35193,-89.772301,-102.13526,-14.171963,129.74139
3835000000,-5.2213383,-51.722343,-84.6492,-75.930145,-77.870407,-48.543034,-22.387764,-179.73352
3840000000,-6.8968539,-84.113083,-81.523964,-143.74358,-78.600723,-145.24001,-32.5014,-20.375526
3845000000,-8.3851223,-23.473785,-81.698051,-58.810238,-81.552246,-82.158455,-13.790949,111.76675
3850000000,-3.4929786,-72.488411,-78.229126,-70.513535,-79.255234,-78.80835,-19.405785,-116.00922
3855000000,-10.212655,-52.882092,-75.485786,121.45613,-75.075531,121.76408,-17.113169,81.909599
3860000000,-4.2937098,-57.854538,-78.251968,163.32664,-77.208572,171.23367,-18.718245,123.79901
3865000000,-9.0077887,-80.401596,-84.245888,6.9092922,-88.635277,22.331322,-23.415934,-161.76051
3870000000,-4.7320175,-36.618557,-80.297653,107.41994,-80.699059,96.799919,-13.975278,77.383423
3875000000,-4.5743999,-82.375389,-75.960999,61.269825,-77.041573,41.374435,-16.124884,-179.07033
3880000000,-9.4685621,-53.673862,-81.640251,-55.761719,-83.342865,-33.50425,-21.424831,62.343323
3885000000,-3.8322194,-55.703823,-76.526756,-72.205292,-80.449951,-79.960663,-19.679258,88.582626
3890000000,-7.7218294,-80.146935,-82.153152,-46.240528,-84.977783,-28.248781,-15.231492,164.47089
3895000000,-4.5061502,-50.034512,-80.799744,-142.72841,-78.632469,-146.32771,-14.743274,16.684118
3900000000,-5.0172033,-78.334282,-92.078133,-178.17557,-93.490707,-94.864685,-12.497164,135.41728
3905000000,-7.8116345,-44.980675,-76.062393,97.881096,-75.482925,96.511414,-27.926245,23.812149
3910000000,-3.0684094,-67.120613,-83.638382,46.759167,-81.524017,58.252449,-20.858122,71.71714
3915000000,-10.204501,-72.253876,-79.037048,-119.02337,-84.595764,-93.614098,-14.044925,118.21069
3920000000,-2.4135506,-55.311848,-83.779083,151.7287,-87.361916,177.84991,-20.759045,-52.992687
3925000000,-7.4467492,-91.272751,-83.86908,118.894,-86.425919,115.38534,-13.142381,97.841766
3930000000,-5.0547853,-44.059349,-80.607513,-37.753468,-78.525322,-24.012379,-31.162857,128.41228
3935000000,-3.0046129,-83.452621,-84.420662,-105.28962,-84.475311,-131.09242,-30.0406,46.166676
3940000000,-9.0186272,-51.212368,-82.033943,-24.597292,-80.960533,-27.635241,-12.603106,77.924095
3945000000,-2.852376,-69.154045,-76.024803,-56.301796,-75.655258,-53.964794,-18.575697,-144.57886
3950000000,-6.2978086,-77.175545,-78.305641,-132.14021,-79.963356,-162.90398,-13.336933,56.869438
3955000000,-4.7941198,-54.953819,-75.841743,139.31725,-76.853828,133.76123,-21.589525,146.96706
3960000000,-3.5692048,-85.800186,-80.632507,136.79485,-80.67112,143.84286,-26.032495,97.43222
3965000000,-7.8549767,-51.819893,-83.778175,-120.99732,-79.468292,-95.16246,-15.817407,45.45628
3970000000,-2.4636734,-75.23201,-81.503151,108.6844,-83.491074,118.5277,-17.605154,156.0511
3975000000,-6.4443688,-80.494774,-90.052795,27.735508,-87.348839,106.96229,-17.498491,15.881898
3980000000,-3.698169,-57.908405,-74.944481,-83.979034,-76.732193,-99.98513,-20.100279,84.891838
3985000000,-4.2508492,-94.670578,-80.43515,-5.0739899,-79.656998,3.8480992,-20.165924,122.54485
3990000000,-5.1428661,-52.493885,-72.764221,86.269028,-71.411697,86.634995,-17.229128,-10.435074
3995000000,-3.1482553,-85.233772,-88.504532,87.391159,-90.550041,105.25649,-13.823163,110.64272
4000000000,-6.8626313,-74.327675,-78.325356,-33.301979,-75.652435,-35.238602,-22.065863,-36.137817
END

