!CSV A.01.01
!Keysight Technologies,N5247A,US56070710,A.10.64.09
!Date: Saturday, November 19, 2022 22:20:06
!Source: Standard

BEGIN CH1_DATA
Freq(Hz),S33(DB),S33(DEG),S34(DB),S34(DEG),S43(DB),S43(DEG),S44(DB),S44(DEG)
3000000000,-12.934089,-132.29706,-60.226398,-148.97794,-59.914005,-147.56461,-16.753078,-128.03619
3005000000,-8.6337919,117.23946,-63.808987,148.69795,-63.543262,144.62453,-15.361515,-168.25055
3010000000,-21.671076,97.508621,-64.338852,33.709183,-64.4916,34.823223,-17.572813,-164.69501
3015000000,-8.6522331,175.52879,-61.995197,-101.13837,-62.564224,-101.77876,-12.877052,-152.95993
3020000000,-11.656491,74.31691,-64.059975,-71.690559,-63.82476,-69.940422,-18.969706,155.24472
3025000000,-10.716545,167.18166,-64.602859,-41.80444,-65.341278,-38.48801,-12.320342,-151.02579
3030000000,-13.060795,107.77692,-68.249504,-34.653988,-67.12571,-36.847923,-17.811676,157.95352
3035000000,-21.904785,55.128166,-67.329712,-168.43927,-66.686043,-171.77501,-14.78648,-155.25189
3040000000,-5.5952792,154.3802,-60.077454,105.62645,-60.383732,105.94264,-13.785641,173.24487
3045000000,-12.658051,48.873737,-74.186958,10.240426,-75.031998,26.571886,-20.355467,-179.87067
3050000000,-13.356483,156.80502,-69.533249,-133.19347,-68.569054,-142.5002,-11.641461,171.4675
3055000000,-7.6152649,117.20911,-64.919182,-178.71434,-65.893425,-172.58038,-18.725046,176.82703
3060000000,-19.485184,-41.238056,-71.280815,-40.147423,-69.924347,-47.673561,-14.722072,176.91829
3065000000,-4.8022509,126.61193,-62.893658,-56.620468,-62.83234,-56.501957,-14.365222,166.80376
3070000000,-20.293081,31.020172,-70.233063,167.54274,-71.202866,158.14664,-19.121784,-173.7403
3075000000,-10.737554,140.1853,-59.004646,111.2375,-58.981644,111.01479,-12.793109,157.25084
3080000000,-6.1978993,97.131416,-65.878326,40.743221,-65.577713,43.576435,-18.470242,154.37138
3085000000,-12.793574,-122.30973,-64.688118,3.4658449,-65.478699,5.2043462,-15.119495,168.56792
3090000000,-4.2131829,100.84658,-68.324142,34.796608,-68.490959,46.416855,-14.172361,131.61652
3095000000,-34.565208,-70.830849,-65.643021,19.175961,-65.637123,8.6284876,-15.281056,-163.22141
3100000000,-7.9820089,137.43616,-60.703331,-66.544014,-60.905712,-68.171303,-13.055748,128.53853
3105000000,-7.4217243,69.025505,-64.823936,-136.8559,-64.442604,-137.08806,-17.111454,-170.11055
3110000000,-9.9293432,170.97319,-68.08725,147.27837,-66.537575,147.73058,-13.717161,139.36162
3115000000,-8.4640293,73.487289,-63.715881,13.203557,-63.627068,14.01731,-21.746712,137.99622
3120000000,-14.20783,117.1968,-63.842361,-111.96609,-64.103043,-116.39744,-14.085956,148.69701
3125000000,-8.1982889,137.05171,-67.028923,-17.47674,-67.93924,-22.0473,-19.58741,133.81314
3130000000,-6.8956203,47.203506,-65.998924,15.403768,-66.083023,18.386492,-15.859705,147.23729
3135000000,-9.3533096,150.58109,-70.582153,12.700742,-68.819405,10.880563,-15.146535,147.99376
3140000000,-8.1139946,84.014351,-58.994114,-159.0246,-58.913895,-159.24539,-20.541891,125.27007
3145000000,-17.757261,41.520401,-63.632271,70.854584,-63.571472,69.111069,-13.282879,145.28249
3150000000,-4.5734153,122.43331,-72.203796,62.30265,-69.085388,61.128815,-22.580692,128.65398
3155000000,-9.2086983,25.742233,-68.27668,30.879074,-67.022659,31.169073,-17.601566,146.21205
3160000000,-8.0735826,128.5479,-68.196121,-141.07906,-67.636169,-146.29648,-15.703609,123.75684
3165000000,-7.4239364,69.83712,-67.750908,-0.99256897,-67.0755,11.023377,-19.966877,166.33264
3170000000,-22.701035,152.50716,-60.579166,-127.49525,-60.326408,-121.61846,-13.240486,121.42368
3175000000,-4.9156551,94.651115,-62.36594,-159.67168,-62.800209,-164.54349,-20.861082,163.26361
3180000000,-17.939201,-0.23975028,-60.308113,130.08905,-60.435596,131.93166,-14.785287,133.72351
3185000000,-5.6818562,92.629539,-64.3908,70.36718,-63.769676,67.453369,-22.669863,125.45648
3190000000,-10.044766,50.075169,-70.206451,113.34956,-70.058624,124.31631,-15.353651,161.67229
3195000000,-16.144033,142.79295,-68.875916,118.94012,-67.69059,120.61262,-21.179565,79.877617
3200000000,-4.1273565,73.501579,-67.171745,-1.5613213,-67.11689,-2.417109,-14.420875,145.67413
3205000000,-16.480827,104.29085,-59.458523,-16.293556,-59.3638,-19.959562,-21.102259,115.9966
3210000000,-9.1415739,66.291763,-66.273987,122.75851,-66.143127,124.28804,-17.621546,117.17798
3215000000,-10.291388,58.939293,-75.065437,67.566063,-75.930145,57.197002,-15.439949,140.90863
3220000000,-10.340517,119.04807,-68.968521,-0.6652739,-68.636055,-1.4775562,-20.318361,117.93544
3225000000,-5.3759961,44.450474,-74.369736,-33.33712,-75.459282,-53.757992,-15.77872,149.34445
3230000000,-17.334856,101.34057,-76.023689,125.3237,-72.808121,141.30373,-17.334183,121.1027
3235000000,-6.3476496,87.76059,-64.735725,-49.406315,-63.708508,-42.619164,-21.995777,163.46748
3240000000,-5.4551344,17.595192,-68.059563,-99.950577,-68.899193,-91.325066,-13.198743,111.28197
3245000000,-6.8766618,139.6946,-72.306351,-140.19173,-71.924408,-136.36145,-22.154621,-167.73347
3250000000,-4.8561907,36.884819,-64.529625,177.72676,-64.595581,178.5945,-14.233977,113.5725
3255000000,-14.857036,82.567329,-67.83313,-86.927116,-68.104706,-86.255745,-21.604101,121.9567
3260000000,-6.4151449,70.194321,-69.810715,130.97897,-68.785622,134.6559,-14.357156,139.65659
3265000000,-11.175761,-9.8331032,-75.931198,41.112976,-71.759247,41.101997,-17.635151,97.694489
3270000000,-3.8182743,90.418442,-85.530762,159.84541,-82.347092,179.53261,-15.991961,153.72795
3275000000,-8.0813951,-0.88493669,-65.367882,-29.447279,-65.438995,-31.125875,-16.688349,95.95546
3280000000,-10.896852,104.52332,-65.004883,83.731606,-64.408714,78.73185,-17.929218,132.35991
3285000000,-4.175406,52.206326,-72.105698,-59.152275,-72.339203,-53.273758,-15.111882,132.88016
3290000000,-14.521306,-64.128929,-67.47419,101.28992,-66.808792,111.13967,-18.550356,85.832504
3295000000,-4.5687895,64.592484,-79.208588,56.322361,-79.576729,40.567196,-13.173862,139.02312
3300000000,-9.6938429,27.785967,-64.738029,30.001402,-65.514229,32.508602,-16.853285,97.552803
3305000000,-18.783258,59.824192,-66.546288,-92.773651,-66.615494,-91.292206,-18.917482,142.76385
3310000000,-4.6627727,45.754314,-66.041359,-160.5383,-66.952858,-159.29866,-13.181338,111.1422
3315000000,-26.34886,44.752834,-64.109543,-91.862946,-64.666908,-94.354774,-34.301731,157.991
3320000000,-6.1105123,46.304626,-67.106339,-139.52045,-67.477402,-143.33231,-11.679551,112.77383
3325000000,-9.4741201,-2.5749304,-63.640503,-171.20999,-64.087196,-169.62811,-22.756788,70.025902
3330000000,-10.629886,111.77776,-68.061432,88.489685,-68.841515,85.228577,-12.662942,121.91943
3335000000,-2.2294166,13.287529,-67.634064,-19.158339,-67.397499,-15.176329,-16.557446,76.668655
3340000000,-18.91552,146.43956,-64.781807,173.66165,-63.655067,173.79852,-15.21398,134.76591
3345000000,-5.6527076,39.433022,-63.82515,104.84914,-64.467606,103.4635,-16.331987,88.207603
3350000000,-8.8062849,-12.267119,-71.990623,-33.185959,-71.273277,-46.071949,-17.02593,113.20445
3355000000,-7.2775168,76.693192,-73.811783,-139.98808,-76.596008,-135.10983,-17.445742,114.03865
3360000000,-6.0603657,-22.79999,-62.331944,125.70006,-62.597206,125.31815,-15.744382,70.846909
3365000000,-8.1832638,74.188301,-65.878632,42.622944,-66.314537,43.533703,-17.815622,115.06526
3370000000,-5.9763618,12.924821,-62.98634,-57.478733,-62.797283,-54.418678,-13.589289,76.431023
3375000000,-12.600552,-15.871018,-73.978531,-172.61057,-78.023804,-165.79247,-21.903175,111.59129
3380000000,-6.7710853,52.425198,-70.477806,-28.03632,-70.882271,-28.750473,-13.005905,97.103119
3385000000,-11.629429,-23.38509,-76.545067,-1.2436186,-76.03791,4.4748969,-24.671438,36.358837
3390000000,-8.348444,31.809258,-63.454891,-163.16519,-63.747108,-162.1413,-13.096759,97.493965
3395000000,-8.509984,25.918665,-67.380356,145.14168,-66.373138,150.63315,-19.30652,49.225643
3400000000,-10.616462,-39.666222,-71.476028,36.219818,-70.726845,44.416393,-17.544044,102.62425
3405000000,-7.262466,31.219469,-62.888115,-27.641344,-62.537552,-23.338854,-15.122559,57.302761
3410000000,-12.354881,-2.5523422,-65.592552,-101.93439,-66.58831,-100.44832,-21.351147,105.60561
3415000000,-8.9145842,15.437751,-69.676575,101.77112,-68.300629,98.921867,-14.21728,72.720657
3420000000,-6.3733206,6.7679944,-77.152229,38.211277,-75.89193,27.754896,-21.96253,83.971207
3425000000,-28.668867,160.99789,-64.982346,-162.36502,-64.420319,-159.59641,-18.41127,86.026627
3430000000,-3.5578833,7.918756,-64.923775,166.09061,-64.932716,160.69662,-17.553829,47.263439
3435000000,-16.494316,-88.477562,-58.177124,41.73196,-58.098915,42.763649,-21.014952,120.32648
3440000000,-6.9935451,36.965614,-64.021088,-37.935459,-63.598633,-39.86491,-16.326895,33.263912
3445000000,-4.6824713,-27.050543,-62.545132,-155.355,-62.05336,-151.36198,-21.512569,82.134529
3450000000,-12.434192,71.870956,-81.649208,97.104912,-78.754341,141.88605,-16.506054,75.338364
3455000000,-6.1287394,-25.534008,-63.616867,-44.231514,-63.996193,-41.568489,-22.197199,9.4817667
3460000000,-14.676426,47.35318,-64.611855,-157.91554,-65.365341,-153.28464,-14.902701,91.962265
3465000000,-6.4178772,5.26443,-57.884495,142.5759,-58.156036,142.6906,-24.020422,-13.3214
3470000000,-8.4816933,-55.583199,-63.384663,16.076056,-63.308846,18.997208,-18.494062,90.094925
3475000000,-8.0817976,46.015507,-68.430504,-14.563008,-69.602432,-17.600073,-22.734177,48.688213
3480000000,-7.3680806,-40.5303,-65.493294,166.18826,-65.492233,166.60551,-41.043934,93.733177
3485000000,-10.112067,6.7977629,-69.360565,41.014599,-68.909927,40.397514,-15.538069,55.675259
3490000000,-10.037991,12.432029,-64.317856,-34.623699,-63.835224,-39.4375,-31.528694,-178.46591
3495000000,-10.185389,-55.177715,-66.981354,-100.59155,-66.27594,-104.05966,-19.115717,47.844978
3500000000,-7.8053689,17.319563,-61.511326,96.583023,-61.52441,96.022179,-20.754429,76.114662
3505000000,-10.708084,-35.558289,-67.649017,30.4405,-68.976112,16.555927,-26.03157,160.27519
3510000000,-16.107059,-26.713352,-65.071083,-56.385231,-64.417137,-51.109848,-17.953217,51.922516
3515000000,-4.3090148,3.0226209,-69.010468,152.07024,-68.246117,156.32074,-26.167847,-160.77679
3520000000,-9.7351427,-122.64072,-77.746536,155.80191,-80.62059,136.66939,-18.110275,61.102428
3525000000,-6.0169277,18.743486,-61.044815,-60.294281,-61.248493,-58.470913,-24.135073,-17.868128
3530000000,-7.0178847,-47.872334,-67.268829,-170.08379,-67.41539,-169.86136,-14.843602,110.77263
3535000000,-18.111547,36.864582,-63.360535,135.81628,-64.216309,130.14452,-19.924866,-24.941589
3540000000,-4.8068533,-34.001869,-70.994934,128.76555,-71.388573,115.66596,-14.681108,121.4797
3545000000,-16.639734,100.49418,-68.378654,-135.57964,-67.457466,-143.45605,-24.472086,4.7851963
3550000000,-5.1142297,-19.168262,-75.528458,80.917549,-76.641197,119.53773,-23.40881,139.20291
3555000000,-16.94486,-58.375755,-63.318993,38.628426,-63.017864,37.294258,-20.07217,70.989021
3560000000,-10.125031,1.3117524,-74.361282,35.612328,-76.564835,27.499012,-32.433304,-115.7135
3565000000,-8.7483158,-68.264725,-72.148529,-102.20826,-73.958084,-84.054619,-19.54007,91.00634
3570000000,-9.8730755,20.770779,-71.28392,6.5280704,-73.534927,10.914333,-22.874926,34.737633
3575000000,-11.060953,-40.547115,-68.807884,66.621178,-68.829269,73.481773,-19.339792,131.55832
3580000000,-11.637081,-51.090458,-95.467369,29.921112,-81.58342,34.175148,-17.96756,49.190845
3585000000,-8.1318092,5.7396903,-69.819633,-36.894478,-69.381874,-27.84811,-20.278572,163.46602
3590000000,-8.0839844,-90.030647,-63.79813,77.303848,-63.901833,78.511398,-21.06698,63.503433
3595000000,-10.386475,19.878771,-69.675629,73.56131,-69.999199,78.769821,-27.210339,58.365284
3600000000,-8.6482677,-27.018705,-69.72625,-114.16751,-72.343063,-105.4361,-18.170269,131.78952
3605000000,-11.704605,-73.300896,-65.742493,-164.77483,-66.275467,-176.79488,-18.201492,8.6324167
3610000000,-7.3627295,-5.5768895,-67.693657,83.390999,-68.390839,91.216934,-17.949572,125.19548
3615000000,-13.844505,-112.06127,-68.085564,7.0369124,-68.761627,5.0106297,-19.051224,50.276386
3620000000,-8.8919134,7.610827,-68.360985,-141.76465,-68.31958,-142.15825,-29.587845,-179.59111
3625000000,-5.0464711,-54.943962,-89.544556,-70.91703,-89.660294,146.31252,-15.225269,84.797203
3630000000,-11.874793,124.02233,-64.405746,16.422554,-64.729576,8.8913565,-23.063322,-95.690346
3635000000,-3.3706412,-37.384792,-71.337013,-107.10281,-70.828964,-118.65306,-15.402751,80.76329
3640000000,-21.126564,-122.77805,-64.284859,-151.37961,-64.257385,-153.43536,-41.862602,166.0921
3645000000,-7.6812553,-29.68141,-70.978233,4.8722734,-70.366325,-1.2486807,-27.767984,42.73724
3650000000,-12.915833,-79.938675,-67.020493,19.278666,-67.543785,16.478546,-17.207922,68.946899
3655000000,-7.4358706,15.124788,-67.254112,-169.90717,-66.947128,-171.12108,-29.875542,-117.07297
3660000000,-4.3809881,-71.718109,-62.544025,136.15901,-62.808994,138.13239,-16.193048,80.840668
3665000000,-14.830023,54.185799,-78.329185,36.192051,-75.865677,60.142735,-26.920525,-23.606579
3670000000,-9.8467579,-32.8494,-79.939735,88.133339,-78.387695,94.188728,-17.017807,121.09467
3675000000,-10.082125,-67.896301,-63.398697,-166.16527,-64.26342,-168.26996,-17.301737,-10.499231
3680000000,-9.8463955,-0.072966032,-68.045303,70.739464,-66.302841,68.934464,-15.580258,142.06758
3685000000,-7.2904091,-75.692993,-65.069519,-41.643745,-64.974258,-41.435833,-16.90921,-17.48727
3690000000,-17.294367,-5.6546111,-72.581757,-87.662285,-72.895569,-81.32386,-22.080627,122.34255
3695000000,-6.5514646,-15.577043,-74.392998,172.15686,-73.889008,172.44125,-20.780409,49.96637
3700000000,-7.3230319,-111.52612,-70.009956,35.481995,-69.114502,34.825993,-31.325441,-81.886322
3705000000,-5.6434355,6.7860436,-61.154587,-58.221375,-60.797829,-60.623177,-17.405993,72.716766
3710000000,-8.0506439,-98.38633,-69.033951,20.938902,-70.049286,18.336506,-30.071699,-129.5813
3715000000,-10.661541,-5.9640074,-83.656021,166.12331,-82.320023,153.06467,-24.363537,70.953606
3720000000,-5.0069308,-52.427753,-60.038803,-57.97802,-60.264721,-58.587132,-24.329062,98.802834
3725000000,-13.368819,152.37297,-69.231735,-68.263496,-69.383652,-72.122383,-25.796591,-101.64402
3730000000,-2.1867595,-30.069304,-64.27317,161.22427,-64.900444,155.30954,-17.519161,65.844299
3735000000,-10.673925,-133.08942,-70.09481,141.68512,-70.308502,141.85188,-31.794466,-135.8264
3740000000,-9.407444,6.0420666,-75.032265,163.98257,-72.433311,142.02141,-21.507471,123.88316
3745000000,-3.6533568,-66.768402,-64.010689,160.16139,-63.912663,166.04445,-21.997467,-2.9437957
3750000000,-16.772152,64.625259,-68.617241,57.964314,-68.584724,69.777328,-15.916521,158.58977
3755000000,-6.7192087,-72.494774,-66.45105,64.000587,-65.739433,67.615257,-17.611694,4.9135375
3760000000,-11.599695,-27.788685,-68.665733,-97.741508,-67.550873,-108.05204,-16.486801,168.8528
3765000000,-8.1202593,-45.523552,-67.051178,17.827774,-67.267769,22.884363,-20.471169,24.091543
3770000000,-7.3516531,-95.086006,-61.920361,54.394768,-62.701431,53.79945,-27.59675,-138.95523
3775000000,-8.6662626,0.64492768,-77.277069,130.50934,-85.116257,142.23134,-16.632776,93.09742
3780000000,-7.4471936,-75.826202,-66.455475,-104.03053,-67.51841,-101.91231,-24.136301,-108.60001
3785000000,-13.277985,-77.108353,-64.560577,71.319016,-65.097229,69.950256,-17.711027,98.789452
3790000000,-5.5999765,-18.228678,-72.353035,-106.95484,-71.708611,-106.44206,-22.82523,119.54757
3795000000,-3.8478084,-114.48022,-66.619095,-109.53921,-66.67572,-110.22976,-24.13146,-146.41266
3800000000,-7.7804871,15.52453,-69.008003,-124.54138,-67.505615,-117.84993,-16.230946,92.430122
3805000000,-3.8879852,-72.286987,-79.858124,85.991676,-77.861519,96.000328,-19.825287,-109.26128
3810000000,-17.392773,168.42078,-64.77581,-76.179726,-64.654549,-74.087303,-15.133238,103.01077
3815000000,-1.3478056,-43.363777,-70.392632,98.687981,-70.967148,109.90399,-26.237438,-22.340672
3820000000,-7.7790008,-165.40495,-83.245689,-18.246357,-88.575699,35.822063,-14.490907,141.55698
3825000000,-4.1955094,-29.706846,-65.925125,38.334774,-65.761948,37.619087,-15.993449,21.483761
3830000000,-6.8175278,-106.75652,-74.9076,-21.580387,-74.32412,-25.736523,-12.581125,154.10538
3835000000,-12.903758,3.8788645,-66.571693,177.59157,-65.492691,176.77405,-23.515339,42.889553
3840000000,-2.056289,-75.520668,-63.118877,-61.767906,-63.932842,-61.971317,-24.972996,165.2384
3845000000,-16.540276,166.33702,-67.794258,64.33519,-67.175224,58.993259,-16.447922,107.45007
3850000000,-4.8433247,-51.908886,-68.882217,-172.72926,-70.247353,-163.97481,-29.175009,-39.146885
3855000000,-6.3889327,-104.71953,-67.367149,113.40999,-66.898689,106.9357,-15.804534,105.81605
3860000000,-12.152546,-10.110221,-68.171768,-31.506075,-69.580811,-36.610809,-24.243288,75.806114
3865000000,-2.898978,-83.091652,-70.395279,-5.6537719,-70.31414,-6.1710272,-24.221991,102.71544
3870000000,-19.48955,-118.69649,-64.983376,-95.800545,-65.806267,-84.077423,-14.637566,106.36607
3875000000,-5.6240673,-54.277649,-86.514626,79.158447,-85.776123,-47.910675,-33.105648,-72.993439
3880000000,-5.9067526,-126.54311,-69.813423,-94.216064,-70.584816,-83.470589,-15.361824,114.63023
3885000000,-5.6253395,-11.574523,-74.130638,49.604855,-74.721832,60.637653,-19.288725,32.782276
3890000000,-0.62669587,-111.06487,-64.431633,116.46845,-65.18927,113.17666,-15.927814,165.58542
3895000000,-14.761839,84.497078,-66.67395,88.44577,-65.644684,97.660873,-11.524396,29.939045
3900000000,-0.99785215,-57.325459,-65.660149,-63.291622,-64.990059,-53.367649,-13.291361,164.10248
3905000000,-3.9931765,-147.81633,-71.082359,-9.7060843,-68.879044,-2.7378016,-14.030504,39.29567
3910000000,-4.1324625,-17.483038,-62.397972,176.89606,-62.490971,173.47525,-20.725029,137.68994
3915000000,-1.9110897,-124.97622,-67.375473,-137.24071,-67.067345,-129.88445,-16.537209,86.548302
3920000000,-9.6333675,-2.2434821,-69.385208,-155.93584,-68.708435,-159.47679,-25.697725,11.688368
3925000000,-1.8739625,-88.454094,-61.985497,117.18642,-62.985889,116.33837,-15.918009,101.45261
3930000000,-12.108028,170.0481,-67.232559,108.38424,-66.341164,113.73823,-30.081188,30.611347
3935000000,-2.7424946,-70.959885,-64.347435,-25.86397,-64.783562,-26.81843,-21.405371,37.101871
3940000000,-10.986,-132.07144,-66.917915,-50.8507,-68.399704,-42.727173,-13.837835,91.924599
3945000000,-11.048214,-81.554031,-72.143875,78.524803,-71.968872,82.931381,-20.961948,-44.192177
3950000000,-2.5645077,-86.354233,-68.857338,141.58902,-69.16185,133.80177,-12.179527,86.652184
3955000000,-11.226535,-175.37016,-67.9636,-164.11859,-67.786018,-167.13005,-24.788891,-62.539631
3960000000,-5.0811467,-67.385254,-68.17984,64.197052,-67.14888,63.634304,-18.263433,81.893623
3965000000,-6.1427541,-131.79701,-63.279968,53.515316,-63.730698,57.23037,-18.658922,50.888508
3970000000,-11.956126,-34.087212,-65.624001,-22.181068,-64.65522,-21.876827,-23.690008,-170.08923
3975000000,-0.068215914,-115.44933,-66.884201,-93.376755,-66.865685,-90.183792,-13.153177,39.04705
3980000000,-14.67024,84.735939,-60.492371,-97.902649,-60.868698,-97.709106,-25.596373,156.46971
3985000000,-2.393198,-85.316818,-65.156303,-107.75111,-65.038513,-105.31026,-18.029049,55.064793
3990000000,-7.1268511,-163.85072,-62.937401,-131.22453,-63.546288,-134.59908,-23.544695,12.009683
3995000000,-4.7726154,-52.78056,-70.245316,120.24493,-72.804291,113.4299,-17.875708,114.77716
4000000000,-1.5178915,-152.10985,-63.225769,35.36306,-61.979298,34.188526,-18.710768,-8.450881
END

