!CSV A.01.01
!Keysight Technologies,N5247A,US56070710,A.10.64.09
!Date: Saturday, November 19, 2022 23:07:34
!Source: Standard

BEGIN CH1_DATA
Freq(Hz),S33(DB),S33(DEG),S34(DB),S34(DEG),S43(DB),S43(DEG),S44(DB),S44(DEG)
3000000000,-12.364698,169.3208,-43.215115,-77.086998,-43.373428,-76.754562,-18.11924,-161.53064
3005000000,-13.791164,82.494736,-43.602829,177.74634,-43.611645,177.22348,-17.456871,-156.0838
3010000000,-12.596406,142.39223,-43.281395,71.419212,-43.28281,71.656761,-15.459657,-169.27406
3015000000,-12.387144,155.86171,-44.042171,-33.985897,-44.176807,-34.077972,-15.890924,-156.19502
3020000000,-18.885649,79.933723,-43.978977,-142.84798,-43.945534,-142.29826,-16.449965,-177.25539
3025000000,-7.9814734,136.23334,-43.33746,122.48826,-43.390427,122.25507,-14.627194,-162.62552
3030000000,-28.914745,86.896637,-43.607433,17.093204,-43.665047,17.340311,-18.562153,178.03529
3035000000,-12.829523,99.709183,-43.507851,-89.208282,-43.432026,-89.285927,-14.120667,-174.47008
3040000000,-9.0259066,142.28673,-43.597794,169.15108,-43.656181,169.08896,-18.30481,174.37706
3045000000,-26.173502,123.36839,-43.572521,62.674095,-43.70715,62.82354,-15.68971,173.33455
3050000000,-9.8315668,100.54195,-43.890366,-45.455399,-44.007175,-44.961906,-14.353973,166.10547
3055000000,-10.624831,136.97369,-43.291199,-145.3103,-43.337776,-144.94699,-16.104212,-176.49054
3060000000,-18.336802,57.190193,-43.380695,114.80589,-43.407482,115.0705,-14.908069,157.49156
3065000000,-7.963717,117.63885,-43.715149,10.412973,-43.662437,10.782522,-15.643896,-176.27304
3070000000,-16.957827,148.60826,-43.657894,-94.432243,-43.670162,-94.260826,-16.920664,152.66112
3075000000,-10.843925,86.764145,-43.980068,159.24573,-43.990643,158.5302,-16.242912,163.29097
3080000000,-7.3219848,117.00809,-43.387177,55.534111,-43.34214,54.854565,-16.381701,154.52518
3085000000,-23.115675,-166.80717,-42.961201,-48.770077,-43.121353,-48.800053,-17.091381,151.66425
3090000000,-7.5426259,89.976753,-44.153008,-149.70107,-44.133442,-150.33635,-13.864515,147.8873
3095000000,-13.343331,143.79797,-43.660877,106.93646,-43.720287,106.89114,-17.912853,168.0575
3100000000,-12.379672,100.40596,-43.773609,0.11934485,-43.876118,0.48585543,-14.638548,139.76015
3105000000,-8.8512926,87.876747,-43.9505,-103.98203,-43.884079,-103.96045,-16.828556,168.43513
3110000000,-10.119176,137.8958,-43.122192,150.52376,-43.211975,150.16971,-17.275806,131.94182
3115000000,-12.696892,42.696327,-43.273624,50.541271,-43.266476,50.303143,-17.184092,153.82088
3120000000,-7.5121374,112.86523,-43.884373,-53.188046,-43.936321,-54.251675,-16.673744,129.34808
3125000000,-15.72919,122.96879,-44.070347,-160.17856,-44.106537,-159.24057,-17.450089,147.64609
3130000000,-8.6329136,69.541519,-43.796856,93.73658,-43.74472,94.081017,-15.470236,126.30914
3135000000,-8.9971638,108.54453,-43.090801,-8.8124495,-43.10894,-9.8527689,-17.579144,161.00372
3140000000,-15.94012,92.491501,-43.04612,-113.38541,-43.05545,-112.78796,-15.944369,119.37681
3145000000,-9.4494495,66.935257,-42.899834,146.53949,-42.991314,145.93416,-17.3262,152.36496
3150000000,-8.1338396,123.52404,-43.864033,40.78194,-43.842834,40.019081,-18.175529,137.08626
3155000000,-11.398849,56.448017,-43.442036,-68.418808,-43.467754,-68.373863,-19.309923,123.04249
3160000000,-8.1853237,85.727707,-42.925346,-169.73627,-42.985672,-170.68015,-16.458773,137.06717
3165000000,-11.982368,98.156464,-43.11129,86.047073,-43.188416,86.308426,-19.129126,115.83174
3170000000,-13.233415,72.980911,-43.057571,-20.116697,-43.177307,-19.075968,-15.562365,134.48102
3175000000,-8.6917915,93.059227,-42.99131,-119.56995,-43.096924,-119.67738,-18.042315,138.12228
3180000000,-16.174362,73.765808,-43.636723,134.24353,-43.6754,135.11185,-17.954315,126.83774
3185000000,-6.9057627,62.343098,-43.427437,24.495928,-43.461739,23.863031,-16.94525,149.07849
3190000000,-10.727785,88.838943,-42.564491,-75.131012,-42.585148,-75.047997,-20.491844,134.71112
3195000000,-14.375049,58.746712,-43.202038,-179.32819,-43.302628,-179.29071,-22.080652,121.34637
3200000000,-7.0533862,68.203934,-42.872387,73.302734,-42.950554,72.254089,-15.774257,122.32324
3205000000,-9.6317539,113.24827,-42.480461,-26.171209,-42.594791,-26.726196,-25.463411,132.71796
3210000000,-8.6148281,30.293734,-43.827454,-134.14362,-44.011879,-133.86696,-14.062922,115.71017
3215000000,-9.0433102,76.65799,-43.982162,121.8622,-44.091713,121.62156,-21.614025,138.09148
3220000000,-12.238493,79.282326,-43.819408,16.588999,-43.898666,16.998531,-15.673359,127.71133
3225000000,-9.4768267,39.363022,-43.669426,-87.332024,-43.78698,-87.315292,-18.848137,128.72063
3230000000,-8.0711975,82.360916,-43.82832,171.64638,-43.86129,170.78674,-18.099344,143.92757
3235000000,-13.351428,66.077393,-43.936653,66.413483,-44.030762,66.609444,-20.368418,110.36613
3240000000,-5.2232513,41.775639,-44.219006,-40.557896,-44.273643,-41.86095,-16.763103,126.28344
3245000000,-13.535926,110.7965,-43.958664,-146.28798,-44.006756,-146.63573,-20.14385,137.25237
3250000000,-9.8103628,40.730766,-43.789761,107.36519,-43.745235,107.82429,-17.158367,102.25383
3255000000,-7.9279327,60.275581,-43.794647,5.191236,-44.006882,5.2601933,-17.553598,137.25499
3260000000,-11.553299,75.403587,-43.941498,-98.135201,-44.039276,-97.285728,-16.082758,109.83617
3265000000,-8.1835451,21.533401,-44.374638,155.44427,-44.408424,154.64478,-18.436798,136.03885
3270000000,-7.0516958,69.918617,-44.328106,50.244404,-44.483315,48.733631,-16.665487,122.85706
3275000000,-17.391661,19.579107,-44.154194,-57.370907,-44.166954,-57.09272,-20.872438,107.73125
3280000000,-8.1004829,51.267796,-43.908833,-162.28618,-44.111763,-161.54474,-14.685868,118.80409
3285000000,-8.2474442,63.810898,-44.236561,95.27356,-44.4604,95.424759,-20.567875,119.35137
3290000000,-13.991937,-2.0243559,-44.525539,-11.230096,-44.688919,-10.441251,-15.859495,108.09323
3295000000,-6.4317646,32.512436,-44.927921,-117.96654,-45.029213,-118.13689,-15.672922,116.38245
3300000000,-10.675433,74.754951,-44.690834,135.82657,-44.786594,136.77501,-17.617151,122.1943
3305000000,-10.150573,7.3340278,-44.508488,29.776247,-44.53194,30.565329,-16.511248,111.42153
3310000000,-7.4353342,51.914795,-44.473831,-74.681854,-44.631565,-74.578369,-16.911757,123.43499
3315000000,-12.254511,48.884232,-45.052589,-179.24181,-45.209225,-178.5918,-20.117619,98.102806
3320000000,-9.1296902,11.689593,-45.098888,72.322083,-45.343517,72.083687,-15.137692,105.687
3325000000,-8.9106951,40.424755,-45.548233,-35.298786,-45.720806,-35.550751,-19.403175,101.16679
3330000000,-22.986986,-21.960693,-45.533127,-143.15091,-45.643139,-142.53725,-14.119199,99.448341
3335000000,-4.6444798,24.789297,-45.647858,113.4999,-45.635159,113.05164,-17.986618,104.72941
3340000000,-11.750131,41.215267,-45.730297,5.7747989,-45.94088,6.3658299,-14.637291,108.74503
3345000000,-12.010553,9.784234,-46.386707,-101.40977,-46.370941,-100.84254,-19.356316,91.91581
3350000000,-6.1063499,14.667287,-46.611519,150.2616,-46.792759,149.79088,-15.042642,109.03208
3355000000,-14.098102,72.696945,-47.048553,40.968353,-47.075382,40.980743,-21.929821,78.257515
3360000000,-9.5794544,-11.452509,-47.074692,-67.090111,-47.146156,-67.433044,-15.037541,93.307243
3365000000,-6.4010968,30.509134,-47.727764,-175.66911,-47.901836,-175.2487,-19.001732,71.937019
3370000000,-12.259817,3.2937963,-48.384415,75.751694,-48.35178,75.623375,-14.968656,90.087921
3375000000,-7.0499101,3.4982362,-48.994705,-33.158176,-49.155552,-33.177124,-16.774017,83.726707
3380000000,-10.892846,44.708935,-49.526855,-149.93379,-49.764236,-150.1989,-17.34693,96.257668
3385000000,-15.786859,19.642902,-50.225468,97.70356,-50.259895,97.586319,-17.823185,73.748802
3390000000,-5.4092855,-0.11661913,-50.577435,-11.550628,-50.898052,-11.779318,-17.150156,85.926659
3395000000,-14.546903,66.04599,-52.324352,-124.51869,-52.447712,-123.11976,-18.596792,75.009964
3400000000,-6.9456773,-21.108269,-53.839645,120.1431,-53.457764,119.0134,-17.246248,72.149773
3405000000,-10.187812,-0.78872162,-54.041527,-5.0655308,-53.801727,-4.6256328,-19.270403,69.960785
3410000000,-11.435304,45.397327,-52.764194,-118.45421,-53.112068,-119.89027,-15.543245,69.374352
3415000000,-5.5595961,-22.968727,-54.285183,127.78516,-54.287964,127.10351,-19.237743,70.556473
3420000000,-9.2790184,40.858181,-54.977188,5.4518709,-55.108116,4.4391384,-16.881618,85.74482
3425000000,-11.993121,-19.546865,-53.603588,-121.87101,-53.703064,-120.3558,-21.061098,47.320038
3430000000,-7.7526984,-13.881566,-53.034405,123.08631,-52.904842,125.69723,-17.739393,82.017853
3435000000,-14.340142,19.873787,-51.756947,10.044224,-51.790466,11.218735,-21.848249,44.978321
3440000000,-11.328043,-21.245174,-51.973385,-97.325447,-51.830544,-97.453415,-20.789007,55.570461
3445000000,-6.1533422,-1.2664725,-51.610855,146.19327,-51.388218,146.80634,-16.852638,53.54525
3450000000,-13.020781,-1.3745341,-51.291851,32.571964,-51.366535,31.500916,-22.458775,64.304245
3455000000,-10.081499,-44.260422,-50.164146,-77.410622,-50.08601,-77.413109,-18.455013,58.363495
3460000000,-8.5594625,16.102915,-49.541534,174.74075,-49.482552,174.46632,-19.925032,69.193588
3465000000,-12.530066,-26.156567,-49.423687,66.934242,-49.521374,68.119202,-25.803911,63.467274
3470000000,-8.3717527,-24.155704,-49.429153,-41.421097,-49.328487,-41.952293,-18.58927,61.154591
3475000000,-8.4557734,7.6142397,-48.84724,-152.10562,-49.149792,-151.80211,-34.616947,93.538918
3480000000,-12.434303,-71.839851,-49.134342,99.360138,-49.091564,99.555351,-20.217859,42.800217
3485000000,-5.536129,-4.9703412,-48.365623,-7.8521581,-48.412327,-7.8468904,-21.837908,38.447205
3490000000,-20.680479,-21.690559,-48.142204,-115.62286,-48.140369,-115.42017,-22.365753,101.70596
3495000000,-9.8958473,-13.507247,-48.200356,138.14131,-48.282379,138.17117,-18.038998,16.085859
3500000000,-6.4560714,-27.274076,-48.207371,29.823694,-48.409267,30.714941,-18.40691,109.86285
3505000000,-20.72851,72.161972,-48.462128,-76.160187,-48.537018,-77.1408,-24.435205,20.360914
3510000000,-5.6848636,-42.277191,-48.872852,174.01028,-48.813206,174.43053,-22.603468,97.041649
3515000000,-10.97032,14.110692,-48.375237,65.568092,-48.335396,65.107735,-29.050224,50.390034
3520000000,-15.719141,-54.442104,-48.472687,-40.008736,-48.523697,-40.145298,-26.897261,30.056347
3525000000,-8.2952414,-29.588446,-48.470955,-143.97575,-48.413387,-144.51894,-20.755861,58.740162
3530000000,-9.4662809,-14.985999,-48.848228,106.17107,-48.952518,105.90538,-22.487236,88.630936
3535000000,-13.313081,-73.849327,-49.164925,-3.690099,-49.201603,-4.3057203,-26.991856,44.763466
3540000000,-8.4465961,-24.788221,-49.352085,-116.19223,-49.46233,-115.79015,-17.965099,96.758675
3545000000,-13.029785,14.690767,-49.552456,141.75879,-49.725193,141.0437,-38.57814,-113.81657
3550000000,-7.488234,-55.400307,-50.833199,31.497978,-50.795998,32.203484,-19.6675,85.535469
3555000000,-11.576916,7.7263837,-51.740471,-79.717239,-51.793072,-78.516228,-44.861557,119.72572
3560000000,-11.023475,-49.628315,-52.482456,169.39404,-52.384586,171.07932,-23.12705,85.845131
3565000000,-13.034564,-79.848488,-52.110519,58.595119,-52.140823,58.79282,-25.421047,39.906017
3570000000,-6.2470002,1.945684,-53.903717,-50.053257,-54.266518,-47.270439,-22.37421,90.193077
3575000000,-11.960949,-108.24493,-55.768951,-161.23912,-55.757343,-160.87466,-22.592411,63.13002
3580000000,-7.3756609,-23.264494,-57.646545,70.617004,-57.805042,72.686401,-21.784782,94.812622
3585000000,-11.523324,-45.989361,-58.834682,-65.680656,-58.599922,-63.418316,-23.239304,98.091141
3590000000,-18.353374,-103.79018,-59.270069,178.6846,-59.220264,178.38666,-30.939289,64.639908
3595000000,-5.5440497,-26.81678,-60.124783,46.112247,-59.611225,49.213028,-19.682398,83.997429
3600000000,-35.739311,-44.247826,-59.063084,-93.446609,-59.210571,-92.915222,-36.296524,119.94165
3605000000,-6.4975982,-46.836071,-56.426319,147.86401,-56.190689,150.60721,-21.105398,55.06958
3610000000,-12.698554,-38.991955,-54.098244,39.987701,-54.220943,38.656166,-22.218006,79.987053
3615000000,-22.861444,-6.323379,-52.859428,-72.111755,-52.826488,-71.382591,-23.637033,79.120895
3620000000,-7.9844437,-53.120556,-52.245083,176.17079,-52.185932,176.6741,-21.747368,67.794365
3625000000,-10.641718,-26.58412,-50.821323,60.83942,-51.01516,62.616947,-22.313858,97.265709
3630000000,-26.552561,-99.944382,-49.702267,-47.91169,-49.4865,-47.404503,-27.615622,85.572975
3635000000,-5.8695087,-57.424603,-48.795586,-155.28558,-48.610882,-154.53769,-20.817003,53.603844
3640000000,-17.416632,4.0279193,-48.026562,97.18528,-48.097385,97.20697,-22.760357,143.57767
3645000000,-7.2944837,-68.104858,-47.732109,-10.512181,-47.866886,-11.570161,-18.33144,10.585745
3650000000,-17.465879,-27.722868,-46.840282,-119.2854,-46.943317,-118.62691,-19.704269,108.6097
3655000000,-7.548121,-17.38859,-46.793827,129.96141,-46.854725,130.28404,-21.98642,19.220966
3660000000,-6.4294362,-93.667,-46.231628,25.553879,-46.27824,26.746485,-22.568054,92.680901
3665000000,-7.7804198,12.692865,-46.021042,-80.630363,-46.073971,-80.599762,-21.735958,61.872826
3670000000,-9.9690666,-105.00655,-45.678196,174.73843,-45.656441,174.72708,-30.020294,121.35111
3675000000,-10.642277,-21.588671,-45.631676,68.356468,-45.596703,68.413666,-23.08103,48.140945
3680000000,-7.8709502,-48.436626,-45.309387,-38.908039,-45.304604,-38.055386,-25.237917,121.66063
3685000000,-14.567474,-109.37167,-45.057697,-145.51556,-45.111099,-145.81465,-23.547934,-33.482704
3690000000,-6.1295314,-38.635841,-44.679119,109.35219,-44.745358,109.36255,-19.714157,68.895988
3695000000,-23.330462,-40.363964,-44.553535,6.7087207,-44.470886,6.6738133,-29.885164,-26.261536
3700000000,-9.4804659,-69.113739,-44.282188,-98.733688,-44.299644,-98.255989,-21.877199,72.236351
3705000000,-7.9237285,-35.077015,-44.314995,156.2868,-44.3172,155.31891,-23.578442,29.661505
3710000000,-17.19767,-113.20317,-44.144871,48.504555,-44.133266,48.792797,-23.100882,137.40526
3715000000,-6.5561099,-53.25227,-43.804932,-56.765862,-43.702595,-56.901039,-19.984619,22.373018
3720000000,-11.029268,-49.759113,-43.559029,-160.45287,-43.668621,-160.08246,-21.043161,157.94095
3725000000,-25.51297,-82.075745,-43.50988,94.510101,-43.412315,94.531487,-22.173985,2.0257468
3730000000,-4.3140011,-57.611259,-43.621155,-10.129313,-43.773159,-9.3685131,-27.715242,89.902351
3735000000,-22.942719,23.863049,-43.45475,-116.73734,-43.495785,-115.67161,-24.51272,86.278664
3740000000,-7.618001,-64.509338,-43.186852,137.31104,-43.235962,138.0713,-39.850933,34.379269
3745000000,-8.7383432,-75.251709,-43.204617,33.230442,-43.230846,34.200592,-23.08342,94.131042
3750000000,-11.280609,7.5848713,-42.98904,-70.606178,-43.076473,-69.821495,-29.802076,155.57648
3755000000,-4.7042656,-110.28982,-43.106522,-175.34418,-43.011311,-175.34158,-30.09078,35.718239
3760000000,-6.4143958,-1.3025235,-43.169144,79.680946,-43.209114,79.977905,-21.932404,134.55415
3765000000,-4.9154234,-87.696594,-42.828941,-26.03215,-42.917004,-25.685249,-25.667086,-40.088425
3770000000,-14.649338,-109.28563,-42.899269,-129.29594,-42.971493,-129.48947,-22.208143,101.89871
3775000000,-5.2886229,-29.122473,-42.92989,125.39894,-43.155128,125.51303,-26.134003,55.349323
3780000000,-9.6800785,-136.84599,-42.793358,21.078068,-42.808346,21.192234,-24.136604,150.65715
3785000000,-5.1602521,-44.651852,-42.932869,-83.001854,-43.008495,-83.58609,-19.005003,55.61322
3790000000,-10.590402,-74.019768,-42.701767,172.3551,-42.822639,173.27655,-17.663185,158.81555
3795000000,-9.6748857,-108.98457,-42.813587,68.233353,-42.8946,68.219856,-25.876522,38.608231
3800000000,-7.5057626,-43.863884,-42.766319,-37.239811,-42.829086,-37.601685,-20.291382,138.36719
3805000000,-11.74195,-80.055519,-42.640049,-140.97238,-42.692814,-141.23143,-43.788059,66.034477
3810000000,-9.665472,-85.500938,-42.826019,114.89769,-42.875923,114.97073,-22.248177,88.595428
3815000000,-4.4417901,-61.686405,-42.670547,10.356376,-42.82991,10.892882,-23.830845,107.75416
3820000000,-13.599892,175.84567,-42.937603,-93.836868,-42.990799,-93.35556,-23.574722,113.01987
3825000000,-3.2029889,-60.063114,-42.775665,162.02095,-42.949436,162.39526,-21.168573,68.468521
3830000000,-14.397859,-127.82933,-42.5382,57.156677,-42.589573,58.321995,-15.849653,129.28348
3835000000,-8.7191401,-55.733318,-42.692574,-46.229923,-42.645996,-45.434635,-48.005169,-71.931664
3840000000,-4.1372738,-100.21652,-42.87048,-149.74207,-42.776482,-149.57344,-18.665445,110.82385
3845000000,-15.019688,14.444563,-42.524307,105.15122,-42.630749,106.17014,-30.089823,100.90758
3850000000,-3.2163019,-94.12838,-42.853378,0.36251524,-42.815819,0.64076114,-24.096222,104.58732
3855000000,-12.764154,-95.749222,-42.529037,-103.18324,-42.634171,-102.57574,-19.218727,69.141022
3860000000,-8.8872395,-60.837391,-42.664543,154.69444,-42.659466,155.16696,-22.199171,134.51028
3865000000,-6.0719357,-105.81352,-42.697746,50.495201,-42.802715,50.922897,-16.324644,60.634922
3870000000,-8.079463,-55.463829,-42.677788,-53.800156,-42.860924,-52.721661,-17.719986,141.48906
3875000000,-6.7828736,-115.62117,-42.829956,-159.04666,-42.810825,-158.14836,-20.250591,63.227791
3880000000,-10.249512,-93.314613,-42.574169,97.581558,-42.631821,97.813782,-22.423683,121.54282
3885000000,-8.0462551,-53.714199,-42.398827,-6.9941397,-42.495045,-6.1429138,-19.021248,83.181511
3890000000,-4.3805027,-119.08771,-42.571602,-107.68587,-42.560825,-108.63966,-37.796856,178.68382
3895000000,-9.3437176,-82.829643,-42.646152,147.42807,-42.808487,147.64281,-15.309422,56.87785
3900000000,-7.2515965,-83.814301,-42.715618,42.226158,-42.888771,42.337662,-20.160143,125.41598
3905000000,-7.8723755,-118.42222,-42.780628,-62.924969,-42.848305,-61.546383,-18.416481,39.547157
3910000000,-6.4327383,-56.202972,-42.345436,-165.29332,-42.604095,-163.96936,-16.335827,105.72173
3915000000,-6.4156833,-132.36905,-42.447552,91.576477,-42.532547,92.429825,-23.875486,45.434734
3920000000,-6.9096112,-74.366577,-42.50666,-10.542772,-42.63129,-10.627003,-19.869549,97.81498
3925000000,-6.9544821,-107.69344,-42.67543,-116.17151,-42.758148,-114.68182,-19.391117,56.200363
3930000000,-16.878672,-133.52014,-42.697311,138.44888,-42.704399,139.52353,-25.077333,151.90497
3935000000,-2.5538156,-93.264107,-42.48185,34.948284,-42.562317,36.150105,-14.300673,31.784809
3940000000,-23.274818,-118.15122,-42.441521,-68.441307,-42.488937,-67.904785,-19.179323,125.82816
3945000000,-4.1378961,-114.95911,-42.573002,-170.95003,-42.565552,-170.37793,-17.223833,28.050184
3950000000,-8.6669588,-92.280441,-42.683296,85.018723,-42.708466,86.165199,-17.483917,85.972763
3955000000,-10.611741,-103.31433,-42.640423,-20.453074,-42.606823,-19.161598,-27.314789,94.694618
3960000000,-5.7147012,-125.65804,-42.683067,-124.40892,-42.657757,-123.31869,-18.615395,37.163189
3965000000,-10.230532,-80.524704,-42.568245,132.33037,-42.681469,133.71191,-20.70783,101.31044
3970000000,-7.1463857,-130.74376,-42.578068,28.922638,-42.588257,30.017984,-24.800491,11.288271
3975000000,-4.5923462,-118.13472,-42.675877,-73.461121,-42.64024,-73.013824,-18.351339,35.570629
3980000000,-11.701532,-89.144058,-42.724205,-177.25188,-42.664375,-176.62082,-19.968199,96.055046
3985000000,-6.3937035,-132.80721,-42.591419,77.160828,-42.553368,78.254547,-19.355045,7.29775
3990000000,-9.740819,-109.85179,-42.724979,-26.603474,-42.703011,-24.770092,-19.487135,89.218155
3995000000,-7.3675475,-100.15549,-42.562706,-130.18819,-42.621181,-128.94891,-23.005848,41.703114
4000000000,-3.598135,-156.26956,-41.905323,126.05703,-41.897076,125.3894,-33.407555,9.7989912
END

