!CSV A.01.01
!Keysight Technologies,N5247A,US56070710,A.10.64.09
!Date: Saturday, November 19, 2022 21:40:58
!Source: Standard

BEGIN CH1_DATA
Freq(Hz),S33(DB),S33(DEG),S34(DB),S34(DEG),S43(DB),S43(DEG),S44(DB),S44(DEG)
3000000000,-11.826118,171.12085,-62.407715,-86.38002,-62.800743,-81.843407,-15.635077,-114.4313
3005000000,-14.652252,92.872299,-58.980049,177.74069,-59.329205,179.10789,-15.150253,-162.15546
3010000000,-11.269586,171.02473,-58.456318,123.58159,-58.462566,125.62169,-18.038813,-144.18539
3015000000,-11.372437,134.98177,-62.617222,44.667007,-63.031967,46.092129,-12.522717,-147.39874
3020000000,-30.055485,99.339195,-56.869671,3.0019896,-56.980228,1.6372873,-20.629583,169.02837
3025000000,-7.3874812,148.94392,-61.763016,-68.842735,-61.372215,-70.080162,-11.902405,-143.67043
3030000000,-20.590136,45.488728,-60.322247,-95.93132,-60.223011,-95.936577,-18.542397,169.34108
3035000000,-11.113789,146.93547,-64.393288,-114.72715,-64.272598,-113.38242,-14.39899,-144.5423
3040000000,-10.364248,127.69794,-57.303333,157.11157,-57.06012,154.69836,-13.58439,-176.98042
3045000000,-20.023806,-171.10931,-58.295368,87.066689,-58.522072,87.844749,-20.222633,-159.04527
3050000000,-8.9085264,116.16018,-57.450714,5.714282,-57.496403,6.6526532,-11.793022,-178.20518
3055000000,-14.529669,142.95232,-56.475452,-32.799286,-56.358383,-32.472443,-18.716904,-173.5479
3060000000,-14.639703,125.09494,-56.663326,-88.633713,-56.737114,-89.189301,-14.730444,-168.69861
3065000000,-10.641149,117.12453,-66.233185,-175.45221,-65.91732,179.63255,-14.272626,173.38045
3070000000,-12.001587,160.00821,-59.271976,-162.32333,-59.554497,-160.83492,-18.640245,-154.6949
3075000000,-10.205727,90.852425,-63.16293,135.30756,-63.057289,141.39543,-12.461166,166.01259
3080000000,-10.158907,135.90633,-62.184574,56.422848,-62.130962,57.161339,-19.37792,170.21819
3085000000,-15.427598,149.56206,-59.13092,-26.062424,-59.32309,-25.675735,-14.380168,-179.67509
3090000000,-8.9222174,98.15284,-54.881405,-75.709885,-54.862343,-75.836952,-15.153354,138.44524
3095000000,-11.980412,154.39824,-59.948612,-151.33846,-60.336788,-155.47406,-14.374489,-155.45522
3100000000,-10.49734,102.73434,-60.061111,144.99928,-60.21735,148.02699,-13.749228,136.77246
3105000000,-12.923878,109.80339,-61.582161,132.73413,-61.970261,132.40236,-16.487463,-161.66454
3110000000,-8.3863049,134.04274,-59.808105,103.83755,-59.19537,99.904549,-13.799022,150.93217
3115000000,-14.518368,50.963112,-58.129517,35.251472,-58.077034,36.673058,-21.71405,151.70915
3120000000,-7.0494614,129.74167,-54.840126,-33.424648,-54.742668,-34.528709,-14.044312,163.36684
3125000000,-13.953816,91.720604,-55.75267,-102.46824,-55.88662,-103.05054,-20.011541,143.19398
3130000000,-12.080606,104.88495,-57.608074,177.91907,-57.575733,179.08066,-16.315392,163.1537
3135000000,-7.6493282,107.63302,-57.425365,125.75562,-57.641396,125.48977,-14.975175,154.45085
3140000000,-19.49527,101.92451,-63.500374,67.330498,-63.114292,68.021904,-22.181467,147.23943
3145000000,-8.2364426,96.846474,-61.725719,24.517803,-62.057148,25.87912,-13.073667,152.29797
3150000000,-11.382702,116.42117,-58.263702,-12.911458,-58.013931,-13.209241,-23.768141,143.21349
3155000000,-10.773861,96.73056,-53.715645,-72.904305,-53.929329,-72.467896,-16.641916,160.67389
3160000000,-8.8968058,87.007103,-53.767895,-148.90099,-53.947495,-149.02536,-16.608524,131.64038
3165000000,-12.482276,117.05189,-52.866268,170.97879,-53.224625,171.16231,-18.605305,-175.77557
3170000000,-10.115276,91.072319,-55.442455,91.453613,-55.760601,91.774643,-13.779595,126.3188
3175000000,-10.472335,100.41208,-60.338821,49.459358,-60.23941,46.376141,-19.496674,-178.0143
3180000000,-12.594302,94.282219,-67.201904,18.492344,-66.861725,18.548704,-15.339394,139.24399
3185000000,-7.5296087,72.642082,-59.744858,-18.023012,-59.861328,-20.536129,-22.879402,140.29465
3190000000,-12.756055,108.68012,-58.928604,-97.224899,-58.995174,-97.163208,-15.151962,169.28781
3195000000,-9.6968451,86.135124,-58.056053,-174.29593,-57.95422,-173.86816,-21.983269,98.286285
3200000000,-9.0119143,72.848167,-52.470177,116.90823,-52.555576,114.9744,-14.840553,159.10684
3205000000,-8.805479,115.04568,-53.652409,55.172543,-54.007362,55.562126,-20.251141,129.0343
3210000000,-9.020031,38.046894,-63.778652,-10.372567,-63.702446,-7.0335565,-19.444849,133.57149
3215000000,-8.816165,111.67906,-67.549622,-62.087601,-67.007919,-66.631416,-14.968596,148.96255
3220000000,-7.8196597,66.478317,-64.296158,-33.42984,-64.676292,-35.95929,-22.794336,127.92484
3225000000,-17.259703,51.986374,-60.615009,-112.31348,-60.505169,-111.36832,-15.029189,159.97629
3230000000,-5.3932838,89.929436,-59.091309,-163.60469,-58.869503,-164.66495,-18.003448,125.1338
3235000000,-13.655428,43.123562,-57.99984,93.64994,-58.310535,96.307594,-19.55172,-176.77116
3240000000,-7.1068864,70.409798,-60.378754,15.498988,-60.38813,19.415466,-13.504828,116.28707
3245000000,-11.936532,78.958473,-61.256989,-72.379562,-61.385731,-68.731766,-20.043152,-153.80923
3250000000,-11.686262,75.381973,-68.683685,-108.75498,-68.111855,-109.88442,-14.15771,123.02791
3255000000,-6.3046069,63.409428,-82.452827,132.32928,-82.822594,151.98616,-23.989347,142.50986
3260000000,-14.57552,73.045868,-63.142658,-132.53708,-63.216354,-130.17755,-13.988248,149.57806
3265000000,-8.642169,58.682842,-56.799515,133.59547,-57.115269,136.89455,-18.630688,102.69917
3270000000,-7.5725608,67.334312,-59.428715,89.50692,-59.726597,91.028023,-15.399738,163.69493
3275000000,-17.092344,64.687286,-58.451981,2.3823862,-58.803562,4.2985334,-17.018147,108.98991
3280000000,-6.5778799,64.788834,-62.790993,-70.092331,-63.453743,-67.952225,-19.06489,145.71033
3285000000,-9.9279013,50.991779,-68.883469,-120.15488,-71.47818,-126.26585,-14.222627,143.6597
3290000000,-14.380211,68.44709,-70.423851,11.253253,-70.486565,15.62511,-20.912449,90.221771
3295000000,-6.9511018,41.507408,-62.708035,152.16309,-62.36945,153.96764,-12.710097,150.23206
3300000000,-9.6432772,87.034485,-63.304913,100.48785,-63.423775,96.025917,-17.656578,101.5578
3305000000,-7.3506842,26.949947,-58.372932,9.4029055,-58.520233,12.273249,-18.460651,160.16347
3310000000,-13.290167,65.076775,-62.754417,-28.237871,-62.690639,-27.090954,-12.98044,116.40009
3315000000,-7.568727,66.128365,-57.86359,-125.07624,-58.163731,-125.07164,-27.313904,-158.82347
3320000000,-10.23349,14.747163,-73.947899,-141.31047,-73.640663,-141.18993,-11.740992,120.15011
3325000000,-7.6092319,63.177261,-67.17691,-142.7713,-67.79409,-139.73561,-24.422541,92.782326
3330000000,-12.756501,-0.67666376,-60.07803,127.46179,-60.439075,127.31657,-13.164155,134.18007
3335000000,-7.7091084,51.087711,-63.000095,37.625027,-62.71117,32.55423,-16.363945,84.615189
3340000000,-8.1791019,40.87608,-62.024101,-23.406929,-61.799816,-19.546473,-15.504987,150.00609
3345000000,-14.418066,29.071348,-60.735081,-96.443863,-60.385056,-97.673882,-15.832708,96.344421
3350000000,-6.1225004,37.521923,-66.375481,119.72099,-66.906281,121.91455,-17.664837,126.29285
3355000000,-13.924708,23.266809,-65.339745,-112.39638,-65.208801,-118.28195,-16.600374,126.13804
3360000000,-12.363392,31.66728,-61.712204,145.30241,-62.522636,146.11894,-16.149839,78.047234
3365000000,-5.7141743,40.400051,-60.646336,76.150368,-60.215599,76.66938,-16.928427,136.02609
3370000000,-11.821115,3.7109115,-57.720497,7.2466712,-57.844818,4.6698422,-14.060853,81.559578
3375000000,-7.9366326,30.093384,-57.262463,-103.57745,-57.174656,-104.3884,-22.33028,133.11494
3380000000,-11.003148,27.146692,-66.84803,162.59029,-66.537018,160.12248,-12.854678,103.83033
3385000000,-12.121939,63.546017,-71.01252,42.818916,-68.917717,55.910061,-27.939611,39.363873
3390000000,-4.1044793,7.9263773,-62.243488,-165.10892,-62.915909,-171.37682,-12.536215,106.76422
3395000000,-21.279625,105.4886,-60.243317,124.58981,-60.874176,120.90186,-21.122248,49.970505
3400000000,-5.7562017,16.756327,-57.055378,39.340191,-57.065849,40.967007,-16.247353,113.17692
3405000000,-11.641231,-12.960695,-56.746708,-56.899509,-56.551849,-56.391357,-16.023052,65.666382
3410000000,-6.9610419,57.974388,-58.437805,-133.50983,-58.718472,-134.35236,-21.402555,123.32011
3415000000,-4.6388583,-19.491989,-66.003517,133.99617,-65.487427,137.20132,-14.521853,79.628922
3420000000,-10.646212,78.674843,-73.474045,-51.780346,-72.548187,-37.782349,-22.331724,99.514877
3425000000,-7.2051196,9.8807907,-71.237343,-128.16737,-70.242775,-126.55447,-18.499767,94.581955
3430000000,-11.029657,-9.1197882,-60.021717,79.834373,-60.183071,82.289291,-18.010387,54.503571
3435000000,-8.5899286,32.164581,-58.603111,-2.2817349,-58.766747,-0.80454141,-20.287237,130.83633
3440000000,-10.355615,-20.626148,-56.926075,-76.026802,-56.717358,-76.989586,-16.4048,43.193027
3445000000,-8.8606625,26.923985,-58.424129,-179.1631,-58.668186,-176.614,-23.200771,102.55169
3450000000,-8.2768927,8.8061304,-64.060028,95.444862,-63.84993,100.37674,-16.240442,82.723083
3455000000,-13.40427,-33.551704,-65.5802,-15.5252,-65.331276,-12.958629,-23.551937,7.5447826
3460000000,-6.8379993,29.677357,-70.979462,156.32826,-69.194588,172.30711,-14.655673,100.81618
3465000000,-9.3451252,-29.770582,-61.361019,94.531174,-62.175022,96.343185,-22.394543,-17.070194
3470000000,-12.961767,22.347382,-58.931946,-53.211884,-58.894184,-50.591709,-17.522058,103.88316
3475000000,-6.0601735,5.9667854,-55.98991,-107.59343,-55.853882,-108.92664,-21.896053,46.059769
3480000000,-16.650743,-67.802872,-57.431938,154.28033,-57.35371,155.44038,-29.582945,164.55028
3485000000,-4.2482109,9.7829676,-59.329277,77.230125,-59.243526,76.26049,-15.758924,59.965797
3490000000,-16.282291,-79.554863,-64.133057,-26.767637,-65.121796,-25.888391,-28.895164,-165.48462
3495000000,-7.436162,24.867676,-76.413567,132.18686,-75.882294,176.89326,-19.648741,58.65559
3500000000,-6.0660973,-29.416197,-63.850983,41.492565,-64.114571,39.119442,-22.625219,75.601677
3505000000,-15.462736,81.800064,-57.44305,-64.127319,-57.667728,-65.116577,-24.098843,167.72404
3510000000,-4.602675,-21.646011,-56.994228,-131.6636,-56.780022,-131.78291,-17.345135,51.220753
3515000000,-16.970743,22.836632,-56.789196,124.90096,-57.264187,123.0052,-23.343472,-157.52278
3520000000,-10.270074,-1.8180995,-60.356308,37.242138,-60.570435,33.949883,-17.277622,70.609543
3525000000,-9.2188501,-34.602184,-60.707062,-76.062286,-60.913765,-77.979652,-24.350294,-38.686924
3530000000,-9.9482279,18.459982,-63.424793,-171.54765,-63.881527,-173.45358,-14.546835,117.19514
3535000000,-9.3792,-39.720692,-64.507759,-17.683784,-64.231277,-19.322151,-19.013401,-30.823429
3540000000,-12.152229,-7.1844139,-58.458828,-110.5451,-58.860088,-113.51421,-14.371073,128.97147
3545000000,-8.804039,8.2230797,-55.041618,-175.00038,-55.380611,-175.78487,-22.949427,3.2656629
3550000000,-8.7254744,-56.30035,-55.057487,91.611565,-55.728619,92.747025,-22.587484,158.34186
3555000000,-9.2990007,42.752983,-58.792561,20.831135,-59.015858,18.908762,-18.900293,75.506882
3560000000,-6.4019127,-36.96331,-63.780899,-124.87654,-63.716438,-127.44881,-27.07033,-116.63879
3565000000,-23.364901,-115.18417,-72.220795,33.366032,-71.042,44.151241,-19.257196,99.055641
3570000000,-4.1249356,1.5203259,-63.802448,-6.6244884,-63.202633,-7.6260428,-24.755825,38.631802
3575000000,-10.150007,-117.61004,-58.81842,-142.69476,-59.220692,-143.63919,-19.645563,146.22084
3580000000,-5.7720947,18.1201,-56.467213,125.39244,-56.411816,126.73385,-17.643991,53.734173
3585000000,-6.5397658,-53.749603,-55.393669,50.420418,-55.643524,53.713902,-20.171661,-176.56656
3590000000,-20.367176,99.513641,-58.843868,-35.65266,-59.085999,-34.668083,-18.83004,75.425545
3595000000,-4.0341082,-22.779696,-66.511223,-128.06592,-65.594963,-133.19576,-34.698341,34.89933
3600000000,-19.086439,-168.07669,-72.923126,-136.17271,-72.341606,-132.68605,-16.620394,137.99423
3605000000,-5.1685882,-10.060021,-60.57914,-79.907448,-60.580772,-79.079605,-18.003822,5.0103712
3610000000,-10.777958,-64.130936,-57.934895,-172.37283,-57.923939,-173.86499,-16.43458,138.62605
3615000000,-12.27974,34.245441,-55.378994,104.75468,-55.261139,107.25602,-19.315083,41.749691
3620000000,-6.7858534,-49.563297,-58.101997,11.079268,-57.936348,7.9976959,-24.536421,-174.16801
3625000000,-16.896597,3.1847084,-59.651638,-61.450912,-59.484421,-58.851185,-15.742373,84.391342
3630000000,-10.578567,-9.8456411,-62.643539,164.32603,-62.469566,158.11444,-23.090479,-97.096146
3635000000,-7.534081,-64.844536,-67.675987,72.594711,-67.746971,73.067642,-15.718063,88.501549
3640000000,-11.593927,26.43894,-65.925522,-93.274277,-65.626762,-89.248207,-44.927563,120.86156
3645000000,-5.9140563,-56.134899,-55.148521,138.13173,-55.138474,136.18999,-30.657812,72.331642
3650000000,-19.366693,53.529842,-54.593586,62.850822,-54.752575,64.616035,-17.049271,73.068207
3655000000,-4.3198442,-16.530363,-54.217327,-20.814898,-54.511448,-21.373184,-25.109533,-129.77808
3660000000,-8.4169321,-108.35529,-58.43325,-103.80962,-58.574486,-103.41233,-16.146208,82.457359
3665000000,-5.0259652,23.845764,-61.200203,143.32462,-60.549282,142.89178,-27.89065,-43.254406
3670000000,-6.3478498,-83.66404,-62.355003,-0.91970897,-62.047478,-1.9920927,-17.053911,124.50409
3675000000,-11.291554,29.861708,-64.322037,-121.16505,-63.897324,-127.61396,-17.356327,-6.9139891
3680000000,-4.6865754,-43.822998,-57.346619,123.81615,-57.099289,126.13223,-15.327511,148.24113
3685000000,-17.441437,-176.49498,-54.329754,30.016994,-54.752689,29.213846,-16.789299,-9.7875891
3690000000,-3.4597919,-16.66214,-54.904644,-53.40836,-54.897369,-56.025833,-20.666904,140.94952
3695000000,-13.166186,-104.2329,-55.380043,-138.34283,-55.187397,-138.18893,-21.18301,52.393471
3700000000,-9.7587223,-8.6917849,-60.155468,123.26891,-60.375027,124.74265,-28.397064,-93.094398
3705000000,-6.1575742,-48.020992,-61.683479,1.8660696,-62.179455,2.7143915,-17.530609,79.167946
3710000000,-21.019037,128.21535,-59.739151,-159.56398,-59.696331,-163.50334,-28.80035,-109.22964
3715000000,-3.8927419,-30.328209,-59.18885,101.84425,-58.502506,100.28603,-25.531361,89.985435
3720000000,-12.327563,-74.614296,-54.052734,11.536731,-54.271854,12.252843,-24.859713,85.623985
3725000000,-13.261514,0.69046605,-54.464237,-73.919731,-54.156467,-72.374001,-24.412397,-119.57877
3730000000,-4.9906902,-56.038006,-56.275227,-159.97545,-56.268131,-161.31917,-17.536377,70.174622
3735000000,-15.790309,64.006607,-58.226807,86.321053,-58.134651,87.36869,-25.538296,-119.71431
3740000000,-4.6840267,-38.523281,-60.08709,-26.304604,-60.323875,-26.042877,-21.218904,122.64254
3745000000,-10.168818,-90.300568,-62.027992,-152.18286,-61.995808,-151.28317,-21.577459,-11.959916
3750000000,-7.3695073,5.4215417,-59.09108,100.19308,-59.321003,102.03997,-15.433939,163.86412
3755000000,-5.3236094,-106.86083,-55.465504,-5.0092583,-55.151638,-6.0196447,-16.881319,4.5311503
3760000000,-4.6682811,20.58073,-54.511604,-100.51209,-54.920547,-101.17914,-15.871851,176.2413
3765000000,-2.2699723,-72.537544,-54.416756,169.7957,-54.648735,168.81367,-19.645798,32.972874
3770000000,-17.706858,171.44022,-57.909256,75.569122,-57.751022,77.543068,-22.748177,-131.30406
3775000000,-2.9000132,-21.7707,-61.254372,-32.789341,-62.08585,-33.618359,-16.56831,98.237823
3780000000,-8.9337378,-132.1264,-58.049305,-146.5392,-57.843311,-145.08432,-21.524782,-99.099892
3785000000,-4.285728,-13.518849,-59.647675,98.061264,-59.622952,97.363792,-17.710993,113.22958
3790000000,-5.5119805,-82.801361,-56.613201,-26.192297,-56.793362,-23.218304,-27.198723,117.10844
3795000000,-29.671112,-29.838467,-57.656155,-117.19703,-57.84721,-115.32052,-22.077448,-145.09624
3800000000,-4.3365703,-37.588455,-55.859333,149.677,-56.280491,149.63544,-16.317228,92.666206
3805000000,-12.231089,-87.042114,-56.338673,60.072189,-56.247925,59.065166,-18.483702,-110.20564
3810000000,-8.6189423,-40.95195,-55.067642,-48.133865,-55.142891,-48.278843,-15.315545,110.84999
3815000000,-5.185473,-71.239777,-60.039623,-165.4655,-59.130589,-166.7139,-24.86508,-32.315472
3820000000,-17.602207,68.556641,-62.039371,105.25509,-62.769096,103.05177,-13.830445,152.11736
3825000000,-1.9694383,-53.029488,-60.518368,-25.171196,-60.794323,-25.673868,-16.078228,20.230387
3830000000,-13.090589,-138.39116,-58.352646,-125.62999,-58.299187,-126.10416,-12.725379,166.00775
3835000000,-5.656631,-30.126251,-55.719292,124.31461,-55.038326,126.81521,-21.324511,48.679279
3840000000,-4.6243882,-102.82795,-57.165657,44.76878,-57.407948,42.860909,-23.546654,-172.57274
3845000000,-8.2131853,23.562088,-57.612186,-78.019005,-58.268036,-76.796883,-15.691807,117.20695
3850000000,-1.164269,-78.479362,-58.302399,-157.19576,-58.317734,-160.23129,-25.951099,-50.154392
3855000000,-19.182058,-151.05183,-56.930645,100.83329,-56.889973,104.16173,-15.048421,121.19163
3860000000,-4.5143728,-43.804268,-62.985409,-2.044265,-62.53104,-4.7432966,-26.231047,68.384834
3865000000,-7.8611732,-115.72283,-62.500252,-154.2227,-62.632317,-150.7919,-24.293667,142.90239
3870000000,-4.8103428,-24.794765,-58.2239,114.21244,-58.95116,113.63115,-15.029252,107.72105
3875000000,-3.7788062,-104.14405,-56.704426,7.7598763,-56.976852,9.8139668,-27.141941,-97.313187
3880000000,-18.209858,-43.47934,-56.484333,-63.657097,-56.546234,-64.499252,-14.797677,117.77139
3885000000,-4.7277317,-57.095276,-57.102062,-159.99474,-57.471127,-158.25656,-21.346405,32.199432
3890000000,-7.967927,-111.64568,-60.043598,73.684906,-59.917374,72.428352,-15.485415,166.84291
3895000000,-5.8255949,-50.24411,-59.551491,-2.1411402,-59.931408,-0.56481886,-12.329697,36.548496
3900000000,-6.0809097,-97.810547,-61.709877,-150.69203,-60.990734,-150.61635,-13.108367,175.61058
3905000000,-12.60541,-67.105232,-65.506393,111.50866,-66.363541,111.5294,-13.973403,48.757404
3910000000,-4.7241063,-57.541489,-58.76429,21.094986,-58.029297,20.592451,-21.077385,165.56824
3915000000,-7.4759641,-125.26234,-57.955467,-98.493507,-57.906723,-98.706871,-15.629746,92.622917
3920000000,-5.096715,-46.296799,-56.937126,177.42735,-57.013672,176.07814,-28.12534,-6.4978323
3925000000,-4.8268733,-116.81987,-57.666622,81.595657,-57.354023,85.156197,-15.412597,109.96026
3930000000,-11.406036,-5.2133512,-62.697914,11.849111,-62.633865,13.731464,-30.094357,26.465235
3935000000,-0.81396425,-91.676521,-70.871552,-131.9765,-71.381943,-130.99792,-23.993507,63.011864
3940000000,-26.803516,82.813896,-63.562923,121.84968,-62.84016,123.84544,-14.387309,96.150818
3945000000,-2.8904886,-87.203331,-59.239086,-14.387156,-59.204689,-10.376762,-22.441381,-50.691231
3950000000,-13.063614,-108.29087,-59.249271,-103.73397,-59.762592,-102.37282,-12.683792,93.244507
3955000000,-6.0501022,-59.614758,-57.218426,149.37842,-57.425457,152.03284,-24.699165,-46.937786
3960000000,-3.7328062,-120.90264,-60.445782,79.121674,-59.934383,83.853691,-18.264292,102.39429
3965000000,-12.133833,-38.203743,-56.087097,-16.525019,-56.277691,-17.437542,-18.014624,45.643681
3970000000,-4.0562901,-102.17305,-61.598633,-97.082321,-61.520763,-97.720726,-20.26532,-174.82983
3975000000,-10.356784,-114.18237,-74.759918,177.72148,-74.350586,176.96095,-13.093844,43.321442
3980000000,-4.9125056,-70.226799,-62.186211,-69.185852,-62.909973,-62.37352,-23.631266,175.7666
3985000000,-5.552587,-133.64148,-62.389805,-125.71474,-62.098141,-121.55245,-17.512638,65.081955
3990000000,-11.6233,-64.412407,-57.20454,149.2592,-56.970303,153.45547,-24.00465,-2.0627422
3995000000,-4.2596126,-93.957588,-59.425583,77.431282,-59.288635,82.726051,-16.781179,119.6465
4000000000,-6.9816432,-145.49312,-56.675541,-31.616232,-56.52681,-33.482922,-18.556087,-6.9600534
END

