!CSV A.01.01
!Keysight Technologies,N5247A,US56070710,A.10.64.09
!Date: Sunday, November 20, 2022 00:38:45
!Source: Standard

BEGIN CH1_DATA
Freq(Hz),S33(DB),S33(DEG),S34(DB),S34(DEG),S43(DB),S43(DEG),S44(DB),S44(DEG)
3000000000,-10.454323,176.49527,-66.639854,-82.688484,-66.971306,-88.152695,-18.72024,-151.21074
3005000000,-15.766444,86.897728,-68.361092,139.91742,-69.120773,135.94174,-16.91847,-152.76588
3010000000,-13.626912,127.64561,-68.077881,-9.16681,-67.079178,-9.8774881,-15.682929,-159.90712
3015000000,-9.6912928,162.9677,-67.189224,-104.52528,-66.645081,-102.70718,-16.036444,-151.00061
3020000000,-20.036463,43.394878,-81.513649,155.14676,-81.605957,154.56085,-16.296051,-171.5116
3025000000,-7.3291397,135.79391,-69.445251,95.790298,-71.679825,103.96203,-14.470266,-155.51459
3030000000,-20.244776,144.33878,-67.90435,-28.210638,-67.324883,-31.480066,-18.760113,-178.2175
3035000000,-15.054964,72.382233,-78.027412,-169.41565,-80.720177,-176.53304,-13.589451,-167.80359
3040000000,-7.2731986,143.98166,-74.640694,-110.55902,-78.794426,-126.53643,-18.595636,-176.17955
3045000000,-25.339386,-141.03683,-78.086395,-17.154575,-84.513557,18.498148,-15.433404,179.08788
3050000000,-9.396121,101.50132,-76.609863,-100.23914,-75.766983,-98.20507,-14.442121,175.32474
3055000000,-8.2796659,129.40179,-64.571564,-169.29054,-64.636398,-171.20874,-16.394531,-169.17227
3060000000,-18.320908,-34.998737,-72.149567,129.51817,-70.820747,134.1232,-14.873274,161.59846
3065000000,-6.0453815,115.34094,-74.031273,94.93512,-71.865875,100.34093,-15.223414,-168.90092
3070000000,-15.592655,173.38051,-74.933632,-35.177895,-74.1035,-43.670322,-17.353046,156.85101
3075000000,-11.753738,92.077782,-75.449028,-68.992744,-77.622223,-58.573914,-15.422226,170.2695
3080000000,-6.1369534,106.20322,-68.594261,105.96191,-68.799431,103.56316,-16.852432,162.82869
3085000000,-13.639906,-142.92061,-68.534859,-27.483631,-68.01181,-27.992477,-16.907211,158.8277
3090000000,-6.7872868,80.537582,-69.665146,-115.48045,-70.160545,-114.77177,-13.833887,154.71722
3095000000,-11.115471,153.40251,-67.417763,133.63918,-66.319595,134.04738,-18.059999,178.59467
3100000000,-12.95901,120.87582,-87.609413,6.8540616,-89.189713,-75.558052,-14.571891,142.46004
3105000000,-7.5189166,74.954742,-71.939445,-42.169487,-70.539238,-37.644207,-16.206978,176.66476
3110000000,-8.1565676,148.37982,-66.735176,158.05176,-67.478523,167.28142,-17.728237,138.22662
3115000000,-13.609548,28.646523,-67.402489,148.71507,-66.039719,145.37674,-16.509245,156.91656
3120000000,-7.1419697,108.94638,-68.579269,25.328257,-68.910088,42.455002,-17.15472,144.21214
3125000000,-10.847112,153.61324,-70.481728,-122.88214,-72.082939,-114.84277,-17.628904,149.64449
3130000000,-7.6635323,51.673927,-67.80658,118.69527,-67.514275,122.97134,-15.603831,136.47865
3135000000,-7.584774,117.57601,-70.965775,-20.587317,-71.017517,-18.60121,-17.721193,167.94263
3140000000,-16.250759,99.780869,-75.995453,-82.767097,-76.478653,-77.930656,-16.267956,123.2803
3145000000,-11.562152,51.323692,-70.052139,-165.35989,-69.936058,-167.83243,-16.568033,159.78754
3150000000,-4.7801232,125.95455,-68.085457,131.4886,-68.742516,135.02664,-18.876669,141.18042
3155000000,-12.920352,35.181511,-70.011787,-35.609646,-69.75766,-32.255432,-18.795525,132.68735
3160000000,-7.1307802,86.782059,-78.763763,139.99918,-77.824554,149.3846,-16.284792,145.38713
3165000000,-11.506989,99.184952,-71.09259,63.906509,-72.056801,54.391872,-20.272015,123.50182
3170000000,-20.627995,85.299072,-76.609818,22.066633,-73.478157,28.493261,-15.172642,138.62514
3175000000,-5.6175179,92.930527,-68.99057,-93.919029,-67.854263,-98.245514,-18.430557,151.68083
3180000000,-19.775768,101.76064,-66.608757,145.99557,-65.26696,148.86937,-18.387321,126.79342
3185000000,-6.7295151,58.427094,-63.486664,60.132568,-63.817802,59.43367,-16.144737,153.44809
3190000000,-9.6789064,91.24543,-71.95565,-59.581394,-70.427322,-52.491474,-21.698957,145.74474
3195000000,-18.693531,103.55338,-72.79657,-114.19646,-72.33564,-123.66847,-20.126869,126.66367
3200000000,-5.9186039,60.109177,-79.169899,-146.63483,-78.892548,-149.65984,-16.247623,132.79338
3205000000,-7.8605733,120.93976,-69.083,-81.913368,-70.496086,-96.381638,-25.10483,144.0739
3210000000,-10.445911,29.198387,-70.918892,-114.08178,-70.327629,-93.33596,-14.187976,120.41113
3215000000,-6.9555259,68.740723,-65.406708,134.13924,-65.112389,133.47122,-20.780754,155.75586
3220000000,-13.423953,107.34172,-68.072899,59.70845,-68.686302,63.107445,-16.427744,128.17136
3225000000,-10.645654,33.605511,-74.955917,-9.1101627,-75.247169,-7.2519073,-18.119345,138.41081
3230000000,-6.1852717,85.884224,-83.513618,-153.61472,-81.587471,-114.23746,-18.116301,151.06238
3235000000,-12.274933,84.47477,-70.81974,26.398857,-70.894485,24.818937,-20.611698,115.45824
3240000000,-4.8864412,25.192066,-69.297958,-53.33329,-69.94474,-48.533928,-16.292086,134.69673
3245000000,-7.9490433,121.49895,-67.209869,-155.04535,-67.104477,-147.45473,-20.608395,148.59995
3250000000,-11.149251,31.555805,-67.424248,128.42525,-66.641075,123.53895,-17.044048,108.94748
3255000000,-7.8113112,60.544506,-69.87455,25.378031,-69.894104,31.354008,-17.58993,147.17703
3260000000,-8.0114965,84.228271,-71.595963,-46.003113,-73.534241,-45.857384,-16.8043,114.57513
3265000000,-9.1598368,1.3775595,-92.002815,160.47447,-78.978722,-136.11682,-17.682743,138.81622
3270000000,-4.79354,71.158638,-72.639343,6.6056242,-72.666183,2.3955164,-16.85833,132.1001
3275000000,-29.055576,5.2537336,-70.918724,-46.392239,-72.270973,-49.437618,-21.032179,114.8685
3280000000,-8.4051218,57.380535,-66.781776,-158.74788,-66.759621,-160.98976,-14.390579,125.64988
3285000000,-5.5144339,61.976303,-74.995415,156.72911,-74.984688,156.38423,-20.87299,134.8047
3290000000,-18.238255,-30.168962,-82.853165,-58.73745,-85.718933,-22.291487,-16.231537,110.57661
3295000000,-5.8489628,33.603531,-78.600235,-157.8792,-76.727356,-179.5096,-15.297669,126.54637
3300000000,-8.659749,83.03125,-80.160423,137.71921,-77.550713,87.345375,-18.447872,130.02766
3305000000,-13.652668,-7.0579162,-78.243248,-28.153908,-77.417793,-14.394998,-16.362785,113.13757
3310000000,-4.9382176,50.341908,-79.305702,-107.54437,-79.801003,-137.71873,-16.426128,134.09091
3315000000,-14.221104,71.792191,-77.153305,69.927834,-82.499199,73.032471,-20.571371,101.79997
3320000000,-8.8831377,10.141932,-75.998055,32.820984,-74.867973,40.638905,-14.646222,112.39945
3325000000,-7.2453828,37.523403,-83.947205,-116.79797,-84.955208,-121.46541,-19.814852,117.27636
3330000000,-19.953959,152.72801,-71.763657,115.0922,-71.180855,109.99828,-14.900191,103.1413
3335000000,-3.6923621,18.879934,-76.934547,19.046366,-73.798973,-3.9373877,-16.575878,112.01218
3340000000,-9.7267103,73.100151,-73.184441,-114.87216,-72.321716,-112.06124,-16.200304,118.2166
3345000000,-10.295859,4.7939205,-67.055847,169.48846,-66.996742,171.09033,-17.736294,93.877434
3350000000,-6.6602039,4.1981907,-68.430977,38.191944,-67.751984,42.706676,-14.924096,119.02394
3355000000,-8.8154163,89.972961,-67.253677,-80.34124,-66.845406,-77.35379,-22.289104,85.22699
3360000000,-9.4320784,-24.828594,-72.459923,166.51964,-72.440941,162.34714,-14.664243,98.32621
3365000000,-4.022964,40.093567,-66.234795,59.939514,-66.420341,60.976902,-19.8892,94.00132
3370000000,-13.44925,3.0642724,-68.098289,-45.592567,-68.091896,-54.91235,-15.532864,89.790596
3375000000,-7.9713979,-8.4263983,-65.940956,-158.31334,-65.843819,-159.24696,-16.535347,92.428513
3380000000,-8.7713661,55.544926,-66.028114,84.089401,-65.827744,80.571526,-17.639847,107.24345
3385000000,-16.730318,46.451099,-63.980568,-15.509421,-64.290916,-14.476148,-17.510014,72.76619
3390000000,-3.6701698,-1.4517823,-65.156136,-110.803,-65.30088,-110.46848,-16.420786,98.185303
3395000000,-11.307897,72.514069,-68.2248,146.75087,-67.752495,144.26967,-19.892664,80.531639
3400000000,-8.2830601,-33.321602,-67.873039,1.7186913,-67.379517,0.10471114,-16.492706,78.404869
3405000000,-8.1992788,14.604331,-63.919456,-116.53816,-63.915218,-123.2115,-19.389124,84.627625
3410000000,-10.281355,53.724819,-65.441826,178.10948,-65.081985,173.1873,-16.725536,71.558937
3415000000,-6.45509,-25.167559,-68.82132,93.012993,-69.222763,90.916473,-17.969385,80.261299
3420000000,-5.9830008,32.46727,-65.871742,-8.5304565,-66.87925,-6.8748097,-17.648178,93.288925
3425000000,-22.153131,-19.536983,-69.244026,-129.69858,-70.055939,-133.2065,-21.084251,47.382896
3430000000,-6.1170483,-14.189239,-74.586113,77.036667,-78.158478,86.764,-16.6567,90.382248
3435000000,-11.408803,49.682533,-72.979012,-21.581631,-72.229485,-20.582211,-23.379026,48.449432
3440000000,-11.820576,-15.677294,-67.439079,-116.7123,-67.366287,-114.64691,-19.855194,62.193947
3445000000,-5.6708732,-9.0584431,-67.355309,155.48941,-67.695198,150.16652,-17.447006,63.737156
3450000000,-10.457001,40.965061,-67.885002,72.952477,-68.527397,78.41288,-23.658953,75.057335
3455000000,-8.5342588,-53.989857,-73.128883,1.7005038,-73.354706,4.6621594,-17.713425,57.023811
3460000000,-7.4629536,25.297117,-74.49202,-168.28181,-72.553146,-164.32213,-20.839977,88.815872
3465000000,-14.426951,-6.2320313,-70.335228,102.60023,-70.79567,108.02797,-24.31321,51.682903
3470000000,-8.5358229,-30.130966,-74.875748,-47.352779,-75.148468,-40.302402,-18.311552,69.762619
3475000000,-6.004107,17.368618,-74.235435,-121.57876,-75.177589,-121.80849,-32.44973,113.67082
3480000000,-13.256454,-90.328156,-70.851624,174.80998,-70.177765,164.66452,-20.615131,46.154716
3485000000,-4.8330655,-11.068522,-74.36956,94.066391,-71.291328,80.592735,-21.464457,55.522232
3490000000,-15.150885,60.863495,-78.030594,17.409237,-80.898186,-8.3224812,-24.592213,113.83962
3495000000,-10.428649,-25.039986,-72.596344,-107.53237,-72.274956,-85.255379,-18.206869,23.228458
3500000000,-5.2371168,-15.800591,-78.65538,-53.130642,-81.921684,-42.239494,-18.33415,116.28249
3505000000,-20.293095,47.446594,-73.770477,60.736965,-73.661896,50.766335,-24.520245,11.075626
3510000000,-7.247973,-57.14703,-69.347221,-33.873852,-68.947922,-35.128063,-21.468203,94.765656
3515000000,-6.5088105,22.184643,-73.209793,-102.84032,-75.804909,-113.24348,-28.935574,79.593384
3520000000,-24.042227,-65.866776,-65.954269,115.14747,-66.622925,118.47743,-27.358664,28.045815
3525000000,-5.6677556,-30.160063,-72.307777,34.54882,-71.829575,19.950958,-20.413979,67.661621
3530000000,-10.443528,-8.0155554,-72.686417,-78.198601,-75.503464,-78.932983,-23.317062,109.50537
3535000000,-18.00223,-86.516098,-67.680664,-175.71031,-68.461235,-176.40239,-25.964664,33.807003
3540000000,-6.6035771,-29.249107,-66.323616,76.598915,-66.648384,76.277405,-18.024958,103.1737
3545000000,-8.7505865,44.78511,-66.662758,-36.439865,-66.543747,-37.820789,-35.322399,-119.39365
3550000000,-5.6389561,-61.948807,-64.872421,-139.14377,-64.637115,-136.23773,-19.573519,82.866913
3555000000,-10.357616,14.366106,-67.24437,119.20261,-67.689758,117.97575,-32.235653,137.77945
3560000000,-12.434174,-39.91013,-67.945839,19.436087,-66.910957,11.943104,-25.77284,89.828987
3565000000,-13.418023,-95.787636,-63.508076,-84.283623,-63.741558,-80.956474,-23.459688,54.714577
3570000000,-3.6411657,5.6274886,-64.704788,147.98749,-65.082565,145.06801,-22.448956,109.29086
3575000000,-12.818069,-129.44838,-62.46249,45.101448,-62.083611,45.68248,-24.980465,54.863453
3580000000,-5.7306752,-33.196289,-61.356724,-44.761833,-61.941086,-46.938503,-20.036367,96.638588
3585000000,-12.592719,-8.4689608,-65.640656,-148.43542,-66.302612,-141.88655,-25.578962,113.46692
3590000000,-16.092112,-128.94263,-67.14344,118.17123,-67.064095,107.0871,-27.470261,65.909828
3595000000,-4.3318071,-22.55335,-66.044365,-26.212496,-66.900917,-29.281151,-19.886377,92.255745
3600000000,-20.870455,26.101397,-64.005585,-140.87778,-63.728527,-139.36143,-32.083168,144.65933
3605000000,-8.076499,-61.343472,-65.765717,140.84932,-64.809311,144.03462,-20.562563,52.940289
3610000000,-7.3880777,-18.822451,-65.430054,55.248547,-65.595108,55.891788,-21.552109,105.81918
3615000000,-21.040585,143.24797,-64.116753,-47.472038,-63.743217,-47.932423,-26.094254,67.683357
3620000000,-7.3861961,-48.31871,-67.031471,-155.91643,-68.424614,-151.84576,-20.848454,73.674568
3625000000,-9.3627949,-17.30406,-69.387184,80.831741,-70.195663,77.362495,-22.557196,111.48991
3630000000,-23.595942,49.395824,-68.420105,-47.275238,-67.843948,-38.349934,-28.739225,69.553719
3635000000,-3.3720632,-67.96627,-63.544746,-121.46523,-64.285362,-123.59162,-20.022894,65.768723
3640000000,-10.766995,56.706081,-65.272163,138.06186,-65.420654,132.2617,-22.881914,150.39952
3645000000,-7.4565387,-70.326767,-63.914974,55.443554,-63.927925,53.533337,-18.803673,14.90314
3650000000,-11.673421,-21.608698,-65.66745,-49.789848,-64.72654,-48.030766,-18.408964,111.71472
3655000000,-7.7988663,-10.489092,-65.564857,-142.2962,-66.169167,-153.5704,-24.464785,8.2600603
3660000000,-6.0742769,-103.82763,-68.253616,71.468498,-68.064285,83.651634,-21.372351,87.607689
3665000000,-5.0497117,12.661749,-66.009071,-7.6935482,-67.907455,-8.7764711,-22.554281,78.513794
3670000000,-12.044397,-117.23141,-67.531708,-133.88922,-66.631927,-133.6647,-36.587353,135.4673
3675000000,-9.644208,-38.298538,-67.530907,144.06174,-66.247101,150.8849,-21.045849,55.420269
3680000000,-7.5562305,-22.994904,-63.858257,32.782421,-64.803795,36.976849,-24.424356,140.28981
3685000000,-12.845634,-114.30159,-65.729218,-58.440308,-64.798088,-59.156597,-23.463812,-20.638304
3690000000,-5.9204154,-38.826351,-65.43589,-153.05255,-65.980011,-148.96808,-19.771154,76.182541
3695000000,-17.240318,7.1282597,-66.342812,113.2917,-66.617332,122.1636,-35.516911,-60.657436
3700000000,-11.771306,-93.619347,-68.27169,-38.97998,-69.045036,-30.573004,-21.926653,60.249386
3705000000,-3.8551416,-23.68355,-65.706955,-124.90807,-65.840759,-126.29327,-25.186359,54.015881
3710000000,-13.711278,-158.44122,-65.931458,133.58238,-66.79583,129.60014,-25.452496,144.7338
3715000000,-6.2809944,-49.665974,-63.378674,38.578358,-62.321331,37.147602,-20.061342,27.009607
3720000000,-9.0515862,-42.851501,-64.300209,-35.379101,-65.113884,-40.104221,-20.500357,153.33278
3725000000,-17.263752,115.30839,-64.294357,-158.09656,-64.56488,-150.2691,-23.292332,-7.6746893
3730000000,-2.2050717,-54.975677,-68.734055,103.8459,-70.64843,103.17372,-25.319269,89.132317
3735000000,-16.454222,61.709633,-65.844269,-18.226866,-66.020889,-17.353909,-25.715599,103.89513
3740000000,-7.7962904,-64.682365,-63.609417,-122.69897,-64.924988,-122.39561,-38.05685,-20.904493
3745000000,-7.2929072,-76.319954,-64.090195,147.88087,-64.618851,148.36238,-22.063507,94.893661
3750000000,-8.0694313,32.109089,-64.090599,41.755394,-63.873116,43.656673,-27.732967,-178.77219
3755000000,-4.2026734,-110.75716,-68.824753,-62.97541,-67.444412,-63.448605,-27.322031,28.606886
3760000000,-4.4103346,-3.2320788,-64.312897,-169.25549,-64.700958,-163.34846,-21.008528,137.04396
3765000000,-6.3751664,-89.501099,-67.30938,105.0974,-67.628876,96.527061,-26.631941,-51.608143
3770000000,-10.52122,-117.78111,-66.026665,-3.6788864,-65.342438,-1.3551869,-22.439615,97.912079
3775000000,-4.3313131,-10.887285,-65.223648,-95.915718,-64.421158,-96.188095,-27.857603,87.446747
3780000000,-11.242412,-137.34831,-64.082283,147.25854,-64.653679,155.95618,-25.870623,164.68755
3785000000,-4.0738626,-48.766788,-67.821884,44.768871,-66.6642,33.589607,-19.288651,60.919373
3790000000,-10.222406,-53.958702,-68.52076,-68.882057,-68.350792,-63.636417,-17.573284,165.99658
3795000000,-8.0542355,-141.84087,-65.869743,-160.21106,-65.433662,-156.44293,-25.819969,27.959805
3800000000,-4.8532677,-23.585451,-63.111877,108.30248,-63.431767,103.24061,-19.286903,137.55194
3805000000,-11.396336,-67.49836,-61.249481,10.118565,-61.516151,8.3025303,-40.958641,-140.32373
3810000000,-10.14008,-97.448685,-65.883759,-76.966927,-65.283867,-82.355034,-22.759174,92.331032
3815000000,-2.6433847,-58.73262,-66.898033,126.61592,-67.539528,129.24486,-22.702209,114.77828
3820000000,-7.5565076,135.6339,-68.16687,49.414993,-67.50116,42.061878,-24.623079,138.12233
3825000000,-1.2605331,-54.970623,-62.0788,-71.809082,-61.743595,-71.557594,-21.097067,66.545433
3830000000,-15.837649,-112.81487,-64.426468,-148.20529,-63.774734,-149.78127,-15.942468,137.47589
3835000000,-11.725039,-51.959751,-64.169502,120.72623,-64.969269,119.38645,-40.30817,-29.397074
3840000000,-2.9421678,-96.489555,-65.873222,1.7478977,-65.562965,1.6064736,-18.354929,111.93227
3845000000,-8.9994478,36.681728,-66.665459,-91.872963,-66.597466,-95.948845,-27.237186,136.64084
3850000000,-2.6532099,-94.173943,-66.102882,143.48912,-65.564835,148.0708,-25.139231,97.04364
3855000000,-11.045144,-81.837631,-68.205864,42.133209,-68.064262,38.171528,-18.873505,86.613495
3860000000,-12.150655,-34.805546,-63.710979,-60.236046,-63.743382,-61.748764,-22.463114,152.56851
3865000000,-4.8211374,-104.66203,-62.491444,-160.52728,-62.699211,-160.28117,-16.945469,61.685139
3870000000,-7.1665435,-35.52874,-63.411465,107.90719,-62.925186,106.28512,-16.796,143.16785
3875000000,-7.2091942,-107.95398,-65.260498,2.1249902,-65.523949,-0.63123602,-23.197182,58.597908
3880000000,-7.5749202,-122.0629,-67.90416,-101.52019,-67.818581,-100.03367,-20.78429,113.7746
3885000000,-5.0504503,-12.051787,-65.951904,141.36884,-66.931694,148.96251,-19.415283,95.211441
3890000000,-2.7785199,-121.44238,-67.319931,39.855324,-67.144928,32.154259,-37.540363,-174.51074
3895000000,-8.0757837,-61.441631,-64.391487,-50.50275,-64.118042,-47.563881,-15.17616,65.642235
3900000000,-7.0252461,-87.187576,-64.237068,177.78798,-63.978634,-177.30598,-19.979624,140.53346
3905000000,-9.2773466,-155.02,-64.916603,99.167717,-66.135574,103.70872,-18.62199,43.510853
3910000000,-2.1260481,-37.014889,-65.063507,13.155313,-65.293419,8.9572668,-16.377636,110.21803
3915000000,-4.7779317,-143.07919,-67.632805,-127.05909,-66.783821,-111.93836,-26.447611,62.414036
3920000000,-6.5879984,-69.050842,-75.674194,136.62576,-73.427971,-179.61826,-19.884674,90.729019
3925000000,-6.8484368,-101.33247,-64.897461,18.900805,-64.784035,22.455544,-19.785637,72.467186
3930000000,-16.716133,123.51881,-64.494568,-75.184349,-65.18148,-75.963463,-25.383421,154.75084
3935000000,-0.73999196,-84.532051,-63.332005,-167.49467,-63.776436,-169.83887,-14.598891,37.721336
3940000000,-29.088381,-5.2341828,-64.207741,85.909248,-64.151939,93.897995,-18.042316,133.61011
3945000000,-3.9592154,-121.45348,-67.868172,3.1951506,-66.642517,-10.42403,-17.749739,26.029385
3950000000,-6.882421,-79.331055,-69.354507,-127.98759,-70.654625,-130.00192,-17.159454,93.592293
3955000000,-21.058714,-109.06629,-66.588501,128.70663,-67.387947,141.97235,-26.545622,93.032143
3960000000,-5.1023445,-108.72798,-67.085289,28.807772,-69.215233,32.375721,-20.171068,38.986645
3965000000,-7.8861222,-83.497238,-67.777481,-89.121681,-67.540199,-85.067337,-18.957399,94.170174
3970000000,-12.192296,-139.20732,-65.403374,-173.26013,-65.730721,-171.58386,-31.286375,19.763197
3975000000,-2.8697133,-117.92811,-70.473198,65.39563,-70.864662,59.481842,-17.61528,36.748203
3980000000,-11.776669,-35.184544,-66.654442,-2.4585509,-66.274368,0.57667929,-18.933945,106.72747
3985000000,-5.2257972,-130.47859,-66.646935,-104.26492,-67.172218,-102.23578,-20.587612,4.3057628
3990000000,-9.3640909,-104.33216,-69.736832,115.64188,-70.58989,107.61256,-18.65041,85.211319
3995000000,-7.6510301,-72.586182,-67.969704,25.832958,-68.084122,31.228731,-25.28031,57.179325
4000000000,-2.2511032,-161.71291,-66.561691,-62.267994,-67.502663,-69.855812,-31.045906,13.2463
END

