!CSV A.01.01
!Keysight Technologies,N5247A,US56070710,A.10.64.09
!Date: Sunday, November 20, 2022 00:50:55
!Source: Standard

BEGIN CH1_DATA
Freq(Hz),S33(DB),S33(DEG),S34(DB),S34(DEG),S43(DB),S43(DEG),S44(DB),S44(DEG)
3000000000,-9.8381252,-147.40707,-65.144577,76.925125,-65.323792,74.586624,-18.624914,-157.22626
3005000000,-9.9300699,99.075775,-68.703987,-32.779449,-68.853485,-38.099297,-17.131872,-157.23936
3010000000,-15.395185,84.776794,-65.059036,-99.299889,-65.772629,-95.364296,-15.572862,-164.80086
3015000000,-6.7045169,-178.11166,-67.741562,167.28862,-68.636086,166.80247,-16.208471,-155.19106
3020000000,-9.3992882,48.575893,-73.675903,111.80757,-76.055832,124.33739,-16.233322,-176.83415
3025000000,-8.0188427,159.91196,-76.724701,112.075,-80.373833,100.08535,-14.515268,-159.93565
3030000000,-13.402238,116.74282,-69.378242,139.40219,-69.72245,140.21617,-18.672066,176.87115
3035000000,-12.240234,28.206686,-66.10743,63.186886,-66.946648,63.877869,-13.701324,-171.94734
3040000000,-4.0523238,155.24434,-64.178856,-16.330389,-64.566132,-17.421389,-18.649994,177.79298
3045000000,-14.025303,14.872356,-68.801308,-91.277451,-68.689079,-96.272064,-15.479305,173.74586
3050000000,-11.263042,129.14273,-69.59111,-172.92383,-69.798981,-174.23735,-14.34074,170.15648
3055000000,-5.8987985,118.96337,-73.21096,86.281799,-73.633896,79.252884,-16.395704,-174.04858
3060000000,-10.337057,-39.86005,-70.256172,-73.125122,-69.930962,-70.69912,-14.757195,157.02615
3065000000,-3.0186875,122.14254,-66.878418,154.69542,-67.694405,153.81393,-15.303575,-173.01346
3070000000,-24.703218,-45.106781,-63.849854,71.669098,-63.283585,72.972595,-17.233377,151.74179
3075000000,-12.116022,120.05628,-67.340408,5.5918469,-66.154655,14.720748,-15.604302,165.35831
3080000000,-4.0333228,96.278481,-77.342667,-113.78288,-79.41835,-137.75424,-16.616159,157.07561
3085000000,-9.246707,-112.61977,-68.923546,168.088,-69.549812,162.76323,-16.968302,153.31677
3090000000,-3.4685595,87.403946,-80.457596,60.565868,-75.974083,61.104744,-13.655659,150.67093
3095000000,-19.084791,-174.65079,-78.953217,-118.02125,-81.407982,-89.091484,-18.282326,172.42581
3100000000,-9.7747946,139.17093,-67.497963,115.68015,-69.589462,115.24496,-14.425194,139.05228
3105000000,-4.7842035,62.738041,-68.987732,56.491089,-70.040703,51.209644,-16.368584,171.12024
3110000000,-7.4382968,176.35571,-63.994137,11.213626,-63.942577,11.530429,-17.604038,133.87247
3115000000,-7.9411321,48.976509,-67.026909,-66.13221,-66.634506,-62.608452,-16.540575,151.64023
3120000000,-10.626533,108.29708,-78.921333,11.682135,-80.197342,38.763176,-16.976683,138.15808
3125000000,-7.5508804,153.8373,-75.593193,-82.458694,-73.471085,-71.438278,-17.563101,145.47803
3130000000,-4.5017719,36.31802,-79.085342,-39.163204,-76.466766,-41.135624,-15.390485,130.9731
3135000000,-6.5335965,145.77811,-71.40052,-133.52866,-70.069427,-144.4062,-17.806339,163.52895
3140000000,-9.5850525,68.259628,-66.206818,69.655182,-66.237213,72.787308,-15.927092,119.27548
3145000000,-13.518322,15.430642,-72.379631,-14.023027,-69.184509,-13.443799,-16.768003,154.97659
3150000000,-2.5159607,127.74091,-69.088554,-93.177246,-70.658707,-94.028511,-18.579048,137.27579
3155000000,-7.1878638,7.2699056,-87.176132,125.85155,-82.982056,125.24876,-18.77231,125.40901
3160000000,-6.1342025,113.67796,-66.997086,124.96358,-67.827263,120.34599,-16.191721,141.35255
3165000000,-8.9604006,67.083855,-67.086823,-84.613724,-67.39743,-84.398598,-19.713282,116.53016
3170000000,-25.522104,-95.89727,-72.476555,173.489,-71.803154,167.42126,-15.183145,134.98642
3175000000,-2.944104,94.543259,-69.270111,80.632484,-70.77462,85.536461,-18.155506,145.07451
3180000000,-16.074337,-40.673885,-72.566437,-2.0791383,-73.528442,9.4787502,-18.23045,122.71675
3185000000,-5.153244,77.390099,-79.024986,21.522169,-81.227135,39.262466,-16.068125,149.84142
3190000000,-9.5230112,65.514282,-71.365967,174.06084,-72.606361,164.60585,-21.703787,139.01926
3195000000,-19.614101,-169.90901,-73.371803,105.01613,-72.902557,98.521599,-20.226601,121.27081
3200000000,-2.8545375,62.608494,-80.446602,18.703411,-83.526367,-16.214603,-15.983856,127.60995
3205000000,-13.038321,144.19353,-75.819839,138.29041,-73.656578,117.40038,-25.458586,135.32312
3210000000,-9.4008293,52.552956,-77.693001,-71.26403,-77.412056,-57.368759,-13.94528,116.78469
3215000000,-5.8167758,52.188679,-75.649666,-15.93975,-76.697441,-29.372562,-21.035143,147.38678
3220000000,-11.713026,154.01482,-70.918121,-114.83598,-73.753159,-120.132,-16.161518,125.32471
3225000000,-4.8479743,33.641033,-88.559372,-137.20987,-83.976524,-52.304932,-18.054043,132.20599
3230000000,-11.069341,106.01447,-83.44944,-56.538982,-82.165916,-59.528454,-18.137468,147.33408
3235000000,-7.8413734,88.357094,-77.092468,7.750834,-78.809288,30.116211,-20.148651,109.21295
3240000000,-3.0136724,10.73795,-72.369987,157.3736,-70.698494,166.97533,-16.276405,130.33206
3245000000,-4.7539144,139.58553,-79.166557,48.502514,-78.567932,29.96777,-20.561584,142.40311
3250000000,-5.344449,15.228659,-79.238647,-41.850376,-76.741814,-40.887539,-16.796694,103.57063
3255000000,-11.216766,77.487755,-75.29171,132.7287,-77.413719,153.58704,-17.452635,141.61351
3260000000,-5.6482439,82.081329,-74.721901,-95.044754,-75.291679,-93.864113,-16.502197,110.77388
3265000000,-6.3608198,-22.558033,-95.349991,123.04164,-88.588661,16.063126,-17.768482,134.14865
3270000000,-2.8886607,84.768295,-74.809814,128.15968,-72.016693,118.27373,-16.719172,127.29311
3275000000,-10.656363,-30.792601,-75.740868,72.094208,-74.699715,106.78059,-20.817305,107.64511
3280000000,-10.074817,82.884148,-76.716232,43.076851,-80.507957,41.070614,-14.252888,121.5891
3285000000,-2.9015071,56.998871,-80.539246,0.78157741,-77.820396,8.7319908,-20.80759,126.94397
3290000000,-8.9110279,-78.872536,-75.244888,-12.707837,-76.361916,-36.121517,-15.998691,106.81463
3295000000,-3.1975694,54.243618,-91.820107,-117.64009,-97.005501,-17.797171,-15.209858,121.38605
3300000000,-12.470015,37.556152,-71.320724,-166.55917,-70.300842,-160.41096,-18.253752,125.29133
3305000000,-31.060633,-5.7168331,-77.033585,86.892677,-72.850082,102.24061,-16.171618,108.64152
3310000000,-2.0576603,41.516682,-82.507164,133.08325,-77.179115,150.61995,-16.450308,129.98404
3315000000,-16.96104,-156.8336,-70.913658,-31.487965,-74.493942,-19.665997,-20.127665,95.648277
3320000000,-5.0018473,31.717899,-76.690674,-88.617485,-79.961128,-104.60075,-14.627505,108.33557
3325000000,-8.4136858,5.199965,-74.822548,28.933559,-73.786942,44.274303,-19.510761,110.04655
3330000000,-10.595399,149.58432,-72.513039,-96.426033,-70.499672,-87.437218,-14.710632,99.196274
3335000000,-0.69910496,9.4116011,-71.563316,-176.16075,-72.003197,-162.42839,-16.432987,107.33155
3340000000,-11.329862,133.81007,-73.512802,177.4937,-72.647263,-169.43677,-16.00355,113.82944
3345000000,-5.6674137,17.258371,-66.134338,70.099709,-66.241867,64.045677,-17.780392,89.689072
3350000000,-6.5685182,-19.187529,-72.805542,-3.0141959,-74.67498,5.8525763,-14.881204,114.12212
3355000000,-5.4741635,99.570862,-72.479218,-162.98459,-72.544548,-151.8445,-21.948734,77.957207
3360000000,-4.0571756,-31.530489,-74.110504,80.00489,-73.521912,78.607025,-14.556575,94.545029
3365000000,-5.8686314,64.703804,-71.991951,-37.115646,-72.369705,-30.012131,-19.448893,85.448158
3370000000,-7.9491858,3.9559155,-65.534912,-116.62402,-66.243896,-106.24956,-15.317149,87.388824
3375000000,-7.9256077,-33.406796,-64.545258,134.5804,-64.912613,140.14529,-16.306124,87.353073
3380000000,-5.3385873,68.353607,-64.212051,53.129868,-63.607445,47.001842,-17.648773,103.4298
3385000000,-11.635834,-42.335724,-64.163582,-82.404678,-63.54409,-85.541542,-17.183336,69.35862
3390000000,-5.5828013,12.815309,-65.091484,-177.70877,-65.369331,178.79637,-16.529005,92.677826
3395000000,-10.133126,44.148098,-63.2561,49.947105,-63.767788,46.770237,-19.399141,77.751671
3400000000,-8.0311899,-60.259079,-63.297863,-56.989311,-63.175591,-52.2178,-16.437716,73.301949
3405000000,-4.6979551,28.755428,-63.394535,-145.26428,-63.578789,-143.65839,-19.237972,79.65377
3410000000,-18.909641,-11.961507,-60.374371,93.742912,-59.988461,94.662422,-16.317656,68.115318
3415000000,-8.5079546,-5.2635775,-61.85833,-0.81546134,-61.601555,1.2568192,-18.046263,75.621063
3420000000,-4.6960058,14.756721,-63.513577,-111.84096,-62.973896,-113.77444,-17.326641,89.356735
3425000000,-14.2509,-161.67516,-62.698601,136.43394,-63.176247,135.21811,-20.708328,42.396465
3430000000,-1.9327829,-3.320168,-61.831913,30.371597,-61.893456,28.428871,-16.605707,87.603897
3435000000,-21.139439,-168.22659,-60.325115,-77.897377,-60.604836,-77.291878,-22.545307,43.524857
3440000000,-9.1954994,22.628382,-59.763821,179.12685,-59.564396,-178.55659,-19.998137,58.308506
3445000000,-3.3884683,-26.743488,-61.230621,85.94136,-60.61187,90.586311,-16.95266,59.966427
3450000000,-8.7997055,89.474449,-62.129726,-25.857178,-62.177807,-20.641005,-23.679588,69.774574
3455000000,-3.4643192,-44.270187,-62.331089,-131.19884,-62.72094,-135.93791,-17.45146,54.779762
3460000000,-13.662439,52.647186,-64.486259,99.24221,-65.212006,101.9979,-20.638327,82.711044
3465000000,-8.9151669,14.972659,-61.493866,2.7561834,-61.942825,1.841676,-24.276684,52.159836
3470000000,-5.5367923,-55.794819,-59.589405,-95.92215,-59.59177,-98.462517,-18.160059,65.561943
3475000000,-5.4278369,45.813404,-61.546432,150.03224,-61.661953,150.78429,-33.004028,107.71896
3480000000,-6.5709372,-72.095253,-61.198288,66.590851,-61.280045,67.284355,-20.285898,43.54866
3485000000,-8.287816,-7.3644056,-63.572422,-52.905994,-63.042282,-55.686909,-21.118006,49.915096
3490000000,-9.1922522,42.605904,-63.417328,-168.16327,-63.537434,-163.65613,-24.156874,109.25493
3495000000,-7.0803003,-72.90226,-62.065918,104.79994,-62.091015,105.40466,-17.764973,21.477758
3500000000,-4.8499846,13.954815,-61.490868,-15.976385,-61.907013,-16.34115,-18.208897,113.7529
3505000000,-12.850117,-60.025391,-63.478127,-108.00366,-62.674675,-109.40233,-24.043516,13.460561
3510000000,-12.663733,-75.283691,-62.130135,146.54637,-62.022453,146.15039,-21.747036,93.652779
3515000000,-3.0062394,11.66,-63.910877,40.933155,-63.99791,33.680435,-28.164063,71.373161
3520000000,-8.2887487,-142.83102,-64.89257,-75.025558,-66.091011,-70.610916,-26.693554,24.249691
3525000000,-3.9100218,-4.4739356,-66.311531,176.7215,-66.318634,178.62645,-20.01409,64.359108
3530000000,-8.8709545,-49.941544,-62.557487,63.783905,-63.094173,70.286255,-22.956085,102.45769
3535000000,-20.340296,155.16617,-62.71582,-27.004189,-63.084332,-22.272327,-25.410721,36.33744
3540000000,-2.7482657,-31.263884,-66.334,-109.28243,-67.257027,-112.06749,-17.845449,100.55477
3545000000,-10.493113,104.56533,-63.641144,115.09728,-64.020103,112.45478,-37.2006,-121.88675
3550000000,-3.8935914,-40.657608,-66.577347,28.118713,-67.977394,25.650103,-19.428152,81.163048
3555000000,-15.498863,-23.644011,-68.647972,-71.351547,-67.490364,-66.360237,-33.255241,128.20193
3560000000,-15.210082,12.235132,-64.326546,149.27461,-64.672546,151.05244,-25.113445,85.821228
3565000000,-6.1093645,-78.70253,-71.670418,26.953444,-70.731506,17.019817,-23.164228,50.727146
3570000000,-6.1444635,30.143991,-64.014748,-45.177814,-64.64138,-48.541401,-22.21236,103.00661
3575000000,-11.235993,-74.294876,-69.621368,-138.07098,-69.354904,-137.44151,-24.154123,54.350464
3580000000,-7.556757,-58.209782,-72.101563,136.42163,-70.593102,140.12057,-19.98151,94.017258
3585000000,-7.9809718,24.072987,-68.521324,-10.11795,-68.919044,-11.402201,-25.083727,106.39703
3590000000,-6.3382106,-112.84415,-78.144615,-128.52826,-77.546844,-140.44948,-27.475855,63.296619
3595000000,-5.7807441,6.3588223,-78.558479,134.64787,-75.417984,115.8204,-19.635153,87.985115
3600000000,-11.81302,-41.643444,-73.674187,16.896652,-75.224922,22.351187,-33.369617,136.17833
3605000000,-9.5536957,-99.744888,-73.705437,-49.501511,-75.673515,-40.236984,-20.173874,50.871254
3610000000,-3.782181,-1.0139173,-66.943336,-148.65025,-67.412895,-150.41057,-21.463358,98.140663
3615000000,-8.6947689,-147.02028,-76.006668,113.25375,-73.652122,115.47188,-25.212454,68.920959
3620000000,-8.2101746,-10.781794,-77.110275,179.67097,-75.41333,179.82146,-20.54528,69.408806
3625000000,-6.3911085,-44.412071,-79.001015,-161.8707,-76.398018,-156.71075,-22.292856,108.19454
3630000000,-10.98927,132.59653,-83.884384,-48.965839,-93.11087,-0.15286264,-27.915117,67.080704
3635000000,-1.0324907,-51.613243,-72.332375,13.112909,-73.351624,6.3033481,-19.937443,62.127304
3640000000,-12.199554,128.5731,-73.890503,-86.766045,-72.503693,-87.347801,-22.849768,147.0363
3645000000,-6.8942966,-43.486942,-79.651634,143.83836,-80.680473,140.35559,-18.349672,13.131333
3650000000,-9.6496429,-63.310528,-80.930885,126.36439,-76.526855,122.36623,-18.536322,109.84198
3655000000,-8.8022146,31.464079,-73.590561,166.50699,-73.056358,157.19528,-23.394314,10.968252
3660000000,-2.5786679,-84.328682,-69.886658,88.60434,-69.324913,97.103188,-21.683687,86.001915
3665000000,-8.1195841,42.206543,-67.659912,9.3320141,-68.061279,3.9197478,-21.704803,73.780693
3670000000,-12.118347,-71.295769,-78.743629,-29.230518,-78.39814,-42.42857,-36.865257,130.67682
3675000000,-8.0737143,-75.317902,-78.545746,178.67271,-78.645096,171.70213,-20.979446,54.960762
3680000000,-7.1511412,17.654337,-73.985123,6.5975857,-73.463341,17.673618,-25.135939,134.77071
3685000000,-5.4615297,-97.356461,-69.372284,-103.47659,-69.931229,-105.54832,-23.554348,-22.647799
3690000000,-11.56744,-25.477678,-66.299774,-177.37119,-65.732704,-173.80064,-19.504906,71.656036
3695000000,-9.025321,-6.4173088,-68.461891,63.016083,-69.607582,71.8713,-34.759983,-50.87336
3700000000,-6.0477676,-130.80791,-72.448875,15.102883,-72.245544,15.430762,-21.500504,59.69614
3705000000,-1.7381082,-2.715507,-72.52494,-90.620377,-71.595917,-85.118362,-24.493624,48.062477
3710000000,-5.5522695,-135.61111,-70.436844,83.890617,-69.973236,77.438446,-24.793167,141.38736
3715000000,-9.7688551,-19.698446,-68.869797,-4.1381469,-69.697189,1.9103187,-19.58049,25.498077
3720000000,-4.5287099,-45.290798,-65.663475,-99.327087,-65.914963,-102.79258,-20.513296,152.49896
3725000000,-7.2181659,153.34317,-66.021889,165.93918,-66.442703,157.53001,-22.867115,-3.625356
3730000000,-0.24292295,-38.870693,-69.185844,86.993111,-70.012032,84.973877,-25.646822,85.141205
3735000000,-13.3908,-178.28456,-68.433632,-39.268063,-68.771004,-32.433067,-24.524618,98.118423
3740000000,-11.684823,-28.927671,-71.066391,-178.43086,-68.788925,179.60049,-37.167728,-14.538024
3745000000,-2.8154418,-71.494293,-72.01223,104.99724,-72.749084,108.01694,-21.677168,92.994003
3750000000,-7.932754,80.288399,-65.439949,-10.880633,-64.868073,-11.478468,-28.461397,171.40166
3755000000,-3.1922274,-87.430794,-65.878174,-109.13789,-64.771576,-114.81458,-27.717922,29.794516
3760000000,-9.1399403,-10.20843,-68.237167,168.35965,-68.758141,176.8143,-21.061394,132.48645
3765000000,-10.252415,-61.713615,-64.172768,55.72929,-63.497139,62.633347,-26.612295,-48.127789
3770000000,-4.3016353,-106.76585,-73.399475,-72.667892,-72.384895,-78.184517,-22.080736,95.19529
3775000000,-5.4218388,22.182329,-73.356361,-143.33281,-72.001442,-154.10197,-26.739408,77.337982
3780000000,-6.4428649,-97.107582,-65.268982,92.661354,-67.594849,99.337761,-25.526371,157.43915
3785000000,-9.218051,-70.669014,-67.981239,-22.503462,-67.243111,-21.052227,-18.682617,58.909569
3790000000,-5.9185166,-18.088051,-66.383408,-103.55702,-67.194633,-101.85934,-17.492073,162.70454
3795000000,-2.0307362,-139.14345,-64.949585,134.87656,-66.16655,130.04564,-25.168465,31.854654
3800000000,-3.4045548,6.383584,-69.06279,46.660442,-69.28727,33.654549,-19.50279,135.26761
3805000000,-4.9062319,-86.469803,-68.026649,-44.71534,-67.673363,-45.038113,-49.85569,130.98087
3810000000,-13.174883,-166.72375,-69.807266,-136.25113,-70.91301,-135.65254,-22.466324,89.164047
3815000000,-0.18887705,-46.586533,-68.466286,77.253189,-68.880684,69.140366,-22.395748,107.929
3820000000,-3.249433,160.3504,-68.457359,-16.224945,-65.972969,-15.36156,-24.300787,127.92078
3825000000,-0.80608886,-37.974152,-67.957504,-123.24854,-68.398125,-119.19362,-20.516132,66.467697
3830000000,-7.2403483,-122.40112,-66.289841,133.21513,-67.201508,135.99445,-15.832889,134.00664
3835000000,-19.41338,41.964294,-66.075684,64.7491,-66.233688,64.970512,-40.854523,-13.885168
3840000000,-0.45962816,-78.589752,-67.576454,-44.01754,-68.862442,-41.561775,-18.299023,108.54948
3845000000,-9.3728294,110.5045,-68.840515,-157.92699,-69.148354,-159.51547,-27.639086,127.34505
3850000000,-2.694531,-70.551262,-71.177628,92.034897,-70.402847,91.033813,-24.82312,92.034912
3855000000,-5.8070798,-111.34374,-66.912247,-21.64456,-65.891144,-30.457621,-18.617701,80.182327
3860000000,-10.107247,40.513268,-63.96307,-129.8968,-64.067024,-132.92088,-22.591612,144.47678
3865000000,-0.41350535,-92.703667,-67.717125,150.28551,-69.38047,149.95059,-16.414288,59.664886
3870000000,-19.856224,35.284584,-66.125534,56.929012,-65.057022,57.973827,-16.947853,140.09834
3875000000,-5.5206895,-74.242432,-69.422256,-26.451544,-69.790627,-36.928799,-21.959633,58.656662
3880000000,-3.2023399,-137.81898,-66.696289,-141.92606,-67.350052,-160.27544,-21.187178,111.70153
3885000000,-2.5000725,12.80276,-66.355614,73.525032,-66.524605,74.668091,-18.996151,90.771889
3890000000,1.1472498,-118.69016,-67.27459,-20.280254,-67.145622,-29.015156,-43.065407,-155.8363
3895000000,-17.671471,20.134609,-65.401283,-126.30968,-67.13131,-123.95893,-14.886989,62.624332
3900000000,-3.0545704,-69.819702,-66.600784,172.32913,-66.750587,167.30991,-20.222218,132.97763
3905000000,-3.1871006,-168.38049,-65.527321,54.713226,-65.259338,59.189568,-18.431744,41.520348
3910000000,-0.045124311,-20.298931,-68.935539,-54.794628,-70.457184,-49.288952,-16.246103,105.15825
3915000000,-0.22288559,-145.17038,-67.978493,-151.70406,-65.301643,-152.86981,-25.622459,57.479641
3920000000,-9.5923176,-26.286768,-67.267708,46.203228,-68.299599,58.630917,-19.666487,89.019081
3925000000,-2.9706211,-89.151077,-68.444481,-39.952,-68.499619,-30.241541,-19.599483,66.048271
3930000000,-6.253962,141.58101,-68.024208,-98.079964,-68.312996,-90.843407,-25.626841,151.35043
3935000000,0.48739183,-69.479485,-67.233879,131.69307,-67.461609,137.24713,-14.203374,35.040398
3940000000,-10.936837,177.9637,-69.178879,44.894958,-69.461502,33.674816,-18.353399,130.58833
3945000000,-9.1472998,-113.59477,-69.562424,-78.065483,-69.575401,-75.422874,-17.243732,25.994476
3950000000,-2.220964,-85.636208,-67.30761,162.79272,-68.24559,165.26636,-17.314333,89.413712
3955000000,-9.211339,132.7784,-71.252754,92.897156,-69.928413,89.217522,-25.709616,88.884529
3960000000,-2.40751,-84.963173,-66.300926,-21.067698,-66.573044,-22.498306,-19.659958,35.883858
3965000000,-8.2306414,-137.35872,-67.187683,-122.84844,-67.180962,-116.18853,-19.131115,93.402878
3970000000,-18.304338,-16.928806,-67.079529,167.1066,-68.206436,155.17661,-28.539375,15.688009
3975000000,1.053929,-121.04388,-72.935516,48.497471,-74.564774,40.386425,-17.616163,34.63118
3980000000,-8.1942234,48.889584,-73.489487,-65.151741,-72.251732,-73.809822,-18.933125,102.24043
3985000000,-1.6301441,-111.61964,-70.071327,-164.69354,-68.973183,-160.1994,-20.068317,2.6333251
3990000000,-9.8777618,-167.68126,-70.262642,85.852814,-69.73568,89.22168,-18.587217,83.615646
3995000000,-4.0526547,-46.515453,-70.753136,4.9247661,-69.457336,5.8039079,-24.502039,50.928257
4000000000,1.0993178,-164.51038,-75.666237,-102.03541,-74.647263,-93.43837,-31.088068,8.8528538
END

