!CSV A.01.01
!Keysight Technologies,N5247A,US56070710,A.10.64.09
!Date: Saturday, November 19, 2022 21:06:16
!Source: Standard

BEGIN CH1_DATA
Freq(Hz),S33(DB),S33(DEG),S34(DB),S34(DEG),S43(DB),S43(DEG),S44(DB),S44(DEG)
3000000000,-17.282225,-159.41374,-53.693237,-32.764088,-53.396614,-32.330662,-15.748384,-115.66118
3005000000,-13.341494,164.04994,-55.821518,-123.9269,-56.003403,-124.05005,-15.477748,-154.42097
3010000000,-14.146078,147.09929,-56.799618,138.30963,-56.426418,138.905,-17.505943,-139.9639
3015000000,-12.459225,-165.51138,-56.055313,50.245483,-56.051384,52.186104,-12.897457,-145.70001
3020000000,-13.031712,136.19196,-58.763958,-49.785667,-58.941689,-49.611038,-20.553402,-173.17409
3025000000,-15.271241,176.27681,-59.87928,-124.83231,-59.759567,-127.29955,-12.34384,-143.79538
3030000000,-11.59466,164.75801,-60.185741,136.84386,-60.339378,139.63869,-18.777044,-177.04085
3035000000,-17.637484,111.15141,-62.921406,71.331612,-63.076427,65.807243,-14.259448,-144.51096
3040000000,-8.6018753,179.58574,-61.601231,-9.4154387,-61.576939,-9.8250418,-14.162499,-171.44908
3045000000,-14.69921,112.60662,-61.709259,-88.257179,-61.540375,-91.0756,-18.247007,-154.65732
3050000000,-13.076417,-175.16821,-60.640244,-154.10959,-60.954082,-157.00497,-12.679907,-175.34674
3055000000,-8.5914955,136.6351,-59.782055,89.877098,-59.442291,90.729439,-17.43965,-165.82333
3060000000,-29.687073,-108.53989,-59.596828,10.650532,-59.772705,10.361332,-15.18394,-167.08221
3065000000,-7.2030711,151.59709,-58.878334,-73.084389,-59.12429,-70.945099,-14.459764,-178.94186
3070000000,-18.34516,137.9446,-57.804226,-168.5737,-57.930588,-166.83043,-18.053295,-158.5195
3075000000,-11.694797,155.94275,-58.667439,106.20627,-58.632133,106.97552,-13.096887,172.67641
3080000000,-9.44174,127.26005,-55.422428,13.388991,-55.449272,11.860168,-18.232349,174.34692
3085000000,-15.074915,-163.78307,-55.433105,-75.476616,-55.540173,-74.207214,-14.755955,-176.54439
3090000000,-8.5825834,129.6423,-55.195354,-171.97656,-55.11697,-170.20447,-15.638103,148.36139
3095000000,-15.050795,146.84625,-52.853382,96.590149,-52.884651,95.840729,-14.753343,-157.77963
3100000000,-11.478989,155.53134,-54.487503,1.4371233,-54.493958,2.9725738,-14.635616,146.01701
3105000000,-9.7047367,117.19177,-53.241833,-86.803841,-53.350952,-85.924713,-16.231688,-165.60735
3110000000,-13.092813,168.90715,-53.476383,-178.65305,-53.537239,-178.37761,-14.586563,156.53166
3115000000,-10.515234,125.47559,-53.510483,83.660164,-53.448246,84.754196,-19.852678,162.2545
3120000000,-12.716203,117.54095,-52.639221,-13.58675,-52.753494,-15.536657,-14.847286,164.76631
3125000000,-9.1693411,168.5766,-52.374084,-104.09922,-52.537357,-102.76066,-19.418419,158.88005
3130000000,-8.5922279,86.961769,-52.682392,153.43962,-52.640942,153.91173,-16.555664,163.0242
3135000000,-10.738293,166.90135,-53.329033,62.16259,-53.499687,61.487583,-15.427865,162.14793
3140000000,-8.4798613,112.56781,-53.715233,-34.586624,-53.825504,-33.3843,-20.462196,151.77673
3145000000,-21.312958,100.27228,-54.274017,-126.97691,-54.229115,-126.28977,-14.080722,156.16426
3150000000,-5.7609129,140.55652,-54.949787,143.47012,-54.662346,143.64519,-21.404474,153.8963
3155000000,-12.407041,73.428925,-56.205708,50.988823,-55.991695,52.575905,-17.216478,162.16078
3160000000,-9.0065937,142.82086,-57.17767,-42.446274,-56.774532,-44.060184,-17.133776,142.01329
3165000000,-9.2572823,99.523285,-57.634792,-128.01645,-57.669167,-125.01798,-18.157755,179.74496
3170000000,-15.367229,150.45123,-58.130226,130.16861,-58.135193,127.86797,-15.055943,132.71664
3175000000,-6.9151497,119.40823,-59.978504,58.89817,-59.989933,61.981052,-18.388468,177.936
3180000000,-15.224895,92.611679,-60.822392,-30.800049,-60.611599,-32.486042,-16.570215,141.48041
3185000000,-9.2609987,115.13456,-60.322906,-129.37254,-60.442558,-126.08295,-21.080095,155.08105
3190000000,-10.082686,103.70116,-61.083302,170.43185,-60.83894,169.54961,-16.152491,166.66476
3195000000,-14.672414,128.71475,-60.101227,87.721893,-59.885361,87.179909,-23.05481,125.5564
3200000000,-6.9992809,101.97521,-59.088989,-8.556201,-59.045269,-10.961495,-15.171379,157.99651
3205000000,-13.252504,106.30962,-58.491291,-82.104317,-58.769222,-83.343872,-20.685299,140.72653
3210000000,-10.501157,120.64754,-57.622829,-178.55316,-58.13179,-176.94505,-18.822363,140.62981
3215000000,-7.903337,81.641418,-57.261429,92.705147,-57.723564,91.737877,-15.938997,151.30098
3220000000,-13.378497,138.73988,-57.572121,-2.4825888,-57.494431,-2.591327,-21.288414,145.06761
3225000000,-7.1827517,86.616776,-57.398739,-95.064774,-57.499916,-95.609886,-15.852064,160.80844
3230000000,-15.774193,106.08479,-56.456463,176.85878,-56.949177,178.78139,-18.219757,134.61726
3235000000,-6.3760023,108.94038,-56.345898,83.420166,-56.054619,81.674011,-18.871115,-179.69698
3240000000,-8.6992741,43.817162,-56.007549,-5.4732342,-55.939823,-7.3253388,-14.60772,120.4397
3245000000,-7.7946172,140.5056,-55.469128,-95.616386,-55.49437,-97.547676,-19.409891,-161.78197
3250000000,-7.3615675,64.391319,-54.795933,164.64006,-54.826767,166.4886,-15.005564,127.19375
3255000000,-12.259644,107.75037,-54.938854,77.815948,-54.904804,76.124367,-22.870817,156.80733
3260000000,-7.1602936,92.571487,-54.720062,-14.452599,-54.800423,-15.971722,-14.326478,148.31711
3265000000,-13.246696,48.559502,-53.956806,-113.04885,-54.220268,-112.69247,-20.09491,117.82407
3270000000,-6.9532747,103.0947,-54.787785,155.78021,-54.863235,153.51305,-15.511625,159.10941
3275000000,-10.809798,65.117706,-54.684532,57.774673,-54.539078,61.470413,-18.00008,120.78365
3280000000,-11.965329,99.575409,-54.619297,-35.797615,-54.589931,-37.012238,-18.677691,146.62691
3285000000,-5.9361076,80.752975,-54.368195,-130.8465,-54.682903,-129.93965,-14.67701,148.02718
3290000000,-17.222059,25.081301,-55.763317,137.46759,-55.810379,138.29468,-21.153639,108.03349
3295000000,-6.9109182,97.824219,-55.578274,41.803654,-55.643356,40.374889,-13.462042,151.07846
3300000000,-7.8461008,58.138638,-56.173042,-51.469139,-56.342953,-51.164021,-18.022663,113.90903
3305000000,-16.992863,93.795807,-57.647839,-143.17679,-57.515282,-142.39268,-18.490942,159.02222
3310000000,-5.8707628,69.655716,-58.138035,125.34862,-58.092083,125.4296,-13.748162,120.91529
3315000000,-18.914696,86.342583,-58.982182,27.710411,-59.605274,29.704496,-24.94734,177.97188
3320000000,-6.2647223,78.170357,-59.85844,-67.955261,-60.490654,-67.767845,-12.753841,124.51147
3325000000,-8.9987087,25.936874,-65.402718,-146.46466,-64.67955,-149.4785,-22.208336,112.40431
3330000000,-10.434004,121.29946,-66.237038,130.4194,-65.567558,131.73651,-14.049006,136.43332
3335000000,-5.115623,40.113873,-66.848984,64.89077,-67.960747,65.085602,-16.875607,95.78685
3340000000,-13.403102,103.75774,-66.212952,-5.2124686,-66.404213,-4.2822137,-15.868609,148.34254
3345000000,-6.6044741,59.766212,-64.051392,-85.274925,-63.462376,-84.746155,-16.558558,103.72968
3350000000,-11.269072,24.959667,-61.993355,-168.44186,-61.30085,-167.84093,-17.042402,128.24037
3355000000,-9.1172733,89.117676,-61.167068,101.0704,-60.740486,100.92654,-17.244854,129.79295
3360000000,-9.2015924,27.754337,-59.187248,11.53088,-59.136539,10.25892,-16.170307,90.192871
3365000000,-8.876667,76.201584,-58.669903,-83.797211,-59.072598,-84.598297,-17.67581,134.43735
3370000000,-7.6982269,43.028633,-57.54232,-178.83426,-57.700439,-176.62408,-14.963735,91.529915
3375000000,-11.961859,16.295563,-57.745213,84.406364,-57.912075,84.887207,-21.603109,124.54966
3380000000,-7.7552443,85.507179,-57.018105,-3.8905518,-57.138184,-3.5026057,-13.750088,108.79492
3385000000,-7.9467406,30.251789,-57.166588,-99.096771,-57.639179,-97.531448,-26.350897,72.533585
3390000000,-13.330588,50.380089,-56.634323,173.01759,-56.466618,172.50427,-13.378083,108.24524
3395000000,-6.7615771,50.992599,-56.740856,82.212997,-56.656216,80.329201,-21.710443,69.924271
3400000000,-15.329446,-6.3671837,-56.673725,-10.927887,-56.734276,-13.260488,-16.498703,108.74213
3405000000,-6.4717073,59.36689,-55.752216,-100.58588,-56.233189,-99.736427,-17.718613,77.018631
3410000000,-9.6297636,15.783119,-56.403568,165.46434,-56.562904,163.87794,-19.930456,113.11777
3415000000,-10.815688,56.760967,-55.928715,70.986053,-55.779297,72.657616,-16.17697,83.160629
3420000000,-7.0238447,30.24386,-56.212761,-15.592114,-56.105816,-18.284378,-20.06711,105.7535
3425000000,-17.26207,81.602852,-55.466949,-113.29865,-55.283691,-112.32889,-19.796558,90.695839
3430000000,-4.8533578,30.330374,-55.311462,157.35011,-55.697594,156.3831,-18.606497,69.129784
3435000000,-18.266987,-3.5139301,-55.488003,55.818024,-55.70232,56.723736,-21.355368,118.76231
3440000000,-8.283143,58.04501,-55.808815,-33.084061,-55.842239,-33.290073,-18.414351,52.930592
3445000000,-7.3840361,6.9655247,-56.000729,-124.80322,-56.734379,-124.2906,-21.59712,94.624786
3450000000,-11.504043,65.486275,-56.519485,140.87251,-57.331028,138.74335,-17.796947,86.655754
3455000000,-8.528307,12.03553,-56.972263,48.764053,-56.827545,46.702328,-24.671328,31.465607
3460000000,-12.577095,31.442154,-57.547634,-45.733574,-57.456821,-44.477314,-15.814713,99.418076
3465000000,-8.9262009,39.041714,-58.789795,-130.00496,-58.741982,-129.65071,-25.266615,-10.020018
3470000000,-9.7791739,-3.6509595,-58.205509,134.23936,-58.712265,138.10333,-17.803827,100.46097
3475000000,-10.453601,59.481228,-59.516453,43.913994,-59.270958,44.910667,-23.912954,51.021164
3480000000,-7.4934039,7.5114279,-60.165379,-44.470173,-59.876534,-43.246323,-27.000172,137.40062
3485000000,-13.76478,2.4404263,-60.894943,-130.49806,-60.902317,-128.67902,-17.28722,58.004009
3490000000,-8.1373529,49.290421,-62.958027,159.55368,-62.922195,158.19849,-26.930273,168.9771
3495000000,-9.5164366,-23.561386,-61.721313,70.439049,-61.938919,67.669945,-20.247448,54.061504
3500000000,-8.6696796,48.041344,-61.969189,-11.134161,-62.585331,-8.9417906,-23.854414,89.991127
3505000000,-8.7130241,-3.0952096,-61.115337,-96.186722,-60.770714,-94.11731,-26.324554,152.14944
3510000000,-18.090254,22.43095,-59.419949,-178.64377,-58.456768,179.83673,-19.42955,54.905243
3515000000,-5.5978589,18.936974,-58.919296,84.697273,-59.0812,85.491287,-26.270681,-176.11076
3520000000,-21.659866,-72.125847,-58.023605,-8.8335228,-58.229069,-11.036573,-18.893646,75.26123
3525000000,-6.2643337,28.989182,-57.904705,-96.785583,-58.064434,-96.32235,-27.020329,-33.883827
3530000000,-9.8285208,-24.025652,-56.748875,168.61945,-56.84425,167.57428,-15.53696,117.11436
3535000000,-13.691625,51.329365,-57.546028,77.938492,-57.108891,77.78479,-21.197834,-35.713295
3540000000,-6.5253253,-1.1177542,-56.642754,-12.115079,-56.481152,-14.549548,-15.513981,127.11189
3545000000,-18.930374,22.397747,-56.676449,-107.35471,-56.618061,-106.87871,-25.502089,4.6355772
3550000000,-8.7583199,13.956313,-56.550713,166.60674,-57.23634,167.5578,-22.910267,151.33644
3555000000,-11.320542,-0.89277792,-55.618855,71.899284,-56.187382,73.519287,-20.478882,75.675888
3560000000,-12.523917,26.337069,-56.63728,-17.559551,-57.035557,-14.777106,-28.811424,-143.97508
3565000000,-9.6097183,-16.307991,-55.78685,-105.24325,-55.786854,-107.33141,-21.036518,96.963089
3570000000,-13.613235,19.933298,-55.475651,160.0726,-55.26963,159.7323,-25.848951,66.284882
3575000000,-10.251654,18.403896,-54.399708,69.291924,-54.413456,70.644562,-21.796255,148.09454
3580000000,-10.508878,-30.328489,-54.712357,-26.491817,-54.603855,-23.682302,-18.813683,64.55442
3585000000,-9.2280064,35.088913,-53.16893,-121.16039,-53.404736,-120.76353,-22.274076,-177.16264
3590000000,-9.2034016,-38.706131,-53.575077,148.17015,-53.463139,147.7674,-19.931604,83.377151
3595000000,-12.727814,43.216976,-53.584854,49.996616,-53.494495,48.14859,-32.567257,64.19297
3600000000,-7.6709003,-1.0663544,-53.15131,-45.850933,-53.320572,-45.614697,-17.454412,141.55582
3605000000,-17.90296,-48.331371,-53.684063,-144.37247,-53.860172,-145.07222,-19.63233,11.452462
3610000000,-6.2571931,16.926928,-53.841919,117.70214,-54.111721,117.09203,-17.384163,138.69766
3615000000,-14.024558,-62.263103,-54.507004,15.803002,-54.650223,17.426922,-21.267708,48.476856
3620000000,-10.170429,28.049299,-55.61623,-79.499832,-55.73774,-77.503006,-26.121609,174.12343
3625000000,-8.1176682,-22.795568,-57.281166,-176.75194,-56.666721,-175.84767,-17.585266,86.434067
3630000000,-16.664982,63.19957,-58.160259,87.619904,-58.584541,88.37413,-27.990574,-112.91478
3635000000,-6.5264997,-15.669165,-61.824951,-6.4448595,-61.608696,-7.2846494,-17.546068,85.597763
3640000000,-16.885674,-22.083145,-64.070816,-103.1908,-63.432331,-101.16905,-29.85314,133.09576
3645000000,-10.858867,9.8494902,-72.442062,157.59718,-71.351021,153.71346,-29.164392,45.592155
3650000000,-10.201604,-18.587366,-76.86599,-116.20381,-76.747505,-86.64994,-18.101225,85.482452
3655000000,-11.975609,15.341013,-71.483765,154.10919,-71.171402,151.20457,-30.179258,-127.92799
3660000000,-9.3841925,-21.747437,-63.260529,59.308788,-64.094406,57.96727,-18.217016,89.18531
3665000000,-13.468498,-3.4019582,-60.142769,-55.441727,-60.138195,-53.910545,-32.070557,0.78764868
3670000000,-11.267159,18.240805,-58.016148,-151.30019,-57.80275,-150.30513,-19.282251,127.56384
3675000000,-8.1392746,-37.312027,-57.342537,111.49408,-56.788227,111.15823,-19.784567,1.9058198
3680000000,-12.309443,36.945576,-55.448635,10.325708,-55.371471,10.751853,-17.381521,145.2043
3685000000,-7.9705048,-24.837881,-53.951057,-85.988892,-54.308651,-83.193535,-19.483711,-10.665489
3690000000,-16.195112,-9.1675072,-53.093323,178.41289,-53.076199,179.35556,-21.305235,128.39409
3695000000,-7.417819,7.4620175,-52.592548,83.966675,-52.878399,82.99752,-24.963045,51.64043
3700000000,-11.590273,-69.072273,-52.614239,-13.370665,-52.563911,-12.835295,-38.648186,-110.72227
3705000000,-7.2264161,18.399694,-51.958958,-109.46327,-52.040085,-109.51109,-19.646212,73.793755
3710000000,-11.148695,-52.222458,-52.091328,148.88548,-51.995449,149.8632,-29.857964,-150.35034
3715000000,-10.799192,14.450295,-52.288479,54.698963,-52.268585,57.352047,-26.953262,70.761024
3720000000,-6.4436769,-21.995203,-52.036461,-40.865948,-52.087978,-40.649345,-25.961935,105.62645
3725000000,-27.52323,-57.754604,-51.631058,-140.64835,-51.76173,-140.05093,-28.580729,-120.41219
3730000000,-6.5531983,-7.0908427,-52.726696,124.40489,-52.777302,122.57027,-19.915857,72.044067
3735000000,-13.670238,-21.843575,-52.73262,29.703667,-52.707527,28.698639,-27.878359,-138.79858
3740000000,-11.176705,-4.6066942,-53.340652,-68.568253,-53.49258,-67.011269,-24.2635,122.88393
3745000000,-6.8650556,-26.343618,-54.040466,-165.7496,-54.12331,-164.46707,-24.870678,-10.966566
3750000000,-18.020645,-18.791973,-55.069664,107.87362,-55.463161,106.85962,-17.201706,162.75645
3755000000,-11.5855,-11.226265,-56.289799,4.1937761,-56.351059,4.4312696,-19.185438,1.2446412
3760000000,-7.1216273,-18.899883,-57.21352,-90.966415,-57.383068,-90.398117,-17.269751,171.02214
3765000000,-12.098226,-24.374559,-60.230427,177.45184,-60.220661,-179.4691,-21.909887,28.824358
3770000000,-8.2459164,-37.649197,-60.896988,79.399353,-60.285751,74.996895,-23.527517,-145.3205
3775000000,-13.913074,3.6296449,-63.919918,-10.324532,-63.627701,-9.5003977,-18.432028,96.16526
3780000000,-7.1976805,-13.419523,-69.95079,-102.51217,-68.348999,-101.21076,-22.094364,-115.65707
3785000000,-10.248349,-54.699791,-71.652878,-167.84627,-72.367058,-159.23604,-19.253532,109.78201
3790000000,-7.5094328,-0.28279728,-69.511971,167.32671,-71.669838,174.57228,-26.591015,144.4397
3795000000,-8.8686514,-74.327881,-66.023918,94.258118,-65.392227,91.603012,-24.717789,-147.84009
3800000000,-8.1559181,15.966799,-62.95715,18.686241,-61.780388,23.053247,-18.163179,99.161369
3805000000,-5.5100412,-39.013592,-59.142719,-76.374893,-59.152809,-76.545265,-20.456758,-116.48135
3810000000,-17.69887,-67.128036,-57.983185,-172.10284,-57.862808,-168.83727,-17.02857,115.33382
3815000000,-5.2763491,-20.488316,-56.790318,99.322006,-57.140102,97.681007,-29.548622,-33.665714
3820000000,-17.488827,-52.861042,-54.798595,2.2800076,-55.308311,2.7004435,-15.123262,154.02266
3825000000,-6.5402684,-22.918274,-54.960197,-97.931473,-55.052132,-98.684906,-18.433613,25.202108
3830000000,-8.3216839,-46.480045,-53.452667,166.14595,-53.659241,168.41441,-14.120015,166.54521
3835000000,-13.325395,-31.364592,-53.194824,68.511124,-53.322655,69.973473,-23.588085,55.413929
3840000000,-7.3721471,-35.092438,-52.618763,-30.769863,-52.716854,-29.457899,-23.621477,175.18488
3845000000,-10.961631,-31.317127,-53.038116,-120.99416,-53.158588,-121.85963,-16.938581,122.31976
3850000000,-8.007863,-36.017754,-52.681946,139.48947,-52.686569,139.77367,-31.961754,-58.72773
3855000000,-6.5616379,-57.553894,-52.807053,43.709282,-52.780586,45.950127,-16.098852,122.6732
3860000000,-16.361504,-3.9923246,-52.883938,-49.302311,-52.827427,-50.299572,-27.400677,101.79403
3865000000,-4.6795101,-38.300171,-52.839283,-146.14044,-52.988956,-145.23981,-25.316635,134.37128
3870000000,-11.390253,-57.352676,-53.279129,116.55229,-53.521782,118.77238,-16.193758,116.49525
3875000000,-7.2513394,-30.73904,-53.584766,22.996761,-53.817085,25.306128,-33.048168,-109.79335
3880000000,-7.6530461,-82.068222,-53.758514,-76.03907,-54.007435,-72.871452,-16.157587,120.76859
3885000000,-7.7594156,0.084396526,-54.646202,-168.27208,-54.778851,-167.7691,-22.845579,55.31015
3890000000,-4.1594834,-67.606087,-55.271534,100.16573,-55.148453,102.19903,-17.465374,167.73691
3895000000,-14.683818,-37.896046,-55.554737,4.9567351,-55.887493,5.8712621,-14.038068,46.702003
3900000000,-4.7991176,-43.09964,-57.077927,-86.062996,-57.330132,-86.126129,-14.753678,175.15819
3905000000,-11.22945,-85.391968,-57.640392,176.52197,-57.825142,178.90369,-15.824713,55.579086
3910000000,-5.607645,-20.276983,-59.703926,85.508583,-59.86414,86.600227,-21.236622,156.48129
3915000000,-5.7445607,-84.041832,-61.552383,-4.2729359,-61.563133,2.3219874,-16.95256,92.565567
3920000000,-10.58974,-32.402733,-61.97826,-88.167549,-61.584103,-90.003532,-36.298538,55.36306
3925000000,-6.1207047,-50.273212,-65.496254,176.59874,-66.664375,178.49507,-16.710182,102.97659
3930000000,-11.148835,-78.671837,-69.128387,105.29817,-66.513123,107.45316,-33.824406,118.74407
3935000000,-5.8056068,-44.503353,-67.762741,30.533194,-67.34436,21.67547,-21.585251,58.055836
3940000000,-6.72932,-71.188316,-68.832657,-33.547867,-68.53804,-33.340363,-15.938514,107.93378
3945000000,-15.35628,-76.124001,-65.142723,-105.82818,-64.675262,-104.57417,-25.72613,-16.901743
3950000000,-3.612123,-44.586964,-62.467827,165.15334,-62.477825,165.88509,-14.73161,97.131119
3955000000,-9.1759958,-102.72572,-60.147152,73.20961,-60.110924,76.134827,-29.453905,-11.580899
3960000000,-6.3841424,-37.128399,-58.896152,-14.807972,-58.439594,-14.345629,-19.664673,103.36717
3965000000,-5.6321836,-92.304443,-57.503963,-112.57459,-57.576653,-111.31627,-19.228611,52.548477
3970000000,-12.322886,-20.065817,-57.367607,156.64471,-57.175575,159.61397,-21.970224,171.45671
3975000000,-2.8159928,-76.849312,-56.772354,59.657612,-56.258057,61.231159,-14.803561,44.334011
3980000000,-15.834302,-61.123356,-55.989571,-34.465637,-56.168388,-33.605488,-23.136175,154.89355
3985000000,-4.5535922,-66.20005,-55.907093,-129.4344,-55.826336,-128.56238,-18.828276,59.17622
3990000000,-11.021328,-100.06532,-55.113831,136.31844,-54.881413,138.57324,-28.81171,21.199286
3995000000,-5.511342,-44.682953,-55.283325,42.569153,-55.429394,42.881714,-18.479918,110.17348
4000000000,-5.7841473,-108.07365,-54.918476,-53.689053,-54.495628,-51.336838,-21.923458,-4.4610419
END

