!CSV A.01.01
!Keysight Technologies,N5247A,US56070710,A.10.64.09
!Date: Saturday, November 19, 2022 23:35:16
!Source: Standard

BEGIN CH1_DATA
Freq(Hz),S33(DB),S33(DEG),S34(DB),S34(DEG),S43(DB),S43(DEG),S44(DB),S44(DEG)
3000000000,-13.173335,171.61014,-63.081047,-132.73077,-63.110149,-131.69164,-18.132719,-159.7001
3005000000,-12.412308,82.336456,-64.040527,143.30121,-64.084282,151.92873,-17.350742,-153.49376
3010000000,-13.939763,125.23313,-60.620731,24.084894,-60.683151,26.655912,-15.494415,-167.39207
3015000000,-11.402238,160.07599,-61.777054,-75.688026,-61.862289,-74.759789,-15.910577,-154.62076
3020000000,-15.141216,61.257893,-62.135113,-171.1804,-62.60844,-176.24921,-16.447315,-174.50572
3025000000,-8.59865,136.60507,-60.758385,95.117073,-61.179886,94.424698,-14.628392,-161.58954
3030000000,-21.190889,83.450363,-63.133244,7.6013713,-62.673954,6.7917337,-18.578588,-179.09583
3035000000,-13.447354,79.744843,-67.420067,-108.96468,-67.190331,-110.49277,-14.047374,-172.99129
3040000000,-8.0488071,141.61143,-64.332245,144.88335,-64.847939,143.26094,-18.32185,176.99985
3045000000,-24.202223,67.300461,-64.950882,25.378952,-64.536743,30.927288,-15.581605,175.90541
3050000000,-10.863542,94.218147,-64.32373,-77.483627,-64.815712,-75.138809,-14.50606,167.8569
3055000000,-9.2098856,127.36771,-64.581749,-156.48199,-64.535034,-152.91528,-16.019478,-174.10991
3060000000,-16.981936,12.438034,-62.015465,85.9505,-62.369511,87.453712,-14.968548,158.9491
3065000000,-6.6445642,113.97941,-59.882229,-10.259451,-60.185932,-9.7283525,-15.643291,-174.5535
3070000000,-20.817154,137.64545,-64.238785,-100.35527,-64.619659,-95.36734,-16.871494,154.67212
3075000000,-11.260258,82.606979,-64.218643,146.16759,-63.231796,150.25586,-16.224567,165.45264
3080000000,-6.5722742,106.27374,-65.064987,43.962032,-64.688972,34.449219,-16.350748,156.60699
3085000000,-19.643759,-130.62764,-65.390717,-76.283371,-65.655777,-75.338646,-17.10854,154.21509
3090000000,-6.1413565,82.276794,-64.982414,-178.8981,-64.803185,-175.47159,-13.970181,149.90802
3095000000,-14.83495,144.71466,-63.612446,62.43034,-63.325375,63.524395,-17.795103,169.761
3100000000,-12.117682,97.708099,-63.486725,-22.378561,-63.786827,-17.171846,-14.776408,141.31154
3105000000,-8.1347761,75.420677,-63.99271,-128.91237,-63.867096,-128.24657,-16.718884,169.90532
3110000000,-9.9722614,139.22316,-64.666527,143.83827,-64.700966,140.92555,-17.344805,134.26117
3115000000,-11.368715,33.642467,-63.235489,47.686691,-63.393139,49.776642,-17.07489,155.57266
3120000000,-7.5755305,102.97544,-66.653336,-60.593388,-65.790634,-64.63401,-16.811897,131.87804
3125000000,-14.437166,136.36757,-70.092522,-177.02228,-69.833809,175.1891,-17.421762,149.90538
3130000000,-6.896492,52.828358,-66.974739,68.410812,-66.215523,73.448631,-15.588469,128.36922
3135000000,-9.3992853,114.55215,-65.026329,-42.189251,-64.562836,-36.011478,-17.588573,162.50853
3140000000,-13.586366,79.314117,-62.9212,-158.90981,-62.795834,-160.40442,-16.069309,121.29573
3145000000,-9.8471985,49.665195,-65.115532,123.55345,-65.079506,124.66475,-17.31254,154.21774
3150000000,-6.5860896,120.45491,-66.196053,15.179167,-65.83889,18.670425,-18.117588,138.19415
3155000000,-10.376205,33.820274,-67.724998,-75.467926,-67.39888,-83.560928,-19.401167,126.12648
3160000000,-8.0140772,87.908875,-69.850929,-161.75299,-70.347031,-149.95111,-16.422089,139.18932
3165000000,-10.771468,80.586617,-75.336975,100.2152,-76.891159,104.90019,-19.292253,118.68589
3170000000,-16.207144,60.911961,-68.91346,-54.083202,-68.656433,-55.262516,-15.666803,136.0383
3175000000,-7.1448431,87.052322,-68.943192,-170.9222,-67.303711,-177.13739,-18.094122,140.7063
3180000000,-17.231112,49.019161,-68.887993,98.130592,-69.348648,89.083885,-18.137383,128.13139
3185000000,-6.7719274,58.85165,-66.778351,2.3884757,-66.315285,2.4527533,-16.848053,150.1033
3190000000,-9.9501238,80.630615,-69.075676,-114.89359,-69.749962,-117.17056,-20.725897,135.79036
3195000000,-15.847692,43.905342,-66.743172,172.78053,-65.815422,171.12625,-21.62228,126.29588
3200000000,-6.2808008,61.839783,-72.380478,105.41673,-74.890358,119.80949,-15.925537,123.55434
3205000000,-9.7149105,107.40645,-75.846756,-30.731638,-79.227425,-47.31456,-25.14665,137.65445
3210000000,-9.2685747,23.419952,-86.438919,57.383656,-82.506294,103.16076,-14.193342,117.47324
3215000000,-7.7376652,64.910088,-76.695404,18.296293,-73.374542,25.152021,-21.625673,141.41051
3220000000,-14.245719,79.491997,-74.426308,-41.169857,-72.160072,-40.082321,-15.709458,129.08801
3225000000,-8.6973886,36.392426,-76.464104,-146.88765,-74.761986,-126.87637,-19.092667,130.56522
3230000000,-8.513422,70.38884,-69.94503,153.81404,-69.294266,151.27213,-17.908281,145.86357
3235000000,-12.622997,74.069916,-73.015137,80.889404,-71.45694,67.383789,-20.359474,111.92471
3240000000,-4.6906419,29.039326,-73.210159,0.17455412,-72.742889,15.480626,-16.913416,128.77289
3245000000,-11.847108,109.88925,-70.685898,-71.566727,-71.527924,-79.996521,-19.979166,139.20061
3250000000,-9.3847198,29.319141,-74.716759,-165.74899,-74.408417,-161.15567,-17.325449,104.59565
3255000000,-8.2848082,53.870609,-75.072388,171.10014,-78.741661,-164.07707,-17.586845,139.20251
3260000000,-9.9804993,69.901062,-80.663094,90.707886,-79.715874,107.82199,-16.267426,111.15822
3265000000,-8.0192232,7.0533314,-76.307152,114.33184,-79.993584,120.0057,-18.364712,138.90741
3270000000,-6.1354513,67.898186,-78.435699,-1.0136273,-76.199089,22.986061,-16.5867,122.83176
3275000000,-15.475558,-1.7321332,-76.041153,-59.767658,-77.10923,-25.799706,-21.185669,112.54782
3280000000,-8.451622,50.140182,-72.654373,-91.919098,-75.38842,-93.544487,-14.664297,120.37285
3285000000,-7.220788,55.625832,-73.570572,177.45499,-76.151604,-177.52357,-20.508827,122.05541
3290000000,-13.468061,-17.380482,-74.852203,96.732674,-75.571075,107.68886,-16.028448,110.10895
3295000000,-6.3140812,30.853987,-70.077049,30.145586,-69.552376,25.340965,-15.759196,118.15363
3300000000,-10.359448,65.51783,-81.681236,-56.699013,-79.147964,-48.434929,-17.627777,125.11194
3305000000,-10.603563,-6.1284575,-85.459908,-131.77841,-85.462685,-85.712723,-16.538548,111.6318
3310000000,-6.1245379,46.535618,-77.467743,-142.804,-76.772705,-152.29242,-17.037083,125.57404
3315000000,-14.6341,36.950619,-75.714981,-106.05358,-75.443054,-120.01691,-19.876289,102.39774
3320000000,-8.4908504,14.516888,-77.933502,144.25682,-74.021896,158.30057,-15.223703,106.43793
3325000000,-8.4005461,23.106804,-72.55542,33.585384,-73.670891,40.257141,-19.396521,105.07111
3330000000,-31.540627,-128.29082,-68.411728,-18.230379,-69.061363,-15.262804,-14.347619,101.35751
3335000000,-2.9796398,16.914032,-72.461632,-107.67915,-73.290138,-107.03041,-17.777399,106.66206
3340000000,-14.44557,52.581432,-77.063873,178.23161,-77.218666,-177.62993,-14.856979,109.88393
3345000000,-9.9892273,4.487618,-73.562149,87.852036,-74.653984,91.882545,-19.408279,94.193687
3350000000,-6.3443713,4.2282791,-84.541702,114.52807,-91.397575,-148.95148,-14.939267,110.95525
3355000000,-11.740893,72.916893,-75.979095,122.67051,-76.686806,122.17546,-21.777407,79.445992
3360000000,-8.2796354,-26.981043,-71.359489,5.1369108e-005,-71.971252,3.477917,-15.166725,95.476212
3365000000,-5.6668472,32.192852,-66.634361,-83.657639,-65.653595,-87.800476,-19.098419,76.739723
3370000000,-12.146441,-10.364445,-67.298843,175.57057,-66.715309,-173.78636,-15.073198,91.110237
3375000000,-6.5991454,-1.5760758,-67.131416,96.421082,-66.586311,95.39328,-16.940304,84.802078
3380000000,-11.285329,41.495331,-68.099602,-10.535562,-69.051476,-9.6756916,-17.432617,99.04776
3385000000,-14.672099,12.291225,-69.971764,-166.5918,-70.864044,-149.81422,-17.616426,75.272308
3390000000,-5.0091972,-8.1116695,-70.256958,64.306824,-69.863899,64.737999,-17.249207,87.292099
3395000000,-12.294732,64.721924,-64.548622,-50.885334,-65.798988,-50.163548,-18.816488,77.186966
3400000000,-6.3168659,-34.931122,-63.497147,-147.96756,-62.970947,-145.83179,-17.075737,74.944633
3405000000,-9.2089777,4.661581,-61.856041,105.08135,-62.726604,101.72444,-19.331871,71.706306
3410000000,-11.28794,29.045807,-62.552689,0.063019499,-62.444588,3.4624972,-15.810447,70.571632
3415000000,-6.8801227,-27.922005,-64.100281,-110.1441,-64.348122,-104.53368,-19.286449,74.095985
3420000000,-6.9827495,24.550308,-66.077263,143.73427,-66.305016,137.26813,-16.794027,85.97007
3425000000,-16.347492,-36.956322,-67.060646,11.562663,-66.577927,6.9827561,-21.412344,46.803364
3430000000,-5.9109187,-14.554082,-65.208908,-98.739815,-65.248779,-99.775108,-17.5861,84.595421
3435000000,-17.965519,12.926589,-62.341957,148.48853,-62.998138,151.01724,-21.740419,46.467255
3440000000,-10.71625,-14.480665,-62.336754,44.145405,-62.262985,47.579014,-20.734327,57.940453
3445000000,-5.82899,-13.047761,-62.677948,-57.047031,-62.387302,-55.591866,-17.156408,55.071632
3450000000,-12.505475,9.8868132,-62.284569,-154.34198,-62.829803,-154.47765,-22.435688,68.448853
3455000000,-8.9819374,-52.919323,-63.395374,98.677711,-64.038879,97.739471,-18.330915,57.925175
3460000000,-8.5847769,15.365707,-64.656219,-11.17975,-65.180336,-12.489019,-20.521521,71.508156
3465000000,-11.784372,-25.995689,-64.599403,-126.66523,-65.139229,-124.4542,-25.12664,66.067078
3470000000,-8.4304972,-33.876633,-62.719231,125.3726,-62.760231,118.2878,-18.640821,61.404472
3475000000,-8.0679502,6.7865171,-63.585464,10.382962,-64.718864,8.9326677,-34.373951,95.400398
3480000000,-11.55023,-75.272102,-62.216396,-90.611992,-62.60165,-85.214378,-20.347103,45.806263
3485000000,-5.181479,-12.914515,-61.849239,173.21901,-61.994873,170.62355,-22.035276,40.995602
3490000000,-21.62075,31.446732,-62.630257,67.57634,-62.100101,68.581253,-22.547535,101.45425
3495000000,-8.4520559,-30.612499,-63.830914,-37.197987,-63.561749,-34.933601,-18.507372,16.367704
3500000000,-7.0303793,-23.926668,-63.120815,-139.93175,-64.146553,-141.05273,-18.349136,110.44329
3505000000,-22.702118,22.103018,-63.413475,114.93394,-63.939701,115.06936,-24.142532,18.18618
3510000000,-6.3881488,-50.515255,-62.037411,-1.2727633,-62.243935,-5.2360997,-22.728014,99.86245
3515000000,-8.5359659,10.185696,-62.702728,-106.4696,-62.262119,-108.52943,-28.251108,54.009113
3520000000,-15.363892,-82.295654,-61.055534,148.65134,-61.867863,148.19971,-27.269455,32.234344
3525000000,-7.6652484,-28.416258,-61.138023,48.864502,-61.098343,47.821384,-20.96706,60.4939
3530000000,-9.1800861,-19.112375,-61.517769,-61.426311,-61.248425,-61.508968,-22.811579,91.766548
3535000000,-12.792037,-85.960014,-63.624882,-155.58823,-63.025032,-153.59239,-27.000946,47.700905
3540000000,-7.3240647,-28.356752,-64.923897,95.832451,-64.513466,83.489235,-18.400196,96.835457
3545000000,-13.0309,28.075775,-63.640865,-13.686242,-63.774704,-18.909851,-37.983559,-128.09457
3550000000,-6.1022191,-57.994411,-64.146111,-134.86969,-63.72599,-135.63304,-19.662533,85.051933
3555000000,-12.587907,9.6654139,-62.398674,125.13579,-62.96838,126.83513,-45.171078,126.32082
3560000000,-10.549542,-50.239414,-62.711658,24.287394,-62.920002,30.511957,-23.163994,88.894615
3565000000,-12.42463,-87.55719,-63.589249,-75.034866,-63.462616,-77.778442,-25.400066,41.275993
3570000000,-5.3739204,-1.8950429,-64.542732,177.76932,-64.237228,-177.21011,-22.355198,93.580696
3575000000,-13.008217,-124.50806,-67.204544,76.380959,-67.119843,80.779289,-23.115856,62.585545
3580000000,-6.2596269,-35.369347,-68.047882,-26.115339,-67.990463,-29.328945,-21.670647,96.997597
3585000000,-13.091467,-31.741453,-71.812859,-135.37383,-73.004791,-144.42172,-23.616051,97.642433
3590000000,-14.108975,-107.25214,-72.823318,124.69894,-72.004143,112.66605,-30.677782,68.607582
3595000000,-5.8780255,-26.977324,-71.4347,19.78764,-72.381653,6.0682673,-19.769529,85.672775
3600000000,-21.90506,-27.014307,-70.008369,-56.16954,-69.702263,-63.446091,-35.657337,121.21407
3605000000,-7.3828368,-59.601295,-69.354904,-159.79245,-67.962555,-151.15024,-21.264919,56.832821
3610000000,-9.8337164,-27.315306,-67.729111,114.32094,-66.346443,111.73512,-22.313303,83.691063
3615000000,-28.404091,-134.33554,-65.880127,31.236748,-65.250282,30.041225,-24.113501,79.299309
3620000000,-7.6719112,-49.630531,-66.012108,-73.08152,-67.466751,-77.191277,-21.77228,70.331505
3625000000,-9.9467945,-37.981293,-66.24276,-179.06259,-65.697639,-173.08737,-22.785534,97.933289
3630000000,-31.085775,69.664459,-66.214378,72.267517,-67.033112,75.432518,-27.2715,86.152428
3635000000,-4.6337624,-67.000458,-67.084846,-39.575573,-67.57196,-41.197357,-21.066788,54.490215
3640000000,-15.195043,23.298246,-65.271767,-148.9417,-65.479248,-152.30731,-22.766539,141.80537
3645000000,-6.778161,-76.510704,-65.112717,97.994812,-63.747181,99.840103,-18.588976,11.581582
3650000000,-15.24216,-22.302322,-63.393082,1.2457985,-63.134735,3.2231653,-19.575718,109.85191
3655000000,-7.3198495,-21.564693,-61.914845,-95.083389,-62.400387,-94.631248,-22.362028,19.787127
3660000000,-6.416739,-99.977547,-63.482906,172.69754,-62.787319,167.77739,-22.665836,93.356773
3665000000,-7.3065376,9.6578436,-62.447773,64.246109,-62.652534,64.578438,-21.970018,63.760826
3670000000,-10.226697,-107.31955,-63.983845,-35.03281,-63.957241,-35.840721,-30.590527,122.62753
3675000000,-10.863724,-35.379787,-63.739891,-147.31805,-63.874718,-143.66359,-22.897125,49.845123
3680000000,-8.0407448,-43.075172,-65.534584,106.32066,-66.629173,109.22726,-25.609493,123.92552
3685000000,-12.862939,-107.91431,-64.274002,4.5695534,-63.596985,1.9622897,-24.065596,-29.675962
3690000000,-6.892149,-41.945351,-63.298237,-108.99077,-62.898499,-110.19418,-19.900206,70.211403
3695000000,-17.559963,-33.67445,-63.199219,159.98785,-62.954227,158.36108,-30.43309,-29.626284
3700000000,-10.278621,-89.906319,-61.376766,56.133202,-60.70266,50.434925,-21.858868,72.499405
3705000000,-5.6701841,-28.961437,-62.388779,-43.102345,-62.489937,-48.637939,-24.117699,30.100931
3710000000,-12.893596,-141.54315,-61.2738,-144.93224,-61.893044,-145.58051,-23.292547,136.04475
3715000000,-6.242415,-48.897404,-63.890972,110.74413,-63.320919,106.52402,-20.367636,21.963432
3720000000,-10.210903,-57.482914,-63.770607,8.6407337,-63.314365,8.863555,-21.154022,156.5006
3725000000,-28.114283,-167.90207,-63.529713,-107.15706,-63.47414,-106.97398,-22.335112,2.0234065
3730000000,-3.3810675,-56.490978,-62.912949,156.59555,-62.973598,155.52435,-27.786928,94.632965
3735000000,-28.453482,91.058495,-62.073029,44.550354,-63.048943,44.627468,-24.769632,87.342995
3740000000,-8.1162567,-63.444931,-61.57193,-54.737988,-62.129417,-57.321735,-40.617203,25.209736
3745000000,-6.9433494,-78.971634,-61.420288,-154.70325,-61.493153,-157.17043,-23.147739,95.874229
3750000000,-11.541175,21.56777,-61.676079,104.40293,-61.855984,105.37352,-30.371925,160.0076
3755000000,-4.5545225,-109.89328,-62.059483,-0.53770268,-61.780445,-2.7176003,-30.233646,39.107372
3760000000,-6.661922,-8.6421795,-62.248806,-104.07608,-62.224586,-100.5973,-22.201303,134.58601
3765000000,-6.167429,-91.522179,-62.908401,148.15672,-62.284676,150.64127,-26.218082,-42.003326
3770000000,-10.626369,-104.89624,-62.81205,45.881203,-62.470547,39.893562,-22.117186,102.99205
3775000000,-6.0597963,-23.196363,-61.932346,-61.133327,-61.761879,-65.006958,-27.09646,55.844948
3780000000,-9.3540421,-130.17854,-61.149418,-166.43533,-61.152634,-167.8549,-23.964741,151.52641
3785000000,-6.119863,-52.48447,-61.627544,93.093681,-61.940342,92.709869,-19.387915,55.868298
3790000000,-9.791151,-59.957485,-61.461498,-2.3193924,-61.69178,-3.6147761,-17.72508,160.42953
3795000000,-7.6952462,-126.64369,-61.453407,-101.3859,-61.501053,-106.44199,-25.863535,37.13184
3800000000,-6.7388964,-37.612946,-62.292587,150.11855,-61.808872,150.75233,-20.265072,140.11787
3805000000,-10.818518,-86.741379,-63.886684,46.048077,-63.940372,47.976227,-42.782207,77.047867
3810000000,-11.895077,-96.474548,-62.614937,-63.893738,-62.575832,-60.125034,-22.663002,90.727051
3815000000,-2.7294383,-63.726593,-62.676342,-164.08794,-62.950787,-162.59224,-23.691751,110.8881
3820000000,-9.3623219,154.28589,-61.681652,87.170616,-61.435108,93.185234,-23.911425,115.58501
3825000000,-2.1195722,-60.471306,-62.331867,-13.929063,-62.267788,-15.305654,-21.54454,70.850098
3830000000,-13.753027,-141.98141,-61.944363,-113.02643,-62.154743,-114.78962,-16.142475,130.55133
3835000000,-9.7091608,-57.521271,-61.563473,140.11545,-61.706844,139.50681,-49.175209,-55.585972
3840000000,-3.441782,-100.34936,-62.863304,35.261906,-63.191261,39.929485,-18.583832,111.76701
3845000000,-15.987864,24.942181,-62.924572,-61.924,-62.450241,-63.796413,-30.259604,105.53073
3850000000,-3.7083821,-96.249268,-63.054096,-169.59035,-64.225876,-167.39651,-23.794495,106.74535
3855000000,-10.409481,-99.775177,-62.718208,88.425995,-63.107208,89.170883,-19.419867,71.901329
3860000000,-11.210391,-57.169132,-63.029808,-17.014919,-62.83939,-17.26421,-22.10556,137.73935
3865000000,-4.9668179,-105.1561,-62.442417,-119.1694,-62.976501,-119.59694,-16.614866,61.87545
3870000000,-9.7011147,-61.939667,-62.427273,139.95337,-62.116322,143.25255,-17.781591,142.87541
3875000000,-7.964788,-106.69065,-61.941078,38.555416,-61.791882,37.821053,-20.520123,63.611752
3880000000,-7.5642118,-119.46937,-63.452114,-62.175888,-63.01009,-62.187992,-22.250515,121.54732
3885000000,-7.6240869,-30.547884,-62.452324,-162.04742,-62.42926,-159.37277,-19.208553,85.71447
3890000000,-2.38573,-123.3823,-62.556347,94.166466,-63.318176,89.641777,-38.680214,165.65945
3895000000,-12.567966,-74.48864,-63.600475,-13.376764,-63.719006,-18.039215,-15.513804,60.105324
3900000000,-5.7840252,-86.785072,-65.296066,-119.1823,-63.999958,-116.98471,-20.455051,127.42254
3905000000,-8.2186918,-137.76497,-63.410847,133.78018,-62.065311,140.53943,-18.590109,42.606998
3910000000,-5.0377283,-50.770344,-62.949741,28.066072,-63.759686,36.468727,-16.596882,107.37347
3915000000,-4.9140882,-144.50792,-62.737534,-70.730499,-62.896076,-71.155357,-23.958647,47.189014
3920000000,-7.3061852,-66.29583,-63.152721,-167.69333,-63.333004,-162.33788,-19.837782,99.124802
3925000000,-5.7671375,-113.34367,-63.730335,88.725563,-64.227425,89.2911,-19.532522,57.180336
3930000000,-19.371645,179.46483,-64.305496,-13.910512,-64.235252,-19.214664,-24.711094,150.42892
3935000000,-1.7720203,-96.140259,-65.921432,-122.66476,-65.911293,-112.78902,-14.481276,33.275257
3940000000,-31.834534,176.63794,-65.826859,138.52805,-65.855202,141.95305,-19.109081,128.3806
3945000000,-4.0543256,-120.78739,-65.326393,30.834677,-65.532188,26.151262,-17.226309,29.212486
3950000000,-7.9398837,-89.173309,-65.441071,-76.344612,-65.451408,-72.734848,-17.808161,89.052338
3955000000,-11.520989,-132.09776,-63.651794,-172.48785,-63.491192,-167.65051,-26.696548,89.091934
3960000000,-6.4725823,-117.01321,-63.905884,80.50251,-63.996922,83.68589,-19.130983,38.861324
3965000000,-9.4485903,-104.18612,-65.176414,-18.252968,-64.807922,-14.451957,-20.633017,99.680206
3970000000,-10.935345,-131.71094,-65.424942,-113.65903,-65.776245,-113.9889,-25.281231,14.596637
3975000000,-2.6971183,-125.56203,-66.506638,134.6048,-66.415527,135.58066,-18.492975,37.282677
3980000000,-17.31015,-63.058643,-66.663681,39.307571,-66.143799,38.29903,-19.992889,97.342407
3985000000,-4.8463364,-130.68738,-67.66452,-74.005898,-67.59288,-70.915741,-19.60475,7.6758838
3990000000,-11.444841,-131.21846,-67.475113,-177.11394,-66.137619,-173.29793,-19.419313,90.524879
3995000000,-7.2361836,-87.914024,-67.230545,79.609726,-66.937561,82.627678,-23.126526,39.602905
4000000000,-2.1493092,-164.36543,-65.081825,-26.673859,-65.191505,-24.488012,-34.153648,23.120356
END

