!CSV A.01.01
!Keysight Technologies,N5247A,US56070710,A.10.64.09
!Date: Saturday, November 19, 2022 02:41:56
!Source: Standard

BEGIN CH1_DATA
Freq(Hz),S33(DB),S33(DEG),S34(DB),S34(DEG),S43(DB),S43(DEG),S44(DB),S44(DEG)
3000000000,-13.462847,-172.38678,-67.251373,154.14412,-66.863396,150.04668,-12.081738,-160.46812
3005000000,-12.019841,94.027061,-70.150848,82.169151,-74.508804,82.743324,-23.531746,-147.06169
3010000000,-13.153958,153.67758,-72.084618,36.553738,-73.106056,32.41581,-12.540197,153.24388
3015000000,-11.699965,132.34047,-69.24279,-112.78033,-70.415154,-116.59173,-12.657969,-154.37531
3020000000,-18.334139,76.578316,-77.025261,-158.84428,-79.130142,-148.59402,-25.155916,160.4019
3025000000,-8.9174662,133.97594,-100.80512,-46.480618,-89.555664,23.507341,-10.453342,162.15915
3030000000,-21.661583,41.691093,-70.12513,-135.96938,-70.78968,-148.86079,-17.278543,-146.71962
3035000000,-12.912328,134.90448,-74.943314,136.08215,-75.280762,112.27601,-17.406954,137.13196
3040000000,-8.3025236,129.4536,-65.766365,76.943512,-65.411911,73.624802,-11.58004,163.30377
3045000000,-18.801254,68.471458,-67.37458,-28.07548,-66.879845,-33.420193,-21.6896,-173.18126
3050000000,-10.062597,103.12646,-70.292397,-120.20768,-69.314819,-118.36419,-11.919753,128.67274
3055000000,-16.123545,142.09503,-69.475662,140.24724,-69.763359,140.42862,-12.68268,-176.41034
3060000000,-14.494056,112.16,-72.124908,77.244148,-71.065346,78.362206,-17.40139,143.69586
3065000000,-7.747611,107.38457,-71.704216,-2.765976,-71.124176,-9.842432,-13.571132,135.13364
3070000000,-21.913151,152.99895,-71.72023,-164.90143,-70.41169,-162.49297,-14.121358,-169.94727
3075000000,-7.7320657,93.290482,-70.508965,43.914837,-73.494583,46.250072,-16.062231,99.018623
3080000000,-12.55879,105.03267,-70.909126,-5.6929007,-73.561943,-6.0994034,-11.631558,148.53938
3085000000,-14.38918,167.79044,-66.483589,-148.09457,-65.757195,-150.94633,-20.264584,164.54407
3090000000,-6.6725864,84.248146,-69.710846,138.71031,-71.246262,137.1338,-14.540699,111.35338
3095000000,-13.342051,155.84807,-65.786865,50.209457,-67.171585,43.388206,-11.188604,154.58328
3100000000,-8.5367651,83.486839,-66.849449,-54.482765,-66.674324,-61.347832,-24.040489,102.40711
3105000000,-12.544019,83.267395,-78.745354,-113.33588,-71.782318,-112.75898,-13.883427,131.14471
3110000000,-9.4346046,136.48801,-72.382256,101.14147,-72.142967,89.146622,-14.263436,147.14493
3115000000,-11.404514,49.743343,-71.430367,-1.5690662,-73.001175,-5.3619118,-24.584652,80.281235
3120000000,-7.2328396,119.08746,-65.964554,-142.6317,-65.697639,-145.33885,-11.23844,115.41995
3125000000,-12.918799,90.612144,-66.554054,102.75517,-65.575882,102.59714,-18.402905,175.7338
3130000000,-9.5755482,61.747746,-65.455841,16.969446,-64.689766,21.43648,-13.970819,95.651497
3135000000,-8.8113127,113.07034,-64.684967,-62.097347,-65.557777,-67.408562,-13.492915,130.9265
3140000000,-16.263603,71.193062,-64.335777,-155.60838,-64.301132,-159.01436,-22.011932,171.23769
3145000000,-8.9978056,93.891899,-66.429039,93.506905,-66.525696,85.410316,-12.823588,100.60174
3150000000,-7.9483023,97.124527,-69.797676,-4.5904398,-68.34478,-2.6745267,-15.651809,152.2388
3155000000,-13.372482,53.266247,-72.701447,-121.64523,-72.910187,-118.25135,-23.858528,86.437897
3160000000,-7.7961397,81.744789,-68.667526,127.439,-67.282623,122.40154,-13.463992,105.55208
3165000000,-17.387115,88.614059,-72.473549,17.8461,-71.119431,18.947729,-15.533029,146.21509
3170000000,-8.8596468,101.13515,-68.265343,-108.68305,-69.890152,-112.14359,-17.756889,75.240059
3175000000,-7.44909,71.177368,-63.783466,-165.69949,-63.696571,-168.36043,-13.40468,126.95769
3180000000,-17.422276,86.954254,-64.158813,78.518974,-64.552109,74.879066,-16.39179,149.86137
3185000000,-5.4994297,59.136776,-66.039543,2.8466105,-65.285126,-2.1503282,-18.312099,68.268372
3190000000,-18.568111,97.906029,-66.185837,-111.15537,-66.308823,-119.14375,-12.89251,140.90985
3195000000,-10.247284,93.390572,-70.505203,165.88182,-72.52343,165.92876,-33.984726,-15.771303
3200000000,-6.054379,60.443874,-70.368172,22.947783,-69.697632,23.176094,-12.257428,96.851936
3205000000,-9.4312181,103.93568,-66.406593,-87.056061,-66.282318,-96.636398,-18.727707,144.58981
3210000000,-6.7583404,22.93326,-69.662132,165.13475,-68.741417,154.79588,-22.011786,86.970085
3215000000,-13.656549,108.48694,-64.866852,57.946068,-64.614418,55.111988,-12.362373,104.46349
3220000000,-8.1551132,80.267929,-65.654587,-41.954594,-66.004372,-33.734547,-18.302736,155.96474
3225000000,-8.9418831,46.783684,-65.456932,-112.75047,-64.777756,-119.12723,-19.043905,79.384224
3230000000,-7.7197328,73.237015,-65.850235,140.73454,-66.02166,139.34583,-13.710056,124.97169
3235000000,-10.841516,34.924717,-68.614288,49.826401,-68.310257,48.876537,-24.181664,135.7831
3240000000,-9.0828171,54.594028,-70.331116,-82.05188,-70.191353,-75.50753,-15.246202,78.401657
3245000000,-9.9425545,80.657814,-70.868774,144.54782,-72.765953,148.69016,-14.275063,142.07938
3250000000,-12.892046,34.32967,-71.146416,59.436047,-73.642967,63.221931,-20.742878,78.22789
3255000000,-4.9302912,73.039398,-65.862305,-58.223709,-66.206978,-52.021736,-14.12478,93.720413
3260000000,-7.9856224,20.761801,-66.864166,-154.51494,-67.058014,-151.37318,-14.699787,138.44208
3265000000,-14.454902,35.717995,-66.216019,119.24767,-65.519516,116.80928,-22.295357,80.957825
3270000000,-6.7314005,66.168343,-64.694672,27.052425,-65.9739,28.590908,-12.776063,105.24237
3275000000,-17.51156,46.630661,-66.282471,-68.967758,-66.242996,-74.570023,-24.366848,136.41354
3280000000,-5.1585355,58.212379,-72.376419,-168.70027,-69.575417,-161.09009,-15.847926,87.932892
3285000000,-8.7976999,24.626617,-82.406609,90.75296,-83.575218,84.041702,-13.390624,103.32816
3290000000,-17.712912,30.20281,-76.24424,-73.79203,-81.440598,-31.234728,-22.000526,122.38342
3295000000,-6.0015421,32.690346,-71.959251,-156.74146,-72.402489,-156.38573,-14.115314,84.503525
3300000000,-13.473438,93.92569,-68.734459,88.426331,-67.054153,86.439224,-13.918098,118.58848
3305000000,-6.2469492,34.362511,-67.604164,23.302755,-68.228348,14.187928,-21.020632,105.44353
3310000000,-8.1996698,32.5345,-68.376625,-86.685951,-69.104607,-86.757607,-13.881625,82.037834
3315000000,-11.663558,51.436413,-73.67733,-168.16461,-71.746101,-179.51474,-15.974154,146.35997
3320000000,-7.9439993,2.185859,-74.064362,98.269768,-74.164505,98.978401,-14.198993,56.442814
3325000000,-12.377607,74.238663,-74.119949,46.852104,-72.622192,50.604923,-15.971696,96.64135
3330000000,-9.1637859,34.366486,-75.783531,-84.078735,-77.903343,-123.29166,-13.919281,105.31367
3335000000,-5.7980022,18.066738,-77.819046,76.850967,-78.049492,80.008598,-18.083677,51.54314
3340000000,-9.4472189,38.425892,-74.705368,-36.011116,-77.03862,-52.294247,-10.551026,103.431
3345000000,-10.03347,-17.373392,-71.905945,-100.41757,-70.454369,-109.40062,-50.316673,53.183147
3350000000,-9.5587139,43.781216,-74.439041,143.06226,-76.84816,140.60721,-12.835658,78.448654
3355000000,-8.6493359,47.227741,-69.724014,101.22319,-70.074165,105.387,-16.732058,99.623497
3360000000,-8.754776,-6.4140525,-68.382744,8.3140373,-68.112701,-3.9570928,-21.373386,28.874493
3365000000,-4.8205233,33.019997,-68.703339,-55.998234,-69.507294,-65.713882,-11.526967,72.93885
3370000000,-9.4318295,-45.116421,-76.343132,-140.68472,-74.122047,-156.82137,-17.997599,97.938568
3375000000,-8.9237108,52.596718,-71.806808,142.9095,-72.763435,132.9063,-16.857456,55.11343
3380000000,-7.3753619,19.289406,-77.432114,43.281998,-84.616402,58.284313,-12.922465,82.557404
3385000000,-16.560049,38.772404,-80.758301,-132.09676,-82.335915,-168.19618,-25.826553,124.96839
3390000000,-2.9109807,5.3265858,-77.374092,92.464203,-77.758171,104.10136,-12.784814,46.849121
3395000000,-24.62574,-56.995201,-72.2006,-0.93360728,-70.609444,6.9336786,-16.52228,97.637276
3400000000,-9.3890638,11.185734,-68.532249,-81.674812,-70.63839,-70.480186,-23.818996,53.124908
3405000000,-8.9873905,-3.9460757,-67.754601,167.45332,-68.200821,164.74036,-12.325371,41.032104
3410000000,-9.9699831,53.931721,-70.00824,88.928223,-70.276352,96.61747,-16.406509,109.47639
3415000000,-3.3146811,-12.427123,-69.887398,-8.532464,-69.830482,-2.3880723,-16.190144,24.795292
3420000000,-13.798491,2.3648183,-72.64476,-88.964783,-74.319298,-98.981339,-14.917895,71.50174
3425000000,-13.645789,13.27334,-72.977783,132.60471,-70.801033,148.01407,-20.171387,93.747131
3430000000,-8.2781563,-7.4110303,-77.741707,60.671722,-78.097397,84.176758,-17.087971,9.7891283
3435000000,-11.029604,38.266914,-78.418663,-93.20507,-78.063095,-97.1698,-14.940163,86.921242
3440000000,-5.6228132,-16.923288,-70.919701,161.59666,-71.614014,161.31564,-21.289085,-14.239415
3445000000,-10.312028,-14.442534,-71.035591,76.506378,-73.312927,74.891335,-15.549912,45.648666
3450000000,-9.2138643,14.153801,-68.460464,-16.026594,-68.45797,-15.704757,-17.182222,71.410652
3455000000,-10.360987,-58.104473,-69.349068,-127.29722,-67.541313,-129.50986,-28.43721,-6.9144735
3460000000,-6.6159682,44.445271,-68.806427,150.42688,-70.003181,142.79413,-13.440922,50.940666
3465000000,-4.8634562,-26.728966,-73.719933,79.762878,-74.024796,71.770554,-22.008503,144.23441
3470000000,-15.211493,-39.463718,-78.66465,-19.76144,-84.152168,-20.428175,-18.870092,9.7281017
3475000000,-6.5675712,4.5065236,-85.16259,-114.83598,-85.813347,162.2321,-19.308681,72.583771
3480000000,-12.488473,-80.82959,-76.040459,45.467567,-75.71051,74.465675,-32.891289,3.6748271
3485000000,-4.767653,15.992954,-74.780937,-23.640175,-75.324928,-46.825363,-17.133263,21.620329
3490000000,-11.71867,-43.672085,-71.895401,-121.60849,-72.206795,-136.15854,-18.804213,84.242073
3495000000,-10.721831,-2.8606508,-67.822929,149.27448,-69.795952,143.87845,-26.418438,3.1632626
3500000000,-5.8828468,-24.704285,-70.237701,47.728161,-68.942703,51.192753,-16.407042,50.164822
3505000000,-30.910017,143.74431,-70.122818,-28.632322,-70.339859,-16.462105,-19.881598,125.52518
3510000000,-5.9215789,-18.352499,-74.256355,-101.217,-71.493164,-108.9532,-24.871521,-15.965274
3515000000,-12.440254,-6.4998784,-81.454369,130.94809,-79.628098,100.93251,-20.236,68.446869
3520000000,-13.610606,-8.5140362,-76.802429,42.112133,-77.026306,19.780321,-34.460392,74.697716
3525000000,-5.9445086,-36.018864,-74.309387,-84.031868,-72.808853,-94.639488,-21.282431,8.6066971
3530000000,-19.350645,-7.9358187,-74.949272,166.1888,-74.356979,145.22421,-15.521072,72.092972
3535000000,-8.1926603,-24.358173,-76.088112,105.28532,-75.180771,76.456108,-26.983353,-179.83151
3540000000,-10.96878,-54.388508,-71.242439,-30.855379,-68.895432,-22.066229,-17.337042,50.631397
3545000000,-8.1684132,39.856659,-72.075066,-114.00412,-69.951675,-129.56561,-21.787395,123.37428
3550000000,-3.5268197,-47.221596,-66.9319,150.38397,-66.600761,144.32669,-28.795584,108.54082
3555000000,-22.532349,42.899746,-70.974808,33.716877,-70.517532,22.970116,-21.455488,27.132858
3560000000,-7.9892764,-36.837166,-71.358612,-36.187344,-71.802322,-41.411102,-20.200844,115.51581
3565000000,-18.913364,-122.76432,-69.285805,-159.31238,-69.997444,-157.53668,-24.855549,-2.5349789
3570000000,-3.5036974,9.8139009,-74.756721,73.884239,-73.336205,60.261871,-18.028685,55.91761
3575000000,-7.770947,-89.833031,-71.249527,-15.930112,-70.133003,-25.822266,-18.309862,110.00854
3580000000,-9.4303284,-14.157536,-66.479134,-131.24069,-66.403893,-127.17416,-22.819403,-8.4263964
3585000000,-9.4208117,-53.032925,-67.354347,135.85971,-67.731331,133.2148,-14.281075,100.96501
3590000000,-18.186325,167.16321,-66.017075,39.781769,-67.658142,33.066875,-26.524418,-75.120148
3595000000,-3.3873761,-9.6893692,-67.795959,-67.512901,-67.834839,-66.884476,-20.498268,60.178303
3600000000,-13.280344,-68.923759,-72.767822,-172.78275,-70.491798,-160.14687,-19.902969,83.377037
3605000000,-6.7258801,-46.556671,-68.55246,107.59238,-69.517189,100.09766,-31.925835,-81.502571
3610000000,-14.333723,-63.338299,-72.160797,-34.587524,-71.188446,-27.263826,-14.967876,42.765934
3615000000,-16.56439,75.34156,-72.37249,-123.41965,-70.142128,-139.2695,-20.128498,118.99714
3620000000,-4.8773928,-21.258978,-65.082069,122.48618,-66.426071,121.10267,-24.498638,36.948273
3625000000,-8.213562,-62.67952,-67.655098,11.421842,-66.404388,12.414671,-16.37326,65.289299
3630000000,-20.01053,-1.9260696,-69.183685,-68.135895,-69.291084,-70.108383,-22.814278,178.78955
3635000000,-5.8508615,-78.685181,-67.714104,-167.39175,-66.129066,-164.96153,-17.218702,42.619152
3640000000,-9.1775427,52.499302,-66.068504,90.503418,-67.850945,87.875336,-23.63447,108.96317
3645000000,-3.3994391,-53.542637,-68.239273,-17.942249,-68.135979,-8.3808117,-46.218361,39.058285
3650000000,-25.276585,-171.31882,-68.523903,-109.93075,-68.023491,-117.17725,-17.85899,17.808451
3655000000,-3.6768494,-15.207471,-72.599754,130.83952,-69.007263,133.15408,-18.487902,100.03369
3660000000,-5.0822101,-108.94436,-70.994133,11.717288,-70.197701,8.8826618,-22.979015,0.12402558
3665000000,-7.0092168,38.614929,-70.043373,-81.769363,-69.299461,-89.858582,-21.771645,49.825314
3670000000,-7.7981477,-68.747452,-68.38163,173.31326,-66.138885,170.16974,-16.703041,103.70073
3675000000,-12.399804,-12.222207,-66.716431,79.452072,-66.24469,77.001564,-19.329433,-52.959911
3680000000,-4.9820747,-45.176788,-66.256645,-18.876394,-66.417953,-25.098335,-16.570873,89.262558
3685000000,-10.112873,-124.5247,-67.65921,-119.9292,-67.642517,-124.45688,-23.322342,-83.733208
3690000000,-8.2983198,-3.710598,-71.202896,144.93304,-69.696953,140.20145,-20.061481,33.119579
3695000000,-10.323151,-44.351982,-69.305046,30.734089,-69.416618,11.614256,-19.495165,48.973816
3700000000,-13.009295,-52.952545,-71.070404,-59.948952,-71.618111,-81.508293,-23.928732,-169.02287
3705000000,-4.7283859,-41.030205,-69.39167,171.56511,-68.736984,166.17941,-15.686638,34.259178
3710000000,-12.749168,-157.6701,-67.647331,53.408321,-68.580635,63.346378,-23.37834,142.78209
3715000000,-5.2759485,-25.026762,-68.520691,-23.249847,-67.939651,-21.403109,-29.511276,17.333971
3720000000,-9.4763994,-81.424171,-67.520874,-123.22102,-66.896523,-137.24936,-24.47588,73.753838
3725000000,-14.917379,36.801796,-66.856781,139.18301,-66.867981,136.36079,-31.408169,97.389801
3730000000,-2.010077,-53.867138,-70.479256,39.215244,-71.278618,38.266014,-23.280807,-3.7076628
3735000000,-16.847725,158.30817,-71.798943,-61.957943,-71.034607,-67.538368,-19.436888,94.327118
3740000000,-5.1885319,-44.165951,-73.028809,177.69449,-69.954109,-173.68697,-28.545708,128.85953
3745000000,-10.760731,-101.36557,-70.37265,69.240784,-70.227509,71.820152,-24.055029,4.6352143
3750000000,-6.8355026,16.189911,-66.4291,-24.012569,-67.691597,-23.900225,-19.035315,113.75568
3755000000,-3.3724997,-92.693512,-70.354462,-128.39996,-69.18998,-136.50945,-35.310863,-164.94449
3760000000,-10.525226,6.0955863,-69.680458,120.02203,-70.124275,125.21872,-24.180918,60.733013
3765000000,-4.3909783,-72.421997,-68.922424,41.386265,-68.603737,43.2113,-28.518652,135.68422
3770000000,-14.329638,-144.11346,-67.091347,-52.387554,-67.327965,-57.969463,-48.191353,1.3963658
3775000000,-4.0897403,-7.7387238,-69.123306,-169.84695,-69.123306,-176.92311,-16.547094,64.021301
3780000000,-5.6875272,-101.54691,-69.12822,101.15172,-68.840286,98.334999,-22.313999,178.89438
3785000000,-9.1488981,-32.199429,-75.440346,-3.0320418,-79.107483,-15.740571,-21.245888,54.475613
3790000000,-7.1542563,-71.424583,-78.551743,-150.30367,-78.131271,-105.09242,-18.452679,106.76824
3795000000,-13.450587,-128.20428,-74.421425,148.63647,-72.659042,150.61469,-23.173677,145.6118
3800000000,-4.9582071,-26.517185,-71.15509,42.996391,-71.936028,41.471165,-27.882153,25.423067
3805000000,-8.4599514,-91.644081,-70.886482,-62.478432,-72.052544,-48.055115,-18.039364,122.19585
3810000000,-11.480652,-53.224834,-69.810051,-168.15662,-69.831993,-161.72504,-25.846106,46.456421
3815000000,-3.4106843,-71.462547,-70.590179,106.71323,-69.094078,94.751427,-26.669971,62.87373
3820000000,-12.586811,142.4926,-74.16349,-16.948483,-74.05336,3.2855997,-15.777407,101.20408
3825000000,-2.2935767,-48.440517,-74.669342,-92.329308,-73.92543,-104.82021,-31.405285,28.957779
3830000000,-10.947667,-128.79823,-79.561134,-173.17107,-75.169235,166.78851,-13.333926,97.282806
3835000000,-6.5850163,-37.056484,-78.148766,95.285973,-78.936707,44.337444,-21.395792,-159.60097
3840000000,-3.4877532,-104.3383,-74.417931,-62.99065,-77.019714,-71.350296,-21.882879,95.821609
3845000000,-12.900456,35.554096,-72.787201,-158.54269,-71.921249,172.28685,-18.681559,58.680164
3850000000,-2.3901067,-81.812256,-75.296051,129.54408,-75.375305,105.79164,-21.712429,178.53729
3855000000,-20.248924,-136.07449,-71.682533,24.466068,-72.412003,14.764742,-16.523373,37.681149
3860000000,-3.9050217,-52.443111,-72.006516,-43.05183,-71.369621,-57.168938,-17.487518,93.723434
3865000000,-5.5473652,-119.3972,-70.90197,179.94107,-73.20694,-167.61241,-21.655397,75.111397
3870000000,-10.081447,-27.399469,-79.293617,113.69435,-80.147369,130.96683,-17.922434,72.175621
3875000000,-4.8261132,-93.011894,-74.750099,6.9212294,-73.211395,-11.351904,-16.534418,124.97575
3880000000,-16.212183,-126.23004,-77.2313,-144.90073,-80.703636,-168.67467,-21.111162,33.968597
3885000000,-3.6134987,-50.36549,-74.115967,148.26582,-76.129341,117.65166,-20.565432,85.46711
3890000000,-3.6364608,-128.50555,-70.974373,46.476913,-73.362251,58.855938,-19.785679,125.9878
3895000000,-11.423961,-32.749687,-75.746223,-55.939911,-76.195137,-46.938503,-15.18503,3.2327182
3900000000,-3.9369059,-87.543579,-71.763252,-158.26105,-76.073647,-175.26439,-13.697361,96.923195
3905000000,-14.081181,-111.25306,-73.638161,88.685852,-73.092178,79.478088,-24.484011,-8.4807301
3910000000,-4.6394653,-64.846169,-73.333046,10.413589,-73.21891,8.22997,-15.43167,74.229683
3915000000,-7.2524395,-141.1656,-72.906372,-81.667831,-73.126915,-98.377785,-18.062361,73.85775
3920000000,-4.8305154,-50.375069,-77.815323,166.19312,-75.458969,157.90782,-38.732216,-32.804104
3925000000,-4.8643413,-121.64719,-78.380211,90.730934,-76.316429,58.332794,-15.053925,71.901802
3930000000,-21.123575,-19.9811,-73.817322,-25.638727,-74.720451,-35.337856,-32.546593,44.352852
3935000000,-1.8431261,-93.459671,-73.139046,-174.20168,-73.07666,-162.92203,-19.886684,20.182693
3940000000,-18.726768,146.77571,-69.80822,114.882,-69.235115,116.40839,-14.972393,58.509205
3945000000,-2.9488518,-84.096542,-69.071815,22.653984,-71.69297,11.577916,-25.593994,126.13107
3950000000,-6.6554399,-130.55731,-72.437309,-83.38591,-68.974709,-85.107346,-13.319713,38.040409
3955000000,-12.289621,-55.829636,-69.477974,-169.91525,-69.891357,-161.34947,-22.247377,150.68755
3960000000,-4.2151852,-114.86842,-71.1548,84.620445,-70.930267,83.749077,-17.582859,47.814369
3965000000,-20.072657,-78.506859,-70.36335,-22.077087,-73.251389,-14.853397,-23.593374,47.841816
3970000000,-4.0459013,-93.862541,-69.072639,-147.06841,-69.581253,-138.81183,-24.67065,64.762054
3975000000,-4.1133375,-139.47977,-71.584343,114.50367,-70.426567,120.68364,-22.200117,-0.68464792
3980000000,-12.102307,-43.916382,-66.834595,22.916584,-69.74073,17.140919,-17.127773,51.815979
3985000000,-4.8101292,-126.45534,-69.292763,-82.103058,-68.846443,-84.206596,-22.080868,51.179447
3990000000,-11.706738,-81.666412,-67.553909,176.45358,-68.694542,179.31769,-26.718176,-2.1133742
3995000000,-4.8494825,-104.64442,-67.992165,68.189186,-68.336502,73.973137,-17.119513,68.239647
4000000000,-4.4453397,-157.72923,-65.291214,-26.4056,-66.507095,-28.285025,-26.774061,-7.4074907
END

