!CSV A.01.01
!Keysight Technologies,N5247A,US56070710,A.10.64.09
!Date: Saturday, November 19, 2022 02:32:40
!Source: Standard

BEGIN CH1_DATA
Freq(Hz),S33(DB),S33(DEG),S34(DB),S34(DEG),S43(DB),S43(DEG),S44(DB),S44(DEG)
3000000000,-14.246834,-176.44817,-63.968597,-68.132965,-63.666786,-72.430733,-11.539647,-156.46039
3005000000,-11.273355,85.794479,-69.165184,-129.87294,-68.056999,-144.77194,-26.150791,-146.52977
3010000000,-13.381778,145.82098,-66.586517,99.702942,-64.889595,94.955429,-11.921759,153.62025
3015000000,-11.87384,126.86131,-69.379211,6.3998904,-70.171608,-5.6865969,-12.266939,-150.3342
3020000000,-16.317385,62.962166,-69.002029,-77.029816,-68.268738,-83.19046,-25.76763,137.33015
3025000000,-8.90308,129.37331,-66.949387,178.67032,-66.166443,170.57695,-9.7939425,164.36848
3030000000,-18.374657,34.232738,-66.216019,35.006916,-64.927597,27.834995,-17.610119,-139.55037
3035000000,-13.360563,124.26739,-67.532234,-68.22477,-67.017967,-78.305153,-16.679188,132.77466
3040000000,-8.2275705,124.53322,-63.670937,-169.20493,-64.863556,-173.35684,-11.014831,165.98116
3045000000,-16.89558,52.291222,-66.500443,90.792839,-66.753441,85.869232,-24.003239,-164.92586
3050000000,-9.6777296,97.09803,-67.019775,21.422646,-66.90818,14.403619,-11.087852,128.88786
3055000000,-16.999516,124.38522,-69.316772,-110.05821,-68.088203,-104.91213,-12.475793,-172.00229
3060000000,-14.826628,102.99604,-65.484474,156.15492,-65.577736,153.30847,-17.82744,138.29497
3065000000,-7.5883355,99.78569,-64.848404,51.010887,-64.94622,47.557018,-12.72567,135.8596
3070000000,-24.612406,126.34014,-66.772217,-73.804436,-67.11554,-77.348183,-14.022177,-163.09567
3075000000,-7.3904662,87.239334,-65.563492,170.15831,-66.678993,168.92297,-14.97857,95.347031
3080000000,-12.124929,94.434303,-64.798042,66.431183,-64.924911,72.259537,-11.164001,151.62938
3085000000,-16.221745,162.43156,-66.558762,-7.078145,-65.734146,-4.505219,-21.384041,170.51865
3090000000,-6.3027816,79.223137,-65.784805,-102.2642,-66.367172,-108.20495,-13.656049,108.6256
3095000000,-15.015794,147.67554,-62.989285,158.66913,-63.318993,152.75937,-10.753903,159.36003
3100000000,-8.2498703,77.981201,-70.275558,27.396069,-70.902107,41.066544,-23.868189,82.632423
3105000000,-11.787644,70.039711,-68.533081,-98.432404,-70.396545,-94.579956,-13.073665,131.63275
3110000000,-9.8398819,130.10602,-70.606285,150.4593,-68.70533,150.49178,-14.268906,152.08849
3115000000,-10.468278,42.382202,-64.665085,69.839355,-64.11554,69.033951,-22.838984,65.006958
3120000000,-7.6246409,112.56891,-64.027069,-1.8041949,-64.615211,-4.0807457,-10.553037,118.85199
3125000000,-12.708721,78.707298,-64.288399,-100.42384,-64.365143,-96.97699,-19.095985,-174.92583
3130000000,-8.8380127,54.93549,-67.185028,140.33522,-67.022141,128.10851,-13.274689,93.769196
3135000000,-9.3538113,105.72284,-65.486916,17.04319,-65.821068,15.925625,-12.945216,134.58022
3140000000,-14.901151,56.208107,-68.947105,-85.597488,-68.953148,-100.28039,-23.9142,-176.06213
3145000000,-9.2055836,85.318886,-65.272514,160.53471,-65.978027,157.2715,-11.878685,100.41678
3150000000,-8.0193253,90.562241,-63.834038,66.060654,-65.567589,66.68531,-15.424347,159.49144
3155000000,-12.176196,40.074577,-69.07618,-31.436775,-66.524521,-29.547989,-23.264732,72.809837
3160000000,-7.5424972,75.168892,-63.299351,-114.33019,-62.889854,-120.58549,-12.632923,106.87578
3165000000,-17.443722,64.897995,-65.068222,141.54886,-64.689903,142.75081,-15.674151,154.7691
3170000000,-9.1252375,93.246773,-65.122993,48.376411,-65.31617,44.00042,-16.457092,69.681335
3175000000,-7.3719654,64.354813,-65.888687,-65.496918,-65.906609,-82.690598,-12.741667,131.02544
3180000000,-17.380898,62.671181,-64.628792,149.60864,-65.658546,141.74522,-17.062365,153.99535
3185000000,-5.2452998,53.284519,-63.330425,64.103447,-64.33799,63.095116,-16.983749,66.075485
3190000000,-19.096245,72.322105,-62.954987,-34.215721,-62.868385,-37.769695,-12.159942,145.06552
3195000000,-10.94245,82.417397,-64.896896,-129.28098,-65.289459,-120.58993,-27.050295,-21.641554
3200000000,-5.7813382,55.358944,-65.016205,140.4767,-64.972931,133.24399,-11.475734,98.040466
3205000000,-10.330349,95.7677,-64.244415,25.971264,-65.71196,29.553673,-18.407251,152.64194
3210000000,-6.0631275,18.258413,-66.9758,-101.85908,-66.659973,-103.35909,-21.96483,71.879616
3215000000,-15.043262,94.176468,-66.603546,157.71486,-65.698578,164.14044,-11.429044,106.6999
3220000000,-8.8770761,73.382423,-64.012039,59.761494,-64.094467,57.564465,-18.744921,168.30473
3225000000,-8.0978947,36.881905,-64.12606,-37.911999,-64.640839,-34.605892,-17.715513,74.049286
3230000000,-7.9249029,68.278152,-64.481224,-126.84908,-64.886223,-128.89713,-13.013517,127.88159
3235000000,-10.043755,22.329981,-65.64138,118.58817,-64.653587,114.49346,-26.984924,152.4415
3240000000,-8.7373171,45.496208,-69.005035,17.219692,-69.847603,8.9580889,-13.906295,76.819504
3245000000,-10.440621,70.92614,-65.65773,-104.24294,-64.397705,-103.45482,-13.643275,148.93903
3250000000,-12.187054,21.921726,-66.138161,146.01944,-66.090309,140.92014,-20.709188,66.022766
3255000000,-5.1721859,67.660713,-64.130455,57.743042,-64.226334,58.502621,-13.212305,94.258217
3260000000,-7.4365196,14.017106,-67.261375,-52.782707,-66.674187,-45.084618,-14.363858,145.98175
3265000000,-13.361318,18.168743,-66.101219,-152.62526,-67.362625,-147.70604,-21.136549,62.502155
3270000000,-6.8852262,60.689777,-69.470383,93.051918,-68.715836,90.255188,-11.920541,109.08929
3275000000,-17.298512,17.235149,-68.612038,-10.327223,-68.218216,-16.581476,-26.277172,151.46437
3280000000,-5.1235447,52.923981,-63.917389,-115.66835,-65.591415,-121.13944,-15.208666,82.463173
3285000000,-8.4769363,15.647696,-65.500374,122.59438,-66.540741,117.16898,-12.666317,108.57305
3290000000,-16.762768,8.5051088,-64.430405,31.351891,-64.230835,29.64584,-25.687748,124.15672
3295000000,-5.8356695,24.933359,-65.701309,-71.876907,-66.860718,-76.675766,-12.98323,84.24218
3300000000,-15.227119,84.487701,-68.85955,-169.6277,-69.237289,-177.94243,-13.820842,124.40135
3305000000,-6.2710671,27.742054,-70.213249,79.430862,-69.652466,78.04451,-22.579283,96.204025
3310000000,-8.2029991,23.131784,-67.47731,-16.444471,-67.370125,-19.579369,-12.721466,83.544952
3315000000,-11.932936,38.274616,-68.646744,-139.37967,-68.020859,-150.48294,-15.796475,157.16396
3320000000,-7.39815,-4.8597927,-66.554321,126.08041,-65.77681,128.64226,-13.245757,52.746376
3325000000,-14.046891,64.165024,-65.718002,13.151523,-66.646782,19.645115,-15.09419,101.71406
3330000000,-9.4681454,23.537865,-67.609612,-80.764648,-67.452477,-82.708405,-14.688352,108.57652
3335000000,-5.5325675,11.454743,-71.307297,178.86066,-69.897141,166.61906,-16.372562,48.503887
3340000000,-9.8228922,28.296766,-71.464241,51.547638,-74.444839,45.469929,-10.144215,108.61655
3345000000,-8.8989029,-24.936419,-68.933098,-58.328362,-68.473732,-58.224277,-32.081013,-36.647587
3350000000,-9.9920492,33.312099,-67.93409,-150.77115,-67.483574,-149.10594,-12.027975,78.395752
3355000000,-9.377203,40.608322,-69.170784,99.171875,-70.214241,103.27834,-16.608147,108.7001
3360000000,-8.0596762,-15.897242,-70.850975,19.506292,-70.952835,16.872391,-19.518505,15.65882
3365000000,-4.9959302,27.281479,-73.043419,-98.275276,-72.993423,-103.71353,-10.735157,76.729553
3370000000,-8.358923,-50.068119,-71.811935,140.19485,-74.548615,145.56499,-19.333261,104.28348
3375000000,-10.110912,41.044643,-75.667679,19.573515,-75.245811,9.7285938,-15.992462,49.816463
3380000000,-7.4018102,14.367641,-69.303848,-102.17818,-69.505264,-109.8329,-12.218782,86.808022
3385000000,-18.089588,8.5141039,-74.583374,166.84491,-75.562912,161.40152,-29.595591,157.79204
3390000000,-2.8816471,1.321503,-67.217392,51.928669,-68.256073,51.850494,-11.677497,47.64996
3395000000,-18.320236,-70.41185,-73.218636,-74.660194,-72.846558,-80.412727,-16.333927,106.47781
3400000000,-9.6648989,0.41140527,-71.897621,-174.90102,-71.981255,-179.41394,-24.31167,35.244701
3405000000,-8.5596466,-12.894794,-72.775551,43.140011,-73.277153,20.829498,-11.378293,43.697891
3410000000,-11.42882,47.893166,-68.982857,-93.668938,-71.044601,-93.632706,-16.294552,121.56161
3415000000,-3.0270646,-17.690983,-71.799393,177.2762,-71.782776,170.62323,-14.856624,19.66416
3420000000,-13.541333,-12.673349,-68.655075,67.242668,-70.722092,67.081665,-14.095584,76.568474
3425000000,-13.865334,-2.4317539,-73.291145,-63.820946,-74.944885,-62.060669,-21.541674,103.01214
3430000000,-8.2746973,-16.431332,-72.041748,-178.8824,-72.673317,167.56775,-15.441939,8.4497232
3435000000,-12.224373,31.361158,-71.004417,62.575127,-72.021599,48.366726,-13.978355,94.271339
3440000000,-5.3590055,-25.358028,-70.2444,-22.12541,-69.470154,-26.237247,-19.651897,-27.587189
3445000000,-10.01967,-22.195417,-71.919785,-125.29422,-73.034866,-129.75652,-14.393809,46.921448
3450000000,-9.8547201,2.6816072,-71.937088,142.8802,-71.458427,129.85741,-17.233101,80.660645
3455000000,-9.3540583,-63.942879,-74.345238,-16.782602,-77.304222,-9.3071585,-24.563162,-29.270004
3460000000,-7.719758,40.577316,-73.602547,-125.28967,-74.485832,-134.04416,-12.342059,54.739021
3465000000,-4.6176343,-32.747173,-71.881699,158.61365,-70.499588,129.94527,-20.851645,162.07762
3470000000,-13.596585,-54.742386,-67.773018,28.139164,-68.014725,31.92091,-17.309914,6.403769
3475000000,-6.9066329,-1.5219549,-69.053322,-68.663582,-69.296799,-76.950562,-17.735943,78.305031
3480000000,-10.361106,-87.413719,-70.686188,-158.65826,-71.778419,-165.21431,-32.615025,-73.083527
3485000000,-4.9918461,11.373387,-71.036827,95.935921,-74.206215,87.747169,-15.284005,21.442621
3490000000,-11.129071,-55.107327,-72.528862,16.071253,-72.248062,17.108637,-17.961996,96.543594
3495000000,-10.951015,-14.941582,-69.53817,-155.18709,-69.839104,-157.28911,-25.163645,-19.07338
3500000000,-5.7669268,-30.38121,-68.803856,108.31779,-68.601578,101.50921,-15.019264,48.782124
3505000000,-25.242214,-148.90218,-74.051102,27.692816,-77.664932,20.00943,-18.060883,136.4574
3510000000,-6.0341301,-25.601904,-78.993172,-62.852325,-74.740761,-70.468864,-21.1798,-26.033127
3515000000,-12.545777,-15.503286,-80.75106,178.74596,-78.767845,166.81909,-18.142529,73.65744
3520000000,-14.777227,-25.663223,-77.513283,78.648735,-76.950912,65.039772,-37.214558,154.35687
3525000000,-5.7777305,-41.646984,-74.159561,-95.077332,-74.065277,-77.769852,-19.279335,0.68332696
3530000000,-19.550547,-40.840153,-77.429153,-171.23001,-73.752106,169.77835,-14.145416,78.327431
3535000000,-8.4223356,-32.069408,-72.610527,74.117447,-73.393723,63.823418,-24.054234,-148.81927
3540000000,-9.9148731,-63.856361,-74.977318,2.7234254,-73.235184,4.2974029,-15.848125,47.579254
3545000000,-9.0614634,38.455101,-76.343246,-29.720701,-75.453873,-41.83659,-19.699272,129.46674
3550000000,-3.3843675,-51.726654,-81.349701,126.97333,-83.385368,131.16852,-38.011028,144.1813
3555000000,-33.36264,15.344705,-75.025528,-79.655342,-75.035347,-92.489632,-18.646687,33.190544
3560000000,-7.8634963,-44.05608,-80.161949,157.687,-78.123177,172.89551,-19.029764,132.78278
3565000000,-15.475561,-127.0017,-76.882881,96.446205,-76.046722,71.091385,-21.742689,-10.424724
3570000000,-3.9417522,6.3628268,-79.663681,10.039157,-86.684914,-29.995224,-16.645277,59.803291
3575000000,-6.9333258,-94.321388,-77.826828,133.04243,-74.012131,138.50038,-18.121275,124.16538
3580000000,-10.058363,-21.941296,-75.615555,63.876423,-75.605583,51.470589,-19.44665,-9.4178476
3585000000,-8.9331713,-61.241787,-66.948715,-47.764652,-67.988945,-41.223736,-13.044752,104.43795
3590000000,-15.190147,-176.83495,-67.285522,-147.55948,-66.314384,-146.98091,-22.790829,-84.415215
3595000000,-3.480993,-13.327504,-65.968971,119.09045,-66.768211,120.65846,-18.719873,52.344952
3600000000,-12.431967,-86.054909,-68.347763,-4.8917766,-67.002487,-3.4092276,-18.452297,95.646667
3605000000,-6.1923203,-51.612362,-65.710815,-131.71034,-66.115265,-141.0929,-24.305901,-78.072113
3610000000,-13.660753,-78.369301,-63.027332,121.90113,-62.642429,115.67408,-13.605257,46.764969
3615000000,-18.801348,88.794899,-60.878365,14.457627,-60.475975,10.074915,-19.37512,131.04092
3620000000,-5.178359,-27.019129,-62.273468,-103.70503,-62.412022,-96.205811,-23.783123,13.371054
3625000000,-7.9781299,-69.366066,-62.459782,150.00685,-61.472942,154.06879,-14.647472,68.575912
3630000000,-22.826969,-37.627354,-63.14085,28.387943,-63.498501,35.634361,-19.954948,-166.63805
3635000000,-5.4302888,-83.362045,-64.559082,-75.695763,-62.724976,-74.556183,-15.699091,35.866272
3640000000,-10.940065,56.625046,-63.247974,174.83052,-63.50642,171.96269,-20.927454,115.09917
3645000000,-3.1853261,-57.645061,-64.716682,67.875061,-64.617561,65.166435,-33.478634,-107.96231
3650000000,-19.527243,-154.71153,-64.277122,-23.917934,-64.449326,-32.341793,-15.684113,17.964731
3655000000,-4.0556164,-18.637615,-66.544571,-123.43108,-66.067589,-129.28621,-16.967361,113.15607
3660000000,-4.1384006,-110.90421,-66.215858,135.00516,-64.637756,122.81818,-20.922186,-16.093998
3665000000,-7.6302223,40.170776,-65.028496,33.147377,-66.114937,29.981646,-19.465111,52.048798
3670000000,-7.2702146,-78.558563,-65.892128,-88.568695,-65.779106,-92.154877,-16.082052,113.7362
3675000000,-13.252022,-21.879366,-67.393715,167.59734,-66.683701,171.27112,-16.825558,-51.24744
3680000000,-5.1459932,-51.669456,-66.338936,63.221249,-65.744164,69.752487,-14.621822,90.719429
3685000000,-8.6532784,-125.82833,-64.70742,-30.622252,-64.847298,-29.066643,-20.536421,-95.277107
3690000000,-9.2440319,-8.7953329,-65.679779,-128.15559,-67.218605,-127.99847,-18.348295,26.390488
3695000000,-10.536202,-54.47316,-65.892471,142.35663,-66.181931,137.61649,-18.290932,62.528294
3700000000,-12.949691,-69.422569,-67.090111,32.310799,-68.15448,18.325342,-21.189238,-147.21352
3705000000,-4.7724662,-46.167698,-64.950859,-77.508499,-65.987976,-85.558662,-13.940886,34.654533
3710000000,-10.644284,-157.73857,-64.916862,-178.09389,-64.917557,176.02238,-20.333881,151.25261
3715000000,-5.6119399,-31.913595,-63.956089,70.146736,-63.802856,74.637581,-27.239702,-18.635105
3720000000,-8.8572559,-87.729561,-66.855545,-18.147398,-66.34304,-14.819607,-20.946608,66.627548
3725000000,-18.603947,47.766186,-65.272552,-130.61853,-65.566505,-121.91905,-27.030535,152.84593
3730000000,-1.8530225,-57.848137,-67.411598,131.69804,-67.534424,126.42677,-19.782537,-11.046494
3735000000,-14.186395,168.89876,-66.593208,14.934362,-66.724083,14.42922,-17.293755,96.731316
3740000000,-5.3548002,-49.993671,-65.842049,-85.769951,-65.788399,-88.893829,-26.92387,165.85919
3745000000,-9.3276682,-111.34597,-65.708496,173.90584,-66.178947,168.60165,-20.371374,-0.85249412
3750000000,-7.7219834,15.481582,-64.404335,75.823898,-65.063049,72.640541,-16.471123,117.20497
3755000000,-2.934958,-98.039757,-64.866631,-18.322311,-65.205315,-21.235237,-27.259529,-112.64747
3760000000,-12.555345,1.9190644,-65.13736,-127.79643,-65.425018,-124.85828,-21.032928,54.634029
3765000000,-4.152492,-77.621063,-66.326065,135.37805,-67.481613,130.26341,-23.96633,143.55518
3770000000,-11.104152,-149.84335,-65.596596,13.432376,-64.900414,16.513996,-29.150803,-69.79052
3775000000,-4.4394536,-10.834012,-65.004929,-74.318466,-65.553833,-73.752464,-14.497221,64.493027
3780000000,-5.1338086,-109.59451,-63.826153,-176.65331,-64.494652,173.11826,-19.182983,-172.30995
3785000000,-9.8316774,-42.1726,-63.584404,69.245003,-63.706707,71.044838,-20.264931,38.654835
3790000000,-7.0321908,-79.708794,-63.007935,-27.632128,-63.848656,-34.494637,-16.573408,104.31906
3795000000,-11.025509,-137.78941,-66.476204,-138.39888,-65.932602,-130.77039,-21.238253,170.07709
3800000000,-5.6081576,-31.125122,-64.764412,119.82948,-64.750671,125.13094,-21.959002,14.957438
3805000000,-7.6754665,-101.12357,-64.50695,16.035816,-65.419914,13.673235,-15.894971,126.90301
3810000000,-12.569568,-66.087952,-62.859169,-83.049881,-63.011055,-85.490044,-28.60113,16.515654
3815000000,-3.2473772,-77.708,-64.051186,172.49384,-63.59111,170.00691,-22.781744,49.101337
3820000000,-10.5277,151.69215,-65.299835,73.081482,-63.902214,69.500916,-14.535522,110.50611
3825000000,-2.5291417,-52.914356,-65.025002,-25.345875,-64.119354,-32.721638,-26.265623,-25.004543
3830000000,-9.3599272,-140.142,-64.695145,-138.76384,-64.495796,-137.21947,-12.052404,95.117882
3835000000,-7.5198112,-44.671764,-65.092621,128.48604,-64.867943,124.48629,-18.963253,-158.354
3840000000,-3.0468833,-109.94794,-65.549911,26.010319,-65.077026,20.336996,-23.840527,74.383362
3845000000,-15.747179,51.98951,-64.607704,-96.66394,-64.607666,-89.378113,-16.495596,67.919304
3850000000,-2.2825067,-87.062012,-63.303207,169.08351,-64.050056,165.99452,-19.399786,-162.64343
3855000000,-15.800078,-157.71872,-62.887486,69.168495,-63.12344,63.978813,-14.803219,34.093063
3860000000,-4.4801669,-59.36668,-63.451588,-28.76763,-63.940632,-33.499649,-16.101986,100.9155
3865000000,-4.7991581,-124.45695,-64.198921,-130.60561,-63.707695,-127.65366,-25.900717,75.215851
3870000000,-12.75571,-34.507351,-67.09481,127.43307,-67.022606,126.49059,-15.848083,63.730652
3875000000,-4.4846187,-99.070885,-64.228615,7.2540932,-64.618568,6.9940948,-15.028259,135.09061
3880000000,-13.45588,-150.34747,-64.963127,-81.613045,-65.105896,-89.210403,-20.155443,15.693589
3885000000,-4.1816015,-54.832413,-62.368355,170.70755,-62.783741,160.99197,-18.26833,81.393433
3890000000,-2.8250661,-135.27376,-64.393745,72.675774,-63.947311,67.223427,-18.245255,140.96669
3895000000,-13.499741,-42.378571,-66.065895,-35.444252,-65.997719,-36.081127,-13.396016,-2.7060182
3900000000,-3.96135,-95.501205,-63.696014,-149.07939,-64.373985,-143.57605,-12.104835,99.406502
3905000000,-12.59065,-131.8782,-64.872749,120.66925,-64.597984,115.80949,-24.35932,-38.622086
3910000000,-5.1732717,-70.521713,-64.344826,7.2784562,-63.564697,9.204011,-14.81721,65.165726
3915000000,-5.971014,-149.08629,-64.525162,-100.69496,-64.959488,-106.41802,-16.455811,85.314842
3920000000,-5.8668895,-54.693218,-63.725677,170.78462,-63.914658,164.90588,-26.009954,-79.291061
3925000000,-4.0491352,-128.18341,-65.44429,62.848396,-65.017731,58.095036,-13.367465,67.949532
3930000000,-30.390137,66.879768,-65.551765,-42.734245,-63.128792,-47.952076,-33.604965,130.31937
3935000000,-1.7072517,-99.768272,-65.659691,-153.66292,-65.554184,-148.7346,-19.20566,4.44417
3940000000,-14.001284,148.07918,-63.706951,113.67093,-64.558868,110.83286,-13.177131,59.8158
3945000000,-3.3115849,-90.803177,-65.65844,6.1530008,-66.488487,10.169032,-22.482502,161.43452
3950000000,-5.8679557,-138.98526,-65.78495,-81.119751,-63.942551,-87.827316,-12.257671,31.111673
3955000000,-15.613666,-67.603302,-63.333321,157.97542,-64.139694,153.94077,-19.581429,140.53935
3960000000,-4.0050788,-122.736,-65.23204,66.722878,-65.785759,61.585083,-19.862597,46.452507
3965000000,-22.260178,-135.56573,-65.610992,-38.608894,-65.175087,-37.593262,-20.00848,30.923956
3970000000,-4.5828862,-100.96329,-64.878853,-158.67589,-64.422615,-158.01607,-22.002871,96.917923
3975000000,-3.3458488,-147.81223,-65.278595,112.74401,-67.110954,114.39241,-20.355186,-23.17536
3980000000,-14.82242,-50.022911,-64.481033,7.6980639,-64.715141,-0.48747215,-15.309584,51.055016
3985000000,-4.7295351,-135.68794,-64.243179,-94.076591,-64.717728,-93.453651,-22.94776,76.309418
3990000000,-13.784934,-100.78349,-65.362549,160.30882,-64.83017,155.08182,-22.188095,-29.394464
3995000000,-5.3114147,-114.0446,-64.58622,54.225117,-63.337265,51.979549,-14.78695,71.311394
4000000000,-3.6039531,-164.69237,-64.155113,-51.976936,-64.985329,-57.480644,-29.171839,-56.77623
END

