!CSV A.01.01
!Keysight Technologies,N5247A,US56070710,A.10.64.09
!Date: Thursday, November 10, 2022 00:10:33
!Source: Standard

BEGIN CH1_DATA
Freq(Hz),S33(DB),S33(DEG),S34(DB),S34(DEG),S43(DB),S43(DEG),S44(DB),S44(DEG)
3000000000,5.193778,15.769156,-66.522362,69.038757,-65.196869,60.214684,-16.263426,-135.31343
3005000000,5.8121872,-81.960426,-68.883308,-83.630516,-69.164223,-74.868698,-15.801856,-136.74368
3010000000,6.9188623,176.85994,-73.092651,141.21619,-72.642838,135.01099,-15.723137,-138.93184
3015000000,6.7134972,100.05689,-65.421967,42.80106,-64.552376,54.421013,-15.98614,-142.40881
3020000000,4.949492,-15.573113,-59.286213,-14.13607,-59.293743,-25.17613,-15.705856,-144.04108
3025000000,6.6552472,-112.19351,-59.117702,-112.17356,-59.17292,-108.44003,-15.239522,-145.04628
3030000000,6.171597,155.43018,-63.255627,137.98502,-64.459747,136.73003,-15.231849,-148.36195
3035000000,7.2290492,63.403027,-77.56691,179.27226,-75.350426,-176.84021,-15.487081,-153.04797
3040000000,3.5923634,-41.857086,-67.359489,-161.01683,-68.24794,-164.82555,-15.428003,-157.74622
3045000000,7.121479,-143.14336,-67.559441,141.10625,-68.428085,137.6664,-15.159017,-161.05806
3050000000,7.1831203,134.82082,-70.028694,51.337734,-69.684738,58.271793,-15.242304,-161.05162
3055000000,6.0561228,34.629486,-60.298473,-31.166382,-58.880135,-34.869549,-15.521475,-162.08371
3060000000,5.2115073,-68.713921,-64.562851,171.81934,-64.293327,169.41859,-15.269519,-166.97725
3065000000,7.1541457,-171.98701,-64.183289,132.06207,-63.983772,128.63295,-14.909946,-170.33153
3070000000,6.9233103,113.60045,-67.837875,4.9983058,-67.786026,10.301994,-15.307305,-170.08466
3075000000,5.501328,2.3293831,-78.308548,-67.915932,-79.913254,-89.115723,-15.869781,-172.714
3080000000,5.8474698,-98.08358,-66.12841,-99.83416,-66.704346,-93.489273,-15.913148,-175.91922
3085000000,6.3329573,164.70537,-63.927448,9.7777491,-64.511345,9.3353872,-15.748998,-175.77214
3090000000,7.8021102,83.849869,-61.847469,-103.97558,-59.914459,-97.428345,-15.956752,-175.59766
3095000000,3.8638456,-25.831999,-59.864407,-145.00398,-60.468342,-149.33984,-16.053417,179.90506
3100000000,6.4916134,-130.00089,-63.497692,163.21945,-63.176929,163.4288,-16.134384,175.48175
3105000000,7.2395153,142.92955,-68.413895,163.77516,-68.289101,168.18504,-16.294001,174.08691
3110000000,6.6718526,51.307625,-78.969604,80.512978,-76.88485,70.627991,-16.566696,173.32353
3115000000,4.1820865,-51.732735,-66.810936,68.581528,-66.916847,63.303936,-16.636282,172.74178
3120000000,7.3608632,-160.62184,-70.707542,-37.489197,-71.92984,-29.231724,-16.5783,172.61609
3125000000,6.8794765,122.82259,-69.654175,-116.56944,-69.826927,-105.46707,-16.435623,171.76878
3130000000,6.4498205,19.477236,-67.816322,-155.11768,-66.299438,-159.60402,-16.803431,169.16472
3135000000,4.7621841,-83.097855,-72.240784,139.11992,-70.660904,140.24249,-17.433924,165.37354
3140000000,6.4231992,172.67108,-67.077538,42.945927,-67.668831,43.37183,-17.60964,163.37848
3145000000,8.3359327,97.03241,-65.44371,35.400208,-63.897118,45.457039,-17.458206,164.9635
3150000000,4.909759,-7.8720355,-67.569054,-12.376748,-67.048721,-19.469503,-17.555119,166.11848
3155000000,6.1395183,-114.23214,-64.574524,-103.91982,-64.403885,-105.23496,-17.490849,163.9696
3160000000,7.0604272,150.18385,-67.611015,-164.62213,-67.218002,-162.18686,-17.188234,160.88197
3165000000,8.0661697,67.975082,-63.9585,-127.88468,-62.019299,-124.27102,-17.534071,160.44344
3170000000,4.1874719,-35.094685,-68.898186,157.63531,-69.294357,163.59106,-18.099806,160.89491
3175000000,6.5610609,-146.12234,-64.681267,118.17759,-64.254189,114.76606,-18.011126,162.21564
3180000000,7.1077514,132.36928,-67.014259,89.085663,-67.255615,102.13715,-17.902184,164.50386
3185000000,8.0384398,33.251072,-65.64817,-57.991661,-63.05809,-58.680992,-18.2388,166.48705
3190000000,4.3826981,-64.888054,-66.612404,-108.95466,-68.47612,-109.62184,-18.466028,162.03307
3195000000,6.8053775,-178.41521,-71.123619,-107.83533,-70.513466,-110.21085,-18.526512,156.34439
3200000000,8.5292683,106.58158,-65.651497,-150.15308,-64.283081,-137.04823,-18.51614,154.66156
3205000000,5.5417871,4.3448987,-66.248085,165.9133,-66.669594,153.99449,-18.800884,159.29308
3210000000,6.7942591,-92.181221,-64.485748,85.445213,-63.988274,90.036926,-18.725142,159.26549
3215000000,8.2523079,156.86743,-65.27018,11.735696,-65.484879,14.781086,-18.424967,156.36705
3220000000,10.755927,79.448456,-69.11631,-50.388992,-64.980392,-40.052055,-17.718826,156.08585
3225000000,6.4107099,-23.788919,-64.591614,-47.614704,-65.35527,-55.432259,-17.700884,157.83516
3230000000,8.3243809,-130.2807,-65.455475,-92.065399,-65.152466,-85.295479,-18.355951,156.26416
3235000000,7.7221713,137.66299,-66.294441,-131.38971,-67.408508,-126.09178,-18.654583,155.11754
3240000000,10.777086,42.120045,-64.060287,168.66405,-61.822258,164.2317,-18.033392,157.6134
3245000000,6.1121898,-48.654659,-62.158642,107.27189,-62.639381,106.8682,-17.867468,159.4427
3250000000,7.9536009,-171.03705,-69.6875,8.5638094,-70.288048,1.8413311,-18.232191,157.29309
3255000000,9.6291084,118.50332,-70.674362,-51.381283,-70.675484,-34.547218,-18.157225,152.9043
3260000000,8.9498787,7.7017093,-72.355637,6.1235738,-70.636032,-21.493111,-17.747723,149.92702
3265000000,7.269156,-79.223259,-63.030201,-81.857689,-63.742603,-82.085938,-17.755983,150.22461
3270000000,8.0477896,163.49582,-59.656555,-133.76263,-60.496571,-129.25288,-17.861784,152.90463
3275000000,11.082602,88.436394,-63.013622,170.48433,-60.212658,-174.55911,-17.618959,152.4763
3280000000,7.2841182,-18.066652,-65.885635,104.10175,-66.135941,91.890167,-17.35812,149.71127
3285000000,7.9323268,-114.36157,-66.661736,59.106621,-66.528305,63.69252,-17.22753,147.90878
3290000000,7.4469461,142.76311,-64.556694,35.922504,-66.463074,41.138084,-17.234219,147.14442
3295000000,12.037559,46.947208,-64.239525,1.5616432,-60.992424,-6.214951,-17.443953,144.68259
3300000000,6.7745986,-38.854965,-58.952629,-55.455067,-60.423191,-58.763451,-17.712742,144.51366
3305000000,8.3097038,-158.42435,-59.378021,-145.33398,-59.419159,-151.42212,-17.628052,144.8526
3310000000,9.4790945,121.64236,-64.120834,154.68576,-63.358791,169.27621,-17.393379,140.5518
3315000000,10.063336,15.078929,-73.265091,111.25187,-71.416878,91.172081,-16.994282,136.33286
3320000000,7.1899428,-62.187267,-64.879883,106.05771,-66.146271,112.15567,-17.06427,136.85393
3325000000,7.6747661,170.82405,-70.400002,62.224178,-70.614143,50.93568,-17.404047,134.36902
3330000000,10.643033,98.754944,-60.385597,1.2652624,-58.699451,10.78471,-17.278536,129.26527
3335000000,8.522438,-7.0928922,-61.312435,-78.711555,-61.740234,-95.357559,-16.786982,131.48158
3340000000,8.5228415,-97.397774,-62.343292,-173.69037,-61.944916,-165.89127,-16.795908,134.04785
3345000000,6.9586158,151.60507,-80.892097,50.589943,-88.251617,63.969341,-17.126101,129.18631
3350000000,13.018389,58.626015,-82.164925,-87.292809,-78.543198,-93.925407,-17.067995,123.5237
3355000000,7.3928046,-28.771116,-68.624054,110.9054,-68.768791,106.73261,-16.929533,123.83469
3360000000,8.4449444,-138.98253,-64.419609,37.655582,-63.869987,24.626251,-17.331062,123.46307
3365000000,9.0327206,132.56638,-61.259125,-32.353771,-61.226513,-15.368833,-17.835653,120.93022
3370000000,11.364103,25.016119,-63.912914,-140.97377,-62.74868,-159.11147,-17.904861,118.04675
3375000000,8.2666864,-51.475849,-72.352531,136.14816,-72.720177,145.54208,-17.48653,114.7235
3380000000,7.5497646,-174.31429,-65.463203,-29.610254,-65.652283,-28.021805,-17.340374,111.72279
3385000000,9.9645662,107.15047,-68.872543,-169.48924,-66.81839,-155.92459,-17.847321,110.34601
3390000000,9.2533798,-3.8398845,-72.83223,78.745689,-72.023735,56.53381,-18.165359,106.98533
3395000000,8.0396338,-82.032631,-64.949776,20.705193,-64.201263,26.832676,-18.037451,106.40851
3400000000,6.6809626,159.11482,-64.785393,-132.79999,-65.860779,-136.4903,-18.250801,108.34755
3405000000,12.32652,70.817024,-75.330727,-164.97824,-70.025284,-165.18405,-18.885914,107.73089
3410000000,8.0092344,-23.610458,-72.832466,7.2642264,-75.048065,8.7620506,-18.944157,101.56625
3415000000,9.1262875,-125.83946,-73.976868,-98.985909,-72.208786,-108.34249,-19.15209,98.222366
3420000000,7.9461923,133.48526,-84.122604,-158.91531,-83.831764,-138.64395,-19.952488,97.363632
3425000000,11.806551,33.277596,-66.543121,21.684961,-64.047234,10.400265,-20.525362,93.652328
3430000000,8.1430111,-47.150425,-65.460388,-99.898666,-66.856895,-104.23064,-20.115576,90.368294
3435000000,8.2374601,-164.09488,-69.883987,158.3031,-69.798073,152.42458,-20.144459,91.597115
3440000000,9.1539297,114.01362,-65.397865,44.391556,-65.771492,58.694206,-20.501774,90.703484
3445000000,10.438002,1.2990905,-77.360786,88.862938,-74.601212,62.209915,-20.621632,85.568008
3450000000,8.7635336,-71.61161,-71.098808,110.74452,-72.240173,123.52603,-20.657236,84.731316
3455000000,7.341536,165.24207,-66.671066,64.271576,-68.063904,54.732285,-21.422773,90.227722
3460000000,11.757998,79.10199,-68.597771,-34.313801,-66.035912,-35.735363,-22.465391,94.12925
3465000000,8.833169,-19.795582,-62.318253,-110.84663,-63.809776,-124.6371,-23.476261,90.650055
3470000000,9.2761774,-107.36617,-74.532722,-178.07993,-74.204071,-173.07404,-23.636148,87.371559
3475000000,7.5982494,142.76405,-73.81115,-146.23032,-77.348373,-153.38795,-23.898949,86.674805
3480000000,12.036202,43.429272,-69.116379,-172.67406,-66.404602,172.32219,-24.973425,81.75325
3485000000,9.0636272,-40.570465,-63.286213,133.35291,-64.411308,126.75767,-25.241278,77.824966
3490000000,8.870141,-145.34392,-62.684944,35.723812,-62.2113,33.904346,-24.747065,86.576996
3495000000,8.1154766,122.71099,-63.500778,-32.842323,-64.595665,-19.284349,-25.19404,95.987785
3500000000,11.141715,8.9084358,-71.367424,-99.951736,-69.238434,-118.04164,-26.419821,96.546379
3505000000,8.2207623,-61.294849,-84.39946,-128.69482,-93.846092,134.15605,-26.400724,88.426468
3510000000,7.5866389,179.52843,-78.142075,178.34282,-78.410645,-172.55136,-26.086153,89.705246
3515000000,10.156038,91.251205,-63.483448,168.11333,-62.200386,173.54039,-26.296272,99.319763
3520000000,9.1509438,-12.211676,-61.965416,103.00745,-62.361382,87.799553,-26.954357,111.50608
3525000000,9.4551716,-92.017914,-60.260056,26.36916,-60.026337,29.34597,-28.130207,115.17915
3530000000,6.9497852,152.75398,-65.912926,-38.301128,-66.389954,-32.993736,-28.949665,108.79552
3535000000,11.558996,57.254997,-78.754723,94.029625,-76.540298,124.42191,-27.225096,101.38776
3540000000,8.2176046,-33.737209,-71.896255,6.6321454,-73.093437,-1.0703663,-26.796091,104.27177
3545000000,9.2133369,-128.36064,-63.605175,-88.434624,-63.25985,-85.002029,-27.855333,109.10918
3550000000,7.1450396,128.27261,-61.77726,-163.6037,-62.565941,-158.15137,-27.360992,111.08633
3555000000,10.98477,19.781252,-63.060654,107.73793,-61.713718,96.308151,-25.9886,114.91748
3560000000,7.8221402,-54.737244,-61.916336,10.522607,-63.464947,14.302235,-26.289415,118.87511
3565000000,7.6840458,-169.23964,-65.991684,-87.745094,-66.283852,-90.697845,-26.183861,113.36247
3570000000,8.7591772,102.17471,-69.733116,159.99106,-67.79052,169.60408,-24.820868,107.75309
3575000000,9.1334105,-7.6087427,-69.500221,11.487534,-69.741089,-12.116158,-24.73443,117.70184
3580000000,8.4263201,-79.846764,-62.269527,-104.01675,-63.392971,-97.590996,-25.740044,130.21524
3585000000,6.9635348,161.0069,-60.582111,145.42766,-60.831455,142.83849,-26.302023,124.23812
3590000000,10.113164,73.76136,-58.901188,74.547821,-56.658474,80.071915,-25.919922,115.0692
3595000000,8.6458206,-26.495546,-59.430367,-9.7692699,-60.545135,-19.792234,-26.055641,117.38489
3600000000,9.1423597,-110.75577,-67.063713,-154.1561,-66.447006,-145.4673,-26.624294,107.70778
3605000000,6.3427558,137.95143,-63.621361,119.59738,-64.53862,125.15035,-25.640226,96.804184
3610000000,11.048432,37.315002,-61.858269,-44.019817,-59.65765,-49.659168,-24.885614,101.29066
3615000000,8.1441078,-49.271049,-58.735382,-123.85588,-60.513172,-124.89394,-24.516439,111.79646
3620000000,8.7440777,-154.23805,-55.560112,127.79585,-55.248207,123.24841,-24.32461,109.66608
3625000000,7.814507,113.37924,-60.435684,26.236336,-59.986904,33.634636,-24.763666,108.10192
3630000000,10.490853,5.9824214,-60.427677,-49.812489,-59.250462,-64.963387,-25.467901,107.03964
3635000000,8.4638233,-66.210587,-62.697849,164.6357,-63.315449,163.77814,-25.926371,102.11577
3640000000,7.432508,175.42644,-64.385254,45.921333,-64.420952,38.838139,-26.088478,97.935051
3645000000,9.1643333,90.695389,-59.092636,-55.876087,-58.309151,-42.718094,-26.241152,103.28783
3650000000,9.2925396,-19.734673,-56.22567,-173.04305,-56.408394,173.0215,-25.936314,105.67132
3655000000,9.1258898,-94.315666,-56.194466,103.15915,-56.521706,108.32862,-26.325905,100.44627
3660000000,6.9402761,149.37042,-57.708191,13.540761,-58.720993,12.836763,-27.184269,91.796181
3665000000,10.743733,54.112885,-61.673809,-97.934593,-59.355743,-94.00631,-26.85273,87.753487
3670000000,7.9670949,-38.894073,-64.23761,133.01219,-65.427711,125.95608,-26.49301,90.927986
3675000000,9.2773285,-131.63271,-57.130226,2.3697071,-56.500511,2.5753927,-27.547022,99.178764
3680000000,6.9882712,124.93737,-56.049747,-97.853699,-56.965366,-91.816429,-28.396324,105.34273
3685000000,11.052185,21.324736,-56.397804,-179.26517,-54.875729,171.54724,-28.330606,101.31812
3690000000,8.8125143,-60.315441,-57.609123,69.507904,-58.306599,71.048782,-28.86688,98.72097
3695000000,7.9297409,-166.77185,-60.891422,-42.127216,-60.230164,-46.206711,-31.390713,99.434402
3700000000,7.6477284,102.8885,-61.257633,-147.72081,-61.203064,-137.21512,-33.969654,92.544373
3705000000,10.08706,-10.332478,-59.114861,91.83979,-58.416862,76.623634,-33.972908,80.331268
3710000000,7.9733362,-80.395096,-55.546154,-26.526421,-56.720486,-21.218012,-32.856777,89.474602
3715000000,6.6571765,162.32042,-55.502441,-122.01438,-56.347301,-125.80043,-32.016617,97.358696
3720000000,9.5606251,70.040649,-55.796288,146.10133,-53.968552,151.13094,-31.879019,100.72852
3725000000,8.4019203,-31.023136,-57.999325,66.959114,-59.587883,56.845524,-32.539383,99.182877
3730000000,9.1613207,-112.3393,-63.931278,-59.851807,-62.871765,-62.397461,-33.227753,108.77279
3735000000,6.0701399,136.24367,-61.30463,154.46881,-61.654522,154.50032,-33.243443,120.75008
3740000000,10.145327,39.651482,-56.961288,56.832012,-55.391193,52.720596,-31.515863,133.28819
3745000000,8.6928673,-49.87748,-55.468952,-50.432823,-56.274616,-53.319679,-29.870378,140.92856
3750000000,8.7973833,-146.71776,-55.576298,-144.52373,-54.973312,-146.14255,-30.031187,152.74156
3755000000,6.5695229,115.42387,-58.149002,131.19878,-59.062309,139.76834,-32.013279,158.85471
3760000000,10.675385,2.4269025,-62.080753,40.381634,-60.08754,25.098574,-33.416916,155.18848
3765000000,8.1662903,-68.685753,-60.836922,-104.97166,-62.892151,-104.9018,-32.453625,151.256
3770000000,7.8431439,178.77493,-62.361034,120.8626,-62.949963,112.69262,-30.622046,154.96642
3775000000,8.762886,87.327133,-57.779873,21.867342,-57.243267,33.544502,-29.21607,151.20985
3780000000,9.640317,-25.247849,-56.009308,-66.260078,-56.805302,-81.275436,-28.069595,146.52841
3785000000,9.5253792,-92.547104,-57.944038,-156.00911,-58.402718,-147.2791,-27.023811,147.98839
3790000000,7.2229395,149.53386,-58.037357,101.23795,-58.632549,98.295547,-26.371387,154.17201
3795000000,10.232511,61.145908,-61.932865,-1.3326865,-60.25108,3.5441747,-26.387863,158.32014
3800000000,9.2389936,-43.636898,-61.342705,-125.63676,-62.852661,-136.6227,-26.428474,159.2758
3805000000,9.3455772,-125.2627,-59.8797,107.53876,-59.534595,111.38787,-25.289146,156.23863
3810000000,6.4551616,124.30901,-61.168385,19.276752,-62.616825,21.876579,-24.446363,155.54526
3815000000,11.342852,16.934116,-58.618931,-92.946365,-56.686565,-109.72401,-25.458904,157.29019
3820000000,8.5963802,-61.484455,-58.804802,172.49371,-60.647877,174.38039,-27.18668,151.48729
3825000000,9.1882315,-165.29385,-59.226807,78.38102,-58.184891,71.469078,-25.803686,138.90602
3830000000,7.0970078,99.459999,-62.47467,-45.897095,-62.794029,-38.036896,-24.215656,138.65918
3835000000,10.609905,-13.835255,-64.86599,-141.347,-63.953075,-159.44905,-23.933353,143.95592
3840000000,9.0795269,-82.081657,-60.310383,74.836563,-61.213364,80.400932,-23.877527,139.51534
3845000000,7.6020555,164.36678,-61.115986,-34.788876,-61.176449,-37.016788,-23.225531,132.45355
3850000000,9.0733461,73.614532,-59.324219,-113.58956,-58.35376,-103.36279,-22.969856,131.51831
3855000000,9.4363985,-36.841003,-59.1991,153.96933,-59.69923,142.65912,-22.940409,134.89487
3860000000,9.8541737,-107.13016,-61.762234,63.168915,-61.926041,71.683952,-22.737963,132.60109
3865000000,6.2836347,138.08028,-68.783401,-30.077135,-69.354805,-30.69413,-22.428474,130.67923
3870000000,10.413223,40.305916,-73.535316,-171.72675,-70.014381,-174.00247,-22.146151,132.8735
3875000000,8.6983156,-54.959614,-60.697308,45.626652,-62.626915,37.037739,-22.290165,132.35014
3880000000,10.006123,-142.97897,-59.966423,-51.838615,-58.840107,-52.322052,-23.148302,123.62484
3885000000,6.2281499,113.15044,-58.046589,-128.7343,-58.838707,-124.22777,-23.385202,116.62835
3890000000,10.806682,3.2104084,-60.992706,144.37439,-59.249332,133.03503,-22.382803,115.92741
3895000000,8.6126862,-71.101875,-63.590778,64.762283,-65.215729,65.220703,-21.568356,116.33357
3900000000,9.1480618,-174.62164,-73.061325,-73.134438,-74.119766,-80.566498,-21.710049,116.13142
3905000000,7.9824872,87.469818,-68.953453,90.417358,-68.171127,99.799568,-21.948883,116.60189
3910000000,10.186954,-25.260782,-60.324707,28.980869,-60.30381,16.49284,-21.981485,112.37501
3915000000,10.114674,-93.706718,-58.088615,-59.534035,-57.993984,-51.25304,-22.326572,107.07957
3920000000,7.2047358,151.53387,-58.394688,-144.05193,-59.737549,-149.85217,-22.563417,108.34669
3925000000,10.343629,58.994133,-66.802811,124.37075,-64.436508,136.92366,-22.685434,109.94649
3930000000,9.1207743,-48.615986,-68.178276,36.435883,-69.598557,26.476761,-22.99497,102.66261
3935000000,10.678097,-126.63063,-65.035378,-149.74405,-64.611816,-147.61955,-23.009314,93.328552
3940000000,6.753891,127.01241,-67.914955,115.84901,-69.591988,112.98983,-22.240307,93.132187
3945000000,10.953357,15.946237,-59.94289,15.762855,-59.034534,6.4575276,-21.781353,93.442726
3950000000,9.8171721,-66.557495,-61.511436,-91.299171,-62.436356,-90.136665,-22.722523,93.613037
3955000000,9.9780102,-162.85841,-60.1427,-167.05089,-59.236362,-168.96022,-23.742956,93.239105
3960000000,6.8454142,103.32449,-64.55336,97.363388,-64.864937,113.32728,-22.9692,90.29744
3965000000,10.566339,-18.478104,-64.678978,6.6051297,-64.192642,-10.763293,-22.467896,87.351028
3970000000,9.1066532,-84.369568,-65.082939,-149.17816,-66.370094,-146.23709,-23.806612,87.032326
3975000000,7.8962636,166.05936,-67.305237,70.774239,-67.844688,68.550362,-24.505444,81.510445
3980000000,8.8320465,71.779327,-62.36705,-12.569299,-61.223141,-4.1726952,-23.743874,76.023415
3985000000,9.2332211,-42.034336,-61.856682,-108.11914,-62.943375,-116.57727,-24.204407,76.647514
3990000000,10.649708,-113.53432,-62.742519,174.48532,-62.162872,-177.99991,-24.817162,79.767746
3995000000,6.7117281,138.99796,-65.072044,66.39502,-65.462921,63.897583,-23.776344,77.553894
4000000000,8.012042,38.575039,-66.415215,5.5143142,-64.715759,2.7376354,-23.837727,75.207779
END

