!CSV A.01.01
!Keysight Technologies,N5247A,US56070710,A.10.64.09
!Date: Thursday, November 10, 2022 02:05:56
!Source: Standard

BEGIN CH1_DATA
Freq(Hz),S33(DB),S33(DEG),S34(DB),S34(DEG),S43(DB),S43(DEG),S44(DB),S44(DEG)
3000000000,6.0127544,22.745195,-58.374332,-127.48244,-57.798187,-135.2081,-16.057312,-138.43585
3005000000,5.6522946,-75.880653,-61.04073,122.89885,-61.278267,125.40263,-15.649069,-137.99849
3010000000,6.688787,178.27994,-60.139462,-1.4377209,-60.712463,-0.44267842,-15.768867,-140.75211
3015000000,7.1285963,104.32454,-58.77663,-106.16714,-57.902939,-95.954674,-15.868192,-144.87883
3020000000,5.4647713,-9.6503534,-57.620735,152.65474,-57.168274,143.64398,-15.603293,-145.03496
3025000000,6.1520348,-106.84312,-56.732796,58.406696,-56.797611,61.440948,-15.396385,-146.35207
3030000000,6.6322918,157.5661,-56.991371,-54.237125,-57.913567,-51.892994,-15.32324,-151.24881
3035000000,8.4108982,67.499947,-57.649433,-149.81453,-54.940327,-145.64075,-15.425988,-155.40642
3040000000,3.6796238,-31.569738,-57.742558,121.34066,-58.527782,115.83292,-15.486617,-160.00534
3045000000,6.8455534,-139.52139,-59.040993,19.707247,-59.060204,17.224714,-15.115653,-164.32182
3050000000,7.4054074,133.40854,-61.603119,-94.517624,-60.732327,-85.038681,-15.011384,-163.29257
3055000000,6.9208889,40.12949,-60.508553,158.57349,-59.071724,153.31758,-15.45427,-162.88658
3060000000,5.225265,-60.324356,-61.352528,49.64333,-61.759502,48.696499,-15.371283,-168.86784
3065000000,6.8229837,-168.77411,-60.954937,-72.440346,-60.888054,-72.214188,-14.846945,-172.78018
3070000000,7.3236294,114.64356,-59.459091,-179.7981,-58.696449,-167.05241,-15.209959,-171.52664
3075000000,5.8005638,4.9571371,-58.023102,75.342354,-57.361824,67.974487,-15.925519,-174.09024
3080000000,4.686933,-94.52121,-57.229195,-15.472233,-57.220261,-10.619866,-15.981365,-178.01492
3085000000,6.2160869,165.69043,-55.500767,-123.70206,-56.416927,-125.70065,-15.80937,-177.91644
3090000000,8.4405937,85.641502,-56.745007,135.99274,-54.616295,143.34698,-16.051661,-178.35887
3095000000,4.1165538,-15.878885,-57.311012,42.403709,-57.36882,36.92836,-15.983278,176.5206
3100000000,5.7797995,-126.19517,-56.906845,-59.211308,-56.914776,-62.210503,-15.921347,173.07297
3105000000,6.9962373,139.86311,-59.220791,-171.84258,-59.358303,-162.08607,-16.166143,172.45096
3110000000,7.7335854,55.579659,-60.909676,93.68055,-59.416603,88.677727,-16.487692,171.27971
3115000000,4.784781,-42.525631,-62.915005,-29.855906,-63.396164,-31.204163,-16.479033,170.94519
3120000000,6.3535933,-157.05852,-59.116753,-144.66896,-58.207718,-143.92688,-16.48196,171.7794
3125000000,6.8578458,124.29668,-61.037979,96.508881,-61.232872,102.65968,-16.519339,170.78185
3130000000,7.4730978,21.16044,-59.480606,-4.7296715,-57.976002,-11.793109,-16.900049,167.1449
3135000000,4.5859156,-75.41803,-57.12606,-97.848328,-57.574924,-95.772644,-17.440247,163.32474
3140000000,6.3513565,176.12711,-56.739429,147.75801,-57.282333,143.71771,-17.710598,161.54129
3145000000,8.7798672,97.567841,-57.533489,53.968082,-56.104496,62.767105,-17.605116,161.76981
3150000000,5.4136095,0.026395716,-56.959652,-43.407867,-56.991013,-48.65189,-17.436451,162.22742
3155000000,5.546628,-106.00788,-56.703197,-139.40688,-56.358208,-139.68854,-17.199068,161.95355
3160000000,6.7166634,149.61484,-58.657967,110.36913,-58.886013,115.39082,-17.120453,160.03348
3165000000,8.5622396,71.746269,-60.792393,10.653543,-59.449554,13.5533,-17.58115,158.56557
3170000000,4.8670831,-24.940622,-60.702881,-97.415092,-60.644279,-99.068436,-18.037075,158.76511
3175000000,5.4432755,-139.09746,-61.700565,154.55299,-61.479191,152.34956,-18.041418,160.60968
3180000000,6.9228926,132.36336,-60.859207,27.480839,-61.124275,34.618313,-17.995827,161.71463
3185000000,8.9047041,33.361336,-59.836658,-79.783134,-57.361004,-87.069969,-18.09697,163.40569
3190000000,4.4243765,-55.036991,-57.625828,177.84698,-58.400002,176.38152,-18.312654,160.91925
3195000000,6.0479031,-173.25232,-57.04977,71.796661,-57.376411,66.909355,-18.686672,154.60191
3200000000,8.3153477,105.73269,-58.517845,-25.747066,-56.971077,-15.596901,-18.489403,151.09845
3205000000,6.3201947,8.1214828,-57.324287,-125.35016,-56.908966,-135.73108,-18.568947,157.00882
3210000000,6.8081255,-83.631935,-58.791153,139.22266,-59.138374,141.19994,-18.747515,157.95045
3215000000,7.9606438,158.04463,-60.577587,27.381159,-61.026657,30.078043,-18.443634,153.10553
3220000000,11.201906,82.962646,-63.052052,-74.339005,-60.858124,-68.04496,-17.439842,153.78265
3225000000,7.3142757,-17.973043,-62.990189,-169.56482,-63.794464,177.66318,-17.60103,157.47484
3230000000,7.2736459,-121.56551,-62.346432,52.841129,-61.696854,56.864796,-18.528889,154.2942
3235000000,7.1772938,138.11839,-63.511951,-59.773685,-64.546211,-55.361374,-18.522223,151.96272
3240000000,11.29196,41.127281,-62.473713,-158.81259,-59.638786,-165.78264,-17.884235,156.53156
3245000000,6.7700095,-40.931023,-60.665951,90.517159,-61.333004,88.76049,-18.025753,157.923
3250000000,7.8072753,-160.35371,-61.164185,-9.1163292,-61.335396,-17.813406,-18.218262,153.93687
3255000000,8.9964504,121.68757,-60.024757,-108.89732,-59.684494,-91.276474,-17.969038,151.38353
3260000000,9.4216499,13.18957,-60.922714,158.09341,-59.422058,138.75119,-17.890694,148.55803
3265000000,7.509129,-70.17997,-60.400791,54.417553,-60.438019,53.830605,-17.782162,146.47993
3270000000,7.6420274,166.92294,-63.339619,-52.501194,-63.833076,-49.447243,-17.562885,150.61397
3275000000,11.340885,91.689552,-66.483139,-146.55621,-63.630383,-135.02504,-17.638973,152.28178
3280000000,8.1588707,-12.491,-65.990967,107.47855,-66.129227,96.162071,-17.631422,146.87228
3285000000,7.1116762,-98.864021,-67.183327,-30.522606,-66.496155,-23.573406,-17.086182,144.09645
3290000000,6.9778004,146.11212,-65.57692,-140.53682,-66.875084,-132.27606,-17.055443,145.52106
3295000000,12.339938,43.941895,-66.092522,114.92781,-61.531658,100.21229,-17.508072,142.40759
3300000000,7.3017321,-33.04248,-63.087471,8.4859972,-63.65134,4.7601457,-17.533781,141.06979
3305000000,8.6049814,-145.56703,-61.834538,-89.169746,-61.583591,-95.534363,-17.362318,143.60051
3310000000,9.0771751,124.33499,-62.854351,174.30528,-61.949825,-169.95578,-17.470121,139.40884
3315000000,10.515621,18.425871,-63.18602,83.979332,-61.315586,67.094666,-16.926096,133.39804
3320000000,7.9327111,-53.046352,-63.159981,-2.9161651,-63.638187,-3.8338223,-16.794439,135.59119
3325000000,7.6815782,178.13103,-65.604637,-128.52998,-66.054901,-135.9716,-17.498533,134.31511
3330000000,10.637145,101.83463,-69.604385,143.21039,-67.644531,155.30426,-17.487202,126.4306
3335000000,9.2281466,-6.1722002,-73.667755,20.258753,-74.946655,-3.366111,-16.670725,128.52078
3340000000,8.544136,-88.461311,-71.811157,-128.67451,-71.087852,-115.74242,-16.740011,132.63625
3345000000,6.5785942,155.72243,-69.232063,114.23785,-70.557007,116.17929,-17.212431,126.84732
3350000000,13.035657,58.243286,-67.538208,9.3457041,-62.205723,5.2588539,-16.931246,120.88982
3355000000,7.8295383,-22.712248,-64.678047,-78.599609,-66.256729,-86.84938,-16.856697,122.73522
3360000000,9.0751295,-123.03368,-64.014198,179.6644,-62.644585,172.01826,-17.511942,121.38728
3365000000,8.2917843,133.76195,-64.254509,86.402596,-64.294647,101.88896,-17.775778,117.10839
3370000000,11.142539,23.639923,-64.729378,6.1049895,-62.557343,-11.410842,-17.64023,116.02653
3375000000,8.7890186,-48.303234,-64.078331,-89.575157,-64.67775,-93.208481,-17.478933,113.61526
3380000000,7.3578315,-163.65784,-65.664215,161.92751,-66.504868,157.22771,-17.336979,109.13577
3385000000,9.0534363,113.54618,-72.610474,71.823105,-71.018799,82.807205,-17.627831,108.1911
3390000000,9.5142956,1.8640671,-75.394859,22.807455,-79.066002,-4.433033,-18.076311,106.2215
3395000000,8.3929634,-69.73011,-74.584198,150.34811,-73.922043,154.63426,-18.093353,104.73969
3400000000,6.8357177,167.22298,-71.180542,16.404766,-71.782784,14.075763,-18.173698,106.14155
3405000000,12.743672,74.82016,-68.27636,-80.778748,-65.119942,-79.27047,-18.807013,106.42739
3410000000,8.8692055,-19.386141,-62.647537,168.56429,-64.009491,161.7934,-18.980824,99.979561
3415000000,10.140155,-112.61633,-62.545403,86.479469,-60.34507,81.89386,-19.070518,96.059814
3420000000,7.2780838,138.14915,-61.996094,-7.7582107,-62.633286,-0.66752052,-19.849709,96.318321
3425000000,11.696898,36.036495,-63.370285,-101.6109,-60.892815,-111.73019,-20.663481,92.610283
3430000000,9.0082674,-41.688862,-65.080376,171.83037,-66.869492,170.94432,-20.187195,87.474663
3435000000,8.9803886,-151.83661,-66.472519,50.088818,-65.917442,47.478836,-19.939465,89.179611
3440000000,8.4085226,119.94934,-81.121468,-6.8567166,-78.84877,14.677938,-20.356668,90.41362
3445000000,10.452952,3.7360857,-84.419525,82.462219,-83.318588,32.324257,-20.785917,84.81163
3450000000,8.9343529,-65.452057,-73.066704,-36.716377,-73.866524,-31.440926,-20.73357,82.22068
3455000000,7.2067766,174.10439,-68.468269,-134.04332,-69.87484,-136.08629,-21.296705,88.489647
3460000000,11.008574,85.467979,-67.826172,140.33145,-65.939796,142.70145,-22.490355,93.707069
3465000000,9.316885,-14.609701,-65.329971,45.02179,-66.583443,31.76734,-23.727892,88.5392
3470000000,10.008955,-98.322609,-64.823471,-41.589615,-64.597282,-45.941277,-23.611814,84.150063
3475000000,6.7649403,148.35593,-67.108261,-145.74673,-67.415649,-139.15466,-23.798735,84.719063
3480000000,11.707687,46.881454,-68.038811,141.06938,-66.806335,121.3192,-24.950926,78.665184
3485000000,9.5807476,-38.872166,-72.087593,64.554718,-73.986519,64.042679,-24.798304,74.409729
3490000000,9.0795088,-135.42383,-70.382294,-28.511549,-70.581253,-31.85465,-24.234539,86.260109
3495000000,7.1257372,128.66254,-79.499504,-26.190807,-80.913528,-32.607498,-25.126284,96.220947
3500000000,10.661315,10.451987,-74.453232,-84.895813,-72.249657,-106.70954,-26.258219,93.065002
3505000000,8.3851156,-58.348831,-72.526932,-169.83037,-74.740028,-169.41605,-25.53764,88.346588
3510000000,8.0170584,-173.25458,-68.694534,124.24124,-69.268341,123.77641,-25.771851,94.785744
3515000000,9.439168,96.816681,-67.882576,24.244959,-66.226524,37.303169,-26.742184,101.33434
3520000000,9.1391487,-6.6542115,-66.389343,-53.704464,-66.758102,-61.365597,-26.893269,109.51399
3525000000,9.7032833,-83.875267,-66.784325,-128.48421,-65.895386,-130.96315,-27.611063,118.14103
3530000000,6.4075389,159.30754,-68.473694,127.44498,-70.083038,126.50535,-29.838871,113.69947
3535000000,11.14415,61.780579,-72.729004,47.109097,-69.727242,45.834988,-27.765127,95.565948
3540000000,8.9039164,-31.02619,-73.733719,-32.062946,-74.165222,-47.002544,-26.264227,101.48461
3545000000,9.7531958,-115.72755,-73.09259,-140.72742,-74.552361,-144.84825,-27.858973,112.34956
3550000000,6.1733475,138.93071,-77.316902,55.156895,-79.823082,44.305161,-28.311548,107.89651
3555000000,10.199802,25.039238,-79.701096,-52.716156,-77.929657,-75.446518,-25.930794,107.79077
3560000000,7.9324541,-50.383415,-73.243378,-152.56247,-74.156143,-157.31223,-25.799154,115.50107
3565000000,8.603858,-159.96518,-71.003052,78.720779,-70.842094,65.193459,-26.080555,110.04418
3570000000,8.0493059,109.95438,-69.328979,-8.7458639,-68.425896,-0.50346029,-24.120022,103.5205
3575000000,9.0712662,-1.0742031,-66.351036,-104.39886,-66.439636,-120.20528,-23.69915,118.42413
3580000000,8.6846561,-72.37104,-67.531349,157.04198,-68.071625,161.6794,-25.45723,135.50272
3585000000,6.747622,171.77357,-65.479675,54.267212,-65.569763,49.179848,-27.02677,123.30003
3590000000,9.3961029,81.037506,-67.960678,-35.98418,-66.334778,-24.271633,-25.668556,110.86355
3595000000,8.8408537,-23.861759,-67.121216,-118.69287,-68.210007,-138.73418,-25.773083,116.98968
3600000000,9.2443676,-101.25637,-68.042793,127.99429,-68.020981,135.58752,-26.697798,105.13428
3605000000,5.7053924,146.72856,-71.00528,9.2625303,-71.431198,16.338654,-25.081675,94.668182
3610000000,9.990922,41.005611,-71.236618,-103.76127,-68.466591,-109.9212,-24.572001,102.904
3615000000,8.0334883,-44.408745,-68.99395,111.94938,-70.691994,112.7521,-24.815058,111.17375
3620000000,9.6720505,-140.4682,-66.152206,9.096839,-64.571136,2.8795545,-24.100624,105.24671
3625000000,6.8358006,124.51575,-63.992332,-91.095863,-63.840691,-79.782265,-24.013571,107.92058
3630000000,9.535821,16.854586,-62.974407,175.9384,-61.753529,166.69212,-25.403654,110.30148
3635000000,8.3758459,-59.254917,-62.277294,80.979652,-63.509266,84.163132,-26.23303,100.36436
3640000000,7.6049461,-173.89374,-62.139725,-26.008678,-62.394482,-34.20509,-25.693552,96.318947
3645000000,8.3529663,100.55659,-64.431656,-126.20139,-63.420883,-108.7028,-26.001448,105.5677
3650000000,9.4065218,-12.923111,-65.7827,137.64383,-65.026306,123.21324,-26.278948,106.65798
3655000000,9.0160856,-82.291084,-66.330467,26.131063,-66.287209,28.834866,-26.485725,98.661575
3660000000,6.2992115,161.3156,-67.994446,-101.50892,-68.513184,-106.55438,-27.272408,91.465889
3665000000,9.3349047,57.690422,-67.66581,157.33624,-65.831779,155.13475,-27.239941,85.267136
3670000000,7.877954,-34.641937,-64.024155,42.493626,-66.152016,31.997002,-26.375486,85.951752
3675000000,10.010341,-119.00206,-64.88784,-70.62513,-64.049896,-69.749084,-26.875008,96.789017
3680000000,6.3069782,137.25934,-62.923733,-169.6519,-63.706261,-170.28601,-28.021936,106.86999
3685000000,10.033278,29.321228,-61.835999,91.033676,-60.673653,85.260071,-28.511257,100.09876
3690000000,8.7410402,-57.183716,-61.496956,-8.7750549,-62.253029,-10.611837,-28.369228,95.153259
3695000000,8.2756357,-156.21671,-61.44735,-109.1049,-60.811615,-109.73088,-30.243105,101.19811
3700000000,6.8060522,114.07632,-62.15794,152.56683,-62.550308,160.37912,-33.73296,101.03957
3705000000,9.756134,-2.3561931,-62.643101,63.017662,-61.068928,48.126537,-34.32262,81.266609
3710000000,8.0207243,-70.908302,-62.082745,-41.159,-63.692802,-39.9375,-32.189056,90.768143
3715000000,7.1497846,173.80945,-65.086929,-158.46706,-65.825439,-161.41611,-31.531254,103.57989
3720000000,8.6543541,76.58448,-69.207718,83.487572,-67.048752,90.480858,-32.341969,105.92561
3725000000,8.5595818,-25.347042,-63.514313,-29.319923,-64.442123,-43.388458,-32.836842,98.565399
3730000000,9.9479256,-103.02444,-63.987923,-146.78918,-63.221905,-145.06586,-33.013603,109.77038
3735000000,5.7660518,149.13417,-61.569717,112.66303,-62.586376,109.56087,-33.444725,121.86108
3740000000,9.1708441,47.521675,-60.930122,12.214242,-59.106064,10.592576,-31.429502,129.26482
3745000000,8.6810207,-46.672653,-60.136635,-83.582047,-60.747299,-89.405853,-29.033533,138.60434
3750000000,9.3406754,-135.76613,-59.847603,171.04318,-59.549686,174.06931,-29.462179,155.68439
3755000000,5.8256245,129.23184,-60.390251,76.748497,-62.02684,82.006096,-32.725323,158.9433
3760000000,10.015511,13.418605,-61.21006,-18.291555,-59.951168,-32.201202,-32.815033,143.77812
3765000000,8.0629816,-60.833218,-60.404476,-127.58353,-61.797131,-125.51771,-30.800339,151.07243
3770000000,8.5310163,-168.66951,-62.527439,127.4939,-62.666462,119.57841,-30.649328,160.11235
3775000000,7.7083774,95.806862,-63.798569,17.366848,-63.615444,26.797438,-29.729876,144.37283
3780000000,9.5729666,-17.457558,-61.035717,-83.426361,-61.554317,-97.326385,-27.089186,140.7092
3785000000,9.8926105,-82.524559,-61.974216,159.66811,-62.381134,166.09348,-26.328091,149.15627
3790000000,7.0429525,165.62177,-61.96838,48.327995,-62.153301,45.095741,-26.443073,152.7424
3795000000,8.2436323,71.709793,-59.795441,-49.460003,-58.790211,-42.379108,-25.874121,153.54813
3800000000,8.9305611,-40.597916,-59.939739,-161.73634,-60.911461,-169.41612,-25.707882,159.85333
3805000000,9.8775387,-116.29429,-58.645115,99.703903,-58.475441,102.42436,-25.560272,156.48193
3810000000,6.3234434,139.04584,-59.101166,-2.5893183,-60.051018,-1.874738,-24.361773,150.08656
3815000000,10.359204,28.527483,-59.692604,-95.651779,-57.736469,-107.06024,-24.657396,155.11374
3820000000,8.1402483,-56.176517,-58.68594,160.60452,-60.780987,159.19258,-27.190283,153.44424
3825000000,9.7893,-155.03877,-60.860943,45.07225,-59.604469,39.648872,-25.756744,132.85117
3830000000,6.1071076,110.11907,-62.126488,-54.303352,-62.815197,-47.551434,-23.233309,135.97261
3835000000,10.073486,-3.5261087,-61.613194,-160.49902,-60.539433,-175.67868,-23.366905,147.03047
3840000000,9.3282413,-75.785324,-60.680946,79.223465,-61.546162,83.329681,-24.175148,139.56129
3845000000,8.0686636,176.64407,-60.642838,-29.243021,-60.642441,-33.562859,-22.920477,129.87471
3850000000,7.9979701,85.457832,-59.87738,-126.60686,-59.16959,-117.52769,-22.680458,133.18764
3855000000,9.4907236,-31.675617,-58.283855,135.81932,-58.651066,119.75402,-23.325155,135.45723
3860000000,10.405734,-98.035683,-58.38689,26.835724,-58.341976,37.182381,-22.84601,129.41542
3865000000,6.4703937,152.86092,-58.785103,-75.983284,-59.334148,-80.04213,-22.365303,129.85924
3870000000,8.542388,50.405415,-59.075798,-172.31392,-57.571854,-170.61397,-22.594692,131.00705
3875000000,8.245554,-52.689137,-58.177002,83.289032,-59.923271,76.487381,-22.314386,126.11028
3880000000,10.830577,-135.41649,-59.260715,-26.901888,-58.424015,-24.331509,-22.488628,121.11936
3885000000,6.2324357,128.30385,-60.007412,-132.78537,-61.037594,-129.33621,-23.415201,116.67202
3890000000,10.230483,18.091698,-60.095985,126.32011,-58.593582,117.23297,-22.365559,110.648
3895000000,8.6369247,-67.73365,-59.380703,17.043575,-61.084663,16.597607,-20.749146,112.83987
3900000000,9.4262848,-168.72696,-60.399475,-99.626373,-59.272324,-100.04936,-21.032318,118.26033
3905000000,7.280931,95.905983,-59.634781,157.24875,-59.42234,164.87198,-21.955555,118.6997
3910000000,9.8344479,-20.879244,-58.880672,54.320827,-58.860565,42.860012,-21.949949,112.30432
3915000000,10.36653,-87.797821,-57.451534,-50.086685,-57.396408,-42.406254,-22.388494,108.79385
3920000000,7.9524293,162.55818,-57.751644,-154.60492,-58.756805,-164.86729,-23.132557,108.60516
3925000000,8.3448668,68.636772,-58.351269,103.87434,-56.980225,115.06593,-23.060884,106.5908
3930000000,8.564702,-45.991035,-57.538486,7.2662902,-58.427746,-1.2467366,-23.031199,100.01629
3935000000,11.212547,-123.86157,-58.568569,-100.45267,-57.548023,-101.4091,-23.176439,90.203644
3940000000,6.810812,139.65038,-59.654053,153.21753,-60.17503,155.69545,-22.034737,88.498802
3945000000,9.9326353,32.812065,-59.817314,50.465919,-58.162514,41.87775,-21.205544,91.751419
3950000000,9.3518143,-62.408791,-59.083836,-65.305161,-59.81786,-68.044113,-22.429268,95.631805
3955000000,10.250988,-154.75035,-58.77536,-178.09778,-57.817818,178.3624,-24.010687,94.66227
3960000000,6.2080221,115.59604,-58.828812,75.837387,-59.66206,83.818275,-23.236868,89.34465
3965000000,9.4342775,-9.4230661,-57.553982,-17.887678,-56.446838,-32.575996,-22.687449,86.027161
3970000000,8.8441935,-78.828903,-56.439781,-130.28465,-57.995239,-123.32262,-24.056137,84.706398
3975000000,8.8914213,174.18753,-58.278404,124.95226,-58.347694,118.62081,-24.482183,78.672089
3980000000,7.5948148,84.828812,-58.2313,31.402035,-56.890713,36.457237,-23.688364,75.122101
3985000000,8.2563553,-34.688873,-57.34182,-75.669922,-57.916058,-85.369514,-24.501219,75.963737
3990000000,10.486999,-106.61873,-57.832771,179.04614,-57.555916,-174.82645,-25.232664,75.705978
3995000000,6.8849368,151.50514,-59.709538,76.629845,-59.79327,69.819252,-23.548119,72.362968
4000000000,6.1728325,52.63969,-58.310047,-35.910706,-57.545528,-32.031124,-23.210455,73.605148
END

