!CSV A.01.01
!Keysight Technologies,N5247A,US56070710,A.10.64.09
!Date: Friday, November 18, 2022 21:46:02
!Source: Standard

BEGIN CH1_DATA
Freq(Hz),S33(DB),S33(DEG),S34(DB),S34(DEG),S43(DB),S43(DEG),S44(DB),S44(DEG)
3000000000,-3.3070309,-75.41935,-80.596107,-46.745876,-82.039085,-48.274921,-14.971031,-127.86766
3005000000,-6.1445746,-94.465866,-74.510735,173.3768,-74.961197,171.5594,-17.458033,-144.61876
3010000000,-6.0387244,-67.871407,-78.513641,45.981655,-80.114243,62.033768,-14.901849,-150.90767
3015000000,-3.8549247,-92.5485,-73.58699,-18.104343,-75.640862,-32.708359,-15.418965,-137.43594
3020000000,-7.980185,-71.476799,-78.335625,-172.28578,-76.957573,-173.24536,-17.287344,-154.93251
3025000000,-3.8570695,-83.50267,-79.697136,69.580536,-80.182289,97.541512,-13.49456,-152.31767
3030000000,-6.2523017,-92.552361,-75.106071,-21.163986,-76.621536,-18.076525,-16.489424,-143.37874
3035000000,-5.3220739,-70.710434,-74.101112,-132.71396,-74.727272,-128.88757,-14.432456,-165.78477
3040000000,-4.5800233,-101.15458,-76.280769,107.37138,-76.872444,113.89819,-14.816434,-156.72357
3045000000,-6.9066181,-69.24369,-77.029091,32.817924,-74.852631,42.583084,-16.587563,-162.00647
3050000000,-3.6336892,-86.505928,-77.685478,-80.158585,-74.72419,-87.401222,-14.39139,-178.27361
3055000000,-7.566185,-103.02977,-79.606316,-151.31847,-78.295937,-156.41101,-14.630837,-153.61879
3060000000,-3.9601915,-71.519569,-80.531364,106.91016,-81.686882,108.27917,-15.723854,175.39919
3065000000,-5.5604753,-108.83798,-80.513718,-64.255081,-78.328751,-79.061127,-14.119838,-168.00003
3070000000,-5.8047347,-71.93309,-74.019188,-138.33945,-75.621857,-123.76618,-15.560036,-174.62509
3075000000,-3.984777,-94.726006,-76.400993,121.28282,-75.145943,124.6757,-16.74238,173.65262
3080000000,-9.5996599,-92.372849,-78.621506,42.251591,-79.085045,45.418388,-13.838287,-178.86987
3085000000,-2.6881938,-84.57254,-84.450317,-22.620268,-79.763985,-40.753841,-18.831881,-175.92125
3090000000,-8.4498186,-110.87711,-74.169609,-179.81509,-74.776955,-166.04846,-14.054098,166.42249
3095000000,-4.7126813,-76.895782,-76.096451,92.393272,-75.163994,90.51738,-15.82522,-175.36465
3100000000,-4.8021855,-103.61879,-77.428841,-17.235498,-80.189018,-15.379848,-16.469294,163.74225
3105000000,-8.5415468,-80.131493,-80.284813,-131.79343,-79.339828,-132.22166,-15.171488,168.34776
3110000000,-3.4612873,-96.541939,-78.001076,94.898239,-77.38205,97.682236,-16.532515,175.44983
3115000000,-8.2882986,-98.287865,-77.536583,0.47854012,-76.791481,9.865571,-17.821943,159.03935
3120000000,-5.4967585,-84.598053,-76.934151,-96.864471,-79.184525,-93.071724,-14.668859,167.77637
3125000000,-5.0317369,-109.40303,-74.149963,160.92714,-74.306229,162.25281,-18.167757,170.22675
3130000000,-8.0918999,-73.717758,-75.106895,39.432465,-76.150238,44.106712,-16.007206,153.1981
3135000000,-3.5573351,-105.76688,-79.281448,-59.530884,-78.904579,-64.726463,-15.875876,165.64494
3140000000,-9.6599731,-100.20435,-73.13343,-113.2995,-73.652374,-120.3795,-19.903999,162.2206
3145000000,-4.4465227,-83.878525,-80.51059,67.398911,-82.371048,72.480141,-15.320358,148.31017
3150000000,-6.1892662,-126.20049,-80.423157,-1.4306551,-81.524422,6.2088227,-17.483912,178.70625
3155000000,-6.4715085,-71.57943,-73.420105,-117.87971,-73.280708,-116.44379,-18.055799,146.03665
3160000000,-4.3722019,-114.21885,-75.779327,129.36198,-73.997673,139.80235,-16.153509,154.84004
3165000000,-10.564115,-94.279243,-73.733292,40.647209,-74.21521,33.235485,-18.426399,167.15021
3170000000,-4.0614161,-96.031578,-75.860474,-41.916866,-74.908737,-38.045082,-18.217098,135.59134
3175000000,-9.4627218,-125.4268,-78.985283,-152.45044,-79.190552,-137.96208,-16.171659,163.64238
3180000000,-5.113379,-83.712723,-78.545891,108.59946,-76.929436,101.70922,-19.55596,155.34991
3185000000,-6.8534479,-124.9175,-83.560455,32.25708,-83.683868,20.559696,-17.483141,150.57455
3190000000,-9.031662,-84.534813,-83.665291,-117.45479,-88.852005,-115.89645,-16.19171,161.63774
3195000000,-4.3917861,-108.87086,-80.919167,90.466873,-77.963852,85.120323,-22.925446,155.35684
3200000000,-12.694768,-117.84018,-75.346481,37.921173,-74.006638,31.871716,-15.453438,138.79787
3205000000,-5.5560632,-97.628227,-75.195557,-92.216698,-75.340233,-91.767784,-19.165365,-177.82758
3210000000,-7.9330497,-120.99708,-75.919586,-168.45251,-75.732704,179.6658,-17.996916,127.68556
3215000000,-9.2952957,-88.599876,-80.369286,65.975487,-79.93631,78.477577,-16.556917,159.96288
3220000000,-5.2832704,-119.20466,-81.745201,-37.952282,-82.992218,-56.982075,-18.481733,154.29572
3225000000,-13.572316,-103.74918,-81.681168,-131.94897,-78.11937,-111.28365,-19.043579,137.29121
3230000000,-5.6945591,-100.79539,-83.113548,78.804237,-79.51973,64.300133,-15.252279,156.15408
3235000000,-8.9942961,-140.54602,-91.061768,-46.480751,-88.596008,-29.638489,-24.62229,157.31551
3240000000,-7.7467804,-72.052048,-83.042175,-110.33819,-79.697006,-92.798683,-15.236382,141.23019
3245000000,-4.7518644,-139.70734,-80.220581,117.65706,-77.812752,126.7105,-18.490316,166.89561
3250000000,-14.768582,-66.602837,-81.592796,60.855492,-83.198433,50.518837,-19.208241,140.9574
3255000000,-5.3836365,-111.63598,-76.956146,-23.000732,-79.403877,-18.961874,-15.982201,137.61902
3260000000,-13.326062,-144.8279,-75.538544,-144.74904,-77.246773,-145.12695,-17.677162,165.98871
3265000000,-6.3903694,-89.584724,-84.667145,97.483818,-80.023262,114.00725,-18.343182,123.52343
3270000000,-8.9611206,-158.59615,-80.636108,11.497083,-80.366058,29.390738,-15.542439,156.55447
3275000000,-9.486311,-74.088387,-84.956993,-99.000618,-84.644043,-106.37258,-20.135357,146.27361
3280000000,-6.5499387,-129.5936,-90.933502,158.54582,-119.24897,-134.90854,-16.221777,133.47307
3285000000,-23.210281,-130.49927,-108.04511,-112.59098,-94.15139,162.49245,-16.134001,148.61803
3290000000,-5.9458799,-100.61146,-83.415779,-37.78968,-82.05162,-22.99733,-20.062889,136.73055
3295000000,-12.427453,-164.02364,-81.722595,-153.09673,-78.907494,-129.72174,-15.265267,128.84987
3300000000,-11.456875,-78.936325,-78.493126,152.62131,-79.245171,136.19962,-17.565678,152.93817
3305000000,-7.1090918,-131.17839,-74.441917,56.745476,-74.640869,63.20166,-17.717146,128.47675
3310000000,-35.507809,-48.549271,-78.473152,-69.404022,-81.964142,-56.728302,-15.489496,132.00076
3315000000,-6.8371291,-108.77473,-78.515129,-130.72386,-79.505585,-128.32681,-17.44668,149.63051
3320000000,-16.95985,-172.77698,-80.785034,112.51059,-79.440826,113.7285,-16.597549,105.02285
3325000000,-10.511991,-81.451996,-82.910492,3.3707969,-80.009384,22.064491,-15.385999,144.60689
3330000000,-8.0476141,-151.08961,-82.921997,-57.315258,-82.083412,-53.746227,-18.01079,113.41234
3335000000,-14.274076,-10.130005,-77.414742,149.65994,-77.478439,141.1895,-17.054964,129.42491
3340000000,-6.8914847,-124.39665,-75.84761,30.707434,-76.433853,22.550806,-14.632555,123.45499
3345000000,-23.276554,122.51285,-76.554527,-84.858955,-78.144005,-74.76355,-21.588112,134.49345
3350000000,-9.1083403,-88.457176,-75.52626,-161.84201,-74.03495,-168.87384,-13.376667,108.40247
3355000000,-11.143939,174.42357,-73.389877,88.34996,-73.63459,90.480995,-19.700785,143.52689
3360000000,-10.578086,-52.104652,-71.657455,-7.4727802,-71.915268,-9.983531,-16.353655,100.8531
3365000000,-10.856519,-145.10017,-73.414825,-124.13607,-73.819199,-127.22383,-16.954706,115.38337
3370000000,-22.990808,-17.292513,-71.714256,127.34592,-71.283699,125.07779,-17.038534,121.29943
3375000000,-10.468631,-102.20033,-70.590614,27.40151,-69.587532,18.618925,-17.417419,88.996208
3380000000,-17.077196,141.67377,-72.092186,-90.907913,-72.721985,-86.3386,-14.668288,120.83485
3385000000,-11.106248,-69.552551,-71.787613,165.0787,-70.646973,162.55281,-21.93462,87.046776
3390000000,-14.695439,-145.6844,-73.085304,41.488777,-74.327309,49.634369,-15.464394,98.915947
3395000000,-19.760847,-2.7628996,-73.469467,-49.82402,-73.719109,-39.025925,-18.718798,113.79111
3400000000,-9.9495573,-103.92554,-74.740143,-143.98131,-74.664017,-159.65092,-20.581295,95.223724
3405000000,-18.896696,79.469696,-72.218643,114.39262,-72.964523,107.42574,-15.516713,87.627312
3410000000,-11.295492,-73.629013,-72.923019,2.8134809,-72.195473,6.2043362,-20.127344,122.66693
3415000000,-18.588478,-165.55072,-70.536087,-106.40271,-72.155624,-106.8827,-17.224478,68.304039
3420000000,-11.930799,-15.941792,-70.466339,134.42526,-69.752228,142.27715,-17.878893,105.43513
3425000000,-10.709721,-130.13396,-69.278595,40.338966,-69.69532,41.45488,-21.863512,90.442551
3430000000,-12.275249,21.34613,-69.328308,-62.996258,-69.586357,-60.706032,-18.994038,69.559723
3435000000,-10.34504,-89.470757,-71.27475,-169.15782,-69.772438,-165.74162,-17.01708,110.99512
3440000000,-17.314249,103.68721,-70.775276,81.998505,-70.21917,83.580612,-24.694586,36.048496
3445000000,-7.7755561,-38.377045,-71.969887,-19.611069,-71.642349,-21.359749,-16.275629,84.331314
3450000000,-13.967032,-169.11026,-70.8918,-125.13038,-72.250992,-127.73062,-25.212271,93.636658
3455000000,-10.013634,-10.056799,-70.251984,128.13506,-71.19413,127.77341,-22.434381,66.542595
3460000000,-14.200242,-101.66138,-72.50058,18.616364,-72.80188,23.893379,-18.376951,74.319298
3465000000,-14.762352,36.354988,-69.108902,-80.443985,-69.838173,-77.371597,-23.095179,142.34862
3470000000,-8.6204128,-60.022617,-68.480156,167.22464,-67.935532,167.88986,-18.382765,38.210331
3475000000,-21.486652,114.75362,-69.28315,63.112362,-69.096382,64.87262,-19.275795,123.02611
3480000000,-9.9272251,-28.387163,-68.89753,-29.606474,-68.593452,-30.543722,-24.520641,15.269503
3485000000,-16.004208,-86.200706,-68.553391,-156.43402,-69.511864,-155.72626,-21.679693,76.969269
3490000000,-13.799234,30.722311,-72.585701,99.701752,-71.124817,100.13983,-21.749594,103.03251
3495000000,-8.2730293,-58.645206,-71.819901,-11.436282,-72.182678,-17.434052,-31.567753,-30.52467
3500000000,-23.04962,84.286522,-72.809525,-105.40644,-71.699554,-107.49599,-16.67342,80.212227
3505000000,-8.9660072,-28.522194,-71.446045,129.48041,-71.544739,138.89223,-27.182884,-169.76567
3510000000,-15.858799,-117.03374,-71.203606,36.19846,-71.591362,39.81028,-21.443398,59.028988
3515000000,-7.57023,10.193923,-70.917801,-64.830124,-70.363243,-59.890793,-26.181408,104.32223
3520000000,-8.2062025,-93.44931,-69.356422,-161.44131,-69.869865,-168.0775,-27.09606,138.60548
3525000000,-11.969228,44.349438,-70.169228,88.240562,-69.838852,91.711189,-23.126566,31.859381
3530000000,-6.8643909,-46.545372,-69.733917,-5.2345467,-70.452309,-7.6295052,-18.249208,123.74668
3535000000,-22.967232,-175.01135,-71.184578,-118.25976,-70.663277,-121.5135,-31.963335,-41.735184
3540000000,-6.6576204,-19.375364,-71.588562,135.3432,-71.98893,129.18335,-19.889114,87.946877
3545000000,-15.587812,-106.28616,-72.312675,28.59516,-71.42469,32.583214,-25.430948,148.82028
3550000000,-8.7364025,-1.2357461,-73.148857,-93.454803,-72.986038,-84.508957,-35.467583,91.303703
3555000000,-9.6220093,-65.634125,-72.464432,152.15758,-71.920303,157.38466,-21.636223,89.86834
3560000000,-20.416592,28.783463,-69.976746,70.261276,-70.415367,69.633743,-22.93321,161.49901
3565000000,-7.3466172,-34.753098,-70.483559,-40.8825,-69.795532,-39.234642,-24.33358,45.457817
3570000000,-18.499847,-68.073906,-70.315659,-147.27217,-70.653816,-147.87155,-21.359894,116.96885
3575000000,-9.5872173,-12.080395,-68.602737,125.91559,-68.933632,123.4901,-27.248547,127.7933
3580000000,-9.4540462,-67.392654,-69.065315,17.672209,-69.763512,10.764624,-28.549194,58.805553
3585000000,-13.7819,21.586163,-73.635086,-83.422623,-72.487701,-84.579964,-17.661581,117.15956
3590000000,-7.2470579,-49.310257,-72.976868,157.61615,-72.146309,158.04367,-27.757696,-104.04848
3595000000,-23.296844,-36.560833,-76.293549,58.360191,-75.599304,65.85881,-17.362309,82.847488
3600000000,-7.4986567,-13.468086,-73.814651,-70.877716,-73.506042,-63.415398,-25.027254,156.90271
3605000000,-8.9016523,-84.760841,-71.964066,172.09033,-73.237907,172.28381,-28.102987,84.112991
3610000000,-9.6197491,21.914284,-73.901604,95.749924,-72.031273,94.415764,-21.481655,71.174515
3615000000,-6.9275751,-63.605114,-70.390602,-7.5974288,-71.841942,-4.6398859,-19.864904,147.61368
3620000000,-18.61405,39.3657,-72.675018,-119.38506,-71.414574,-116.00297,-22.20812,21.660717
3625000000,-4.7729025,-31.462942,-71.426094,162.73529,-71.409576,153.08948,-16.988684,116.93007
3630000000,-15.092361,-122.53761,-72.169365,43.330257,-71.045219,43.363609,-43.931442,-100.34525
3635000000,-6.4873257,-8.6321917,-76.485023,-34.46788,-75.431007,-35.554104,-21.552032,69.864983
3640000000,-10.594292,-74.544914,-75.952736,-125.872,-74.836998,-126.82452,-20.732483,117.35318
3645000000,-11.501856,7.817656,-76.160332,95.425232,-74.206879,75.350555,-33.680939,-110.15923
3650000000,-6.2946877,-46.365891,-78.593979,-27.061829,-76.692497,-2.5021784,-18.11664,69.999359
3655000000,-24.801249,-53.156937,-73.265144,-125.47093,-72.679176,-128.61266,-24.501825,157.5843
3660000000,-6.8238449,-24.610491,-72.997017,121.39568,-74.686722,118.64484,-24.410278,45.576641
3665000000,-12.494339,-58.13892,-73.921104,13.79232,-72.641853,17.138083,-23.288897,79.559021
3670000000,-11.173675,-2.0321305,-72.57547,-72.697525,-72.353935,-75.593399,-22.713661,138.00554
3675000000,-6.4982495,-50.645287,-73.17807,-173.34802,-74.110611,172.0256,-23.523783,-5.2815943
3680000000,-21.303221,17.272633,-76.236084,102.12075,-75.790421,86.069687,-17.619171,113.46359
3685000000,-5.681818,-28.942793,-75.088669,-7.373086,-75.048424,-14.328218,-26.096426,-83.464127
3690000000,-13.723257,-78.930946,-76.263718,-115.83782,-75.364655,-134.53529,-20.706142,59.276585
3695000000,-7.4518147,5.6257815,-80.346527,117.21991,-80.578926,143.53647,-26.219296,118.17837
3700000000,-6.808248,-72.512779,-76.53685,28.887264,-76.666176,36.053932,-34.905773,-102.1006
3705000000,-10.841875,27.079823,-75.276726,-79.397629,-74.280769,-70.672691,-20.390608,52.46077
3710000000,-5.3503265,-47.085842,-76.363167,166.50412,-75.418388,159.757,-21.429731,163.47169
3715000000,-21.972967,-49.422951,-76.628967,63.316631,-76.637352,59.469234,-23.800364,0.57830191
3720000000,-5.2485695,-14.787769,-73.092255,-19.866226,-73.744354,-8.8027687,-21.339607,113.82121
3725000000,-12.144886,-88.940895,-73.57476,-131.49924,-74.801476,-135.31012,-31.855583,-136.38281
3730000000,-5.7126951,0.32844031,-77.668114,142.19533,-76.139969,149.13286,-28.4266,6.1203804
3735000000,-7.3159919,-66.800827,-77.560036,35.315388,-73.655579,44.150539,-20.224159,113.04453
3740000000,-14.391272,18.806391,-78.683716,-65.027534,-77.648369,-88.130783,-23.239878,-122.65251
3745000000,-4.7000818,-29.276955,-75.970634,-174.44505,-76.953003,-173.44762,-22.154886,59.511276
3750000000,-14.936078,-62.066666,-73.778198,93.388046,-73.651085,86.332367,-23.441488,162.04242
3755000000,-7.4178748,-11.814938,-74.063225,-26.075096,-72.866875,-22.301332,-34.97541,-129.11888
3760000000,-7.4565945,-50.256866,-73.511536,-132.69962,-73.84951,-131.04698,-25.232487,66.984184
3765000000,-13.001657,0.098759204,-73.594185,140.77557,-75.123497,129.54616,-19.583216,178.72765
3770000000,-5.1198926,-34.571575,-75.741913,20.806175,-75.002144,29.675482,-26.091999,-16.168646
3775000000,-14.917022,-35.021488,-74.574677,-79.302406,-74.528305,-95.871483,-19.789436,122.25732
3780000000,-5.8649607,-16.034231,-74.350304,161.73396,-74.355133,159.54341,-24.65197,-163.68976
3785000000,-8.1811552,-67.009651,-72.985184,69.917068,-73.802574,61.578999,-30.245573,23.042103
3790000000,-7.2399855,14.954382,-74.795074,-33.170238,-73.886169,-46.445724,-18.03109,127.60793
3795000000,-4.3830857,-55.868877,-76.473511,-131.1217,-75.160042,-153.83308,-21.937017,-128.68495
3800000000,-13.489153,12.152281,-74.273827,125.27495,-74.074272,123.19611,-21.901136,85.442574
3805000000,-4.1060581,-30.236448,-73.645256,13.36297,-73.194794,-4.8442001,-20.159168,161.955
3810000000,-14.180976,-68.094673,-73.68689,-97.077438,-73.858864,-94.771683,-33.961475,151.42755
3815000000,-3.4026206,-9.7231779,-73.14225,162.70665,-72.329811,158.53571,-23.36068,100.06714
3820000000,-7.7033067,-73.324509,-73.566833,55.197453,-74.553558,54.043243,-18.659607,157.60088
3825000000,-7.5217576,4.4263883,-73.175682,-59.421303,-74.397087,-54.959618,-33.142426,-15.211817
3830000000,-4.536026,-40.081879,-74.043007,-157.84865,-76.261795,-147.62006,-15.524085,120.0575
3835000000,-13.45417,-30.31811,-74.565331,98.392868,-73.270752,88.694344,-20.177826,-156.00053
3840000000,-3.6186221,-26.100483,-77.31176,-3.3857236,-75.853409,-14.776308,-23.126984,84.793159
3845000000,-10.314888,-59.411991,-73.442284,-104.62206,-73.082512,-99.557945,-19.62005,123.80781
3850000000,-5.7783108,-7.9645128,-74.444344,152.33214,-72.943886,147.82138,-22.37068,-175.47234
3855000000,-4.4021316,-50.212933,-75.137619,46.660236,-73.895531,44.840584,-19.939882,63.019779
3860000000,-11.565343,-1.4521517,-73.385651,-54.026131,-73.038811,-53.996078,-16.236549,148.66794
3865000000,-2.8703928,-34.768826,-74.63372,-171.68675,-71.90564,-167.67084,-31.441753,47.793995
3870000000,-10.47967,-57.837898,-73.011826,76.589279,-71.534714,82.33744,-17.983595,110.34332
3875000000,-4.7283778,-9.247859,-73.406113,-21.351723,-73.227463,-20.376591,-19.487585,138.67892
3880000000,-4.4785118,-60.348068,-73.217239,-126.21038,-74.403786,-120.04906,-35.178677,55.628769
3885000000,-7.5919757,8.4094696,-74.882706,138.05141,-75.405403,121.12437,-15.891669,101.99571
3890000000,-2.0070765,-51.45108,-75.020149,34.207134,-75.692253,15.887266,-20.850719,-175.59596
3895000000,-16.686916,-31.476606,-74.465546,-71.341469,-75.194336,-70.061142,-19.045321,56.381428
3900000000,-1.5220797,-21.692062,-78.289246,-172.95026,-76.880554,-177.92128,-16.436012,120.01543
3905000000,-6.7277589,-78.1185,-78.857544,66.300201,-76.661751,67.968521,-29.204062,169.26692
3910000000,-3.8163884,-1.3577514,-76.736153,-29.681049,-77.380157,-35.820408,-16.741623,65.888557
3915000000,-3.0903986,-63.081142,-75.137695,-142.47073,-76.392067,-132.33881,-16.992586,141.09016
3920000000,-9.8475266,-5.8424587,-76.161346,106.33414,-75.295792,104.87748,-25.493326,22.972513
3925000000,-1.692989,-35.608868,-75.33252,13.272438,-76.631454,12.61764,-16.817829,98.053802
3930000000,-9.6399088,-66.534607,-76.204155,-112.01916,-76.212692,-104.41562,-21.921154,128.51575
3935000000,-3.3875372,-22.572247,-77.600868,162.70113,-76.931511,155.47867,-24.994482,24.533285
3940000000,-4.6314073,-51.771633,-77.435097,58.595798,-76.373192,62.601723,-14.757957,88.683235
3945000000,-8.5405645,-25.443172,-76.588257,-54.730896,-76.566879,-36.581947,-25.6136,-163.24899
3950000000,-1.2571988,-40.977501,-81.397942,-131.07576,-82.125481,-146.65198,-15.880989,53.505131
3955000000,-11.949236,-74.070618,-80.971436,136.8177,-79.243065,118.66883,-18.766741,133.34953
3960000000,-2.1945686,-20.416069,-83.683868,-13.234968,-78.501503,-33.147968,-26.569502,46.563488
3965000000,-3.5770855,-66.56385,-78.036728,-104.16912,-81.41835,-94.904793,-18.600121,68.667374
3970000000,-6.9840465,-11.91377,-77.608681,166.6488,-76.864426,145.39444,-20.843138,124.56821
3975000000,-1.3321108,-57.157772,-79.575989,84.294296,-80.233536,86.343384,-23.295698,-2.6396461
3980000000,-13.30805,-24.6208,-80.093719,-28.987022,-79.390839,-31.557281,-16.405815,80.412094
3985000000,-0.81253403,-33.675961,-78.267738,-138.49495,-80.053635,-147.61392,-28.881184,150.97346
3990000000,-5.566741,-80.514023,-81.013458,104.67757,-80.089203,139.552,-21.960953,33.842903
3995000000,-3.7154992,-16.52771,-79.245224,21.632912,-78.408501,29.120111,-17.994001,83.432587
4000000000,-3.1914198,-69.719917,-85.404137,-115.99599,-84.799652,-71.867188,-31.143364,-161.18004
END

