!CSV A.01.01
!Keysight Technologies,N5247A,US56070710,A.10.64.09
!Date: Thursday, November 10, 2022 01:01:49
!Source: Standard

BEGIN CH1_DATA
Freq(Hz),S33(DB),S33(DEG),S34(DB),S34(DEG),S43(DB),S43(DEG),S44(DB),S44(DEG)
3000000000,5.7261934,20.690443,-70.721382,-53.353024,-69.900528,-57.740086,-16.060808,-136.64305
3005000000,5.5839524,-77.650894,-75.356606,141.05663,-74.632713,130.01892,-15.650307,-136.36572
3010000000,6.9116383,177.73331,-70.531517,106.37373,-70.186234,103.32356,-15.774324,-139.02765
3015000000,7.3203387,103.14495,-98.177025,9.1567307,-85.205055,-17.181833,-15.898829,-143.26135
3020000000,5.4546051,-10.025154,-71.78775,-147.9269,-72.122627,-154.38753,-15.588365,-143.70375
3025000000,6.1188898,-106.78422,-67.444466,68.262779,-67.303116,70.330124,-15.341623,-144.81451
3030000000,6.3451486,157.5717,-76.32399,-6.8978019,-77.166656,-5.5415702,-15.308295,-149.50787
3035000000,7.9461493,66.359726,-69.97567,-43.480442,-67.130867,-45.484215,-15.406386,-153.91162
3040000000,3.4834368,-35.390182,-66.735168,126.88291,-68.335175,123.73735,-15.422627,-158.27617
3045000000,6.8552394,-140.30522,-75.853043,-161.75204,-74.41787,-172.18214,-15.116678,-162.18106
3050000000,7.3077765,134.42123,-66.10157,-68.57132,-65.792145,-58.76516,-15.074314,-161.4686
3055000000,6.3127589,39.956951,-78.037155,68.88385,-74.942093,71.13945,-15.47098,-161.50854
3060000000,4.7492504,-62.729416,-70.131294,65.961914,-69.687263,64.39669,-15.346922,-167.25711
3065000000,6.7961006,-170.86079,-74.304901,178.89177,-74.25914,178.18076,-14.865005,-170.96657
3070000000,7.2738414,113.99638,-78.11747,-169.72,-77.8526,171.05547,-15.241019,-169.9296
3075000000,5.8795094,6.1446204,-71.119293,171.06847,-70.632286,176.89148,-15.93143,-172.63408
3080000000,4.9312706,-93.401047,-66.267578,105.37278,-66.318298,108.75718,-15.96604,-176.47293
3085000000,6.1800256,166.01984,-71.771515,-1.2876173,-73.545586,2.997231,-15.763662,-176.2695
3090000000,8.3636265,85.743378,-65.873268,17.713509,-63.855194,24.521713,-15.99504,-176.4077
3095000000,4.2628427,-18.67923,-64.127029,154.26547,-64.292007,150.46382,-15.992602,178.6339
3100000000,6.1511097,-125.86372,-65.798523,-135.45412,-66.042,-132.7912,-15.969676,174.93398
3105000000,7.2473464,142.38092,-72.636475,16.226353,-70.654663,24.261608,-16.187418,174.11978
3110000000,7.5472779,55.432514,-65.765099,162.91595,-63.767384,161.91826,-16.491543,173.04819
3115000000,4.6221952,-44.025352,-72.554924,92.093674,-74.071548,95.316612,-16.500715,172.82159
3120000000,6.9185362,-157.75186,-65.850899,56.957432,-65.450531,54.873402,-16.524137,173.53328
3125000000,7.1089067,124.57501,-69.857796,-19.925217,-71.709892,-5.194685,-16.550154,172.185
3130000000,7.4302216,22.595123,-75.377975,80.564598,-76.954811,102.58322,-16.895237,168.50912
3135000000,4.5921693,-76.738174,-74.717278,-132.56802,-74.332657,-133.6573,-17.410946,164.98705
3140000000,6.3134456,174.32043,-63.071198,-50.902275,-63.674896,-52.299603,-17.677258,163.31511
3145000000,8.8948021,97.333168,-71.438324,166.96355,-68.973297,-173.64987,-17.565908,163.73094
3150000000,5.7538018,-2.8758945,-66.758087,130.23799,-65.915741,124.33282,-17.43009,164.51218
3155000000,6.0916452,-107.78245,-65.776009,36.38942,-65.68531,32.25964,-17.251757,164.09093
3160000000,7.0968714,150.8174,-76.230438,86.489235,-75.966866,93.670349,-17.188234,161.75061
3165000000,8.7758455,70.123108,-76.237885,174.48453,-72.964729,-162.78079,-17.619593,160.1971
3170000000,4.8467875,-28.824696,-66.382416,9.2863083,-66.607346,-2.443511,-18.037207,160.54109
3175000000,6.1915889,-142.08224,-64.308517,-105.17475,-64.255157,-110.37411,-18.02899,162.58583
3180000000,7.2992001,132.87424,-68.348793,-139.48326,-69.924187,-132.10287,-18.039553,163.85431
3185000000,9.0781202,34.451595,-66.155304,90.264992,-64.224937,88.250313,-18.194563,165.01257
3190000000,4.4563708,-57.388672,-70.993629,-87.346268,-71.744736,-87.871529,-18.310436,161.75783
3195000000,6.2466631,-175.8521,-62.989403,-35.624146,-63.321156,-39.492748,-18.53557,156.25729
3200000000,8.6727228,105.85635,-65.499588,76.764328,-63.761383,95.012329,-18.444773,153.96892
3205000000,6.5595474,6.3267422,-74.113472,133.45602,-73.179253,115.91021,-18.659487,159.5287
3210000000,6.9857316,-85.160065,-66.387024,-69.04039,-66.876808,-60.923199,-18.816788,159.66066
3215000000,8.0434046,158.55898,-73.562332,172.16438,-74.189194,171.69208,-18.453533,155.07945
3220000000,11.107972,81.785011,-70.406441,162.38647,-68.470291,158.58107,-17.495907,155.77898
3225000000,7.0366259,-20.645369,-78.67627,150.56325,-76.579544,150.21904,-17.665054,159.1236
3230000000,7.7970333,-126.09812,-71.087013,-42.9375,-71.522942,-34.151211,-18.567413,156.06996
3235000000,7.5013313,137.53185,-67.765472,74.662224,-70.96241,82.676125,-18.568167,153.76353
3240000000,11.225547,41.518024,-76.346519,22.681673,-76.721878,14.668017,-17.900698,157.97565
3245000000,6.4712601,-43.479916,-65.732048,-79.902245,-67.100616,-80.754196,-17.993952,159.65927
3250000000,7.7260141,-165.09561,-65.844612,-80.718597,-66.495407,-85.957932,-18.210773,155.98949
3255000000,9.4080105,120.51282,-67.524101,139.85966,-66.716476,158.93361,-17.970552,153.07764
3260000000,9.6008043,11.686815,-74.508621,135.83923,-73.630432,110.72651,-17.87904,150.59065
3265000000,7.4917769,-71.070549,-82.083015,-153.67662,-85.34655,-131.01738,-17.835833,148.99059
3270000000,7.7405105,166.5788,-84.418083,135.9882,-85.759979,99.628578,-17.650999,152.32733
3275000000,11.303213,91.04364,-68.388885,86.862366,-65.399963,105.7323,-17.652683,153.56133
3280000000,8.052043,-13.335504,-84.605011,-8.9408388,-82.467552,-19.277815,-17.593826,149.02464
3285000000,7.5414319,-101.20538,-64.615845,-113.24049,-64.910286,-111.35422,-17.117216,146.26448
3290000000,7.2707605,146.9384,-75.064667,148.44391,-77.851006,163.99934,-17.118513,147.12875
3295000000,12.564032,46.730701,-71.826241,83.237732,-67.881737,69.368851,-17.55653,144.41425
3300000000,7.1649966,-33.424004,-72.36541,-62.488499,-72.912842,-80.478439,-17.574663,143.09146
3305000000,8.4157524,-147.45694,-74.276527,78.320923,-72.571587,71.038002,-17.387722,144.81296
3310000000,9.2189398,125.33977,-65.004318,60.398907,-64.52729,77.54335,-17.453854,141.20651
3315000000,10.532612,19.270267,-68.84684,-14.479261,-67.459831,-34.74091,-16.935215,136.01819
3320000000,7.54668,-53.395969,-66.417252,-89.824135,-67.007156,-85.06456,-16.867329,137.29266
3325000000,7.5120478,176.16319,-72.77729,118.81192,-72.573608,116.62033,-17.578268,135.52641
3330000000,10.613241,99.696762,-70.723289,61.657852,-69.204018,69.074226,-17.446865,128.77925
3335000000,9.1024513,-6.0124173,-67.654335,-84.153145,-67.987671,-98.732559,-16.630142,130.86641
3340000000,8.8960981,-88.953239,-65.050377,147.02097,-64.492561,157.91864,-16.879002,134.63533
3345000000,6.9546623,155.23569,-68.759125,54.576733,-70.368408,60.08564,-17.398386,128.93898
3350000000,13.341365,58.258953,-67.492493,-35.584641,-62.576843,-36.02301,-16.936972,122.16819
3355000000,7.8112741,-25.461727,-63.488922,-87.353188,-64.893944,-92.951759,-16.856314,123.5947
3360000000,8.912631,-129.9207,-63.949051,126.71562,-63.665176,117.37372,-17.58053,123.57495
3365000000,8.7993574,133.04414,-69.584251,-0.44281268,-69.495995,20.022945,-17.762083,119.26395
3370000000,11.428401,24.616663,-64.68766,-157.08646,-62.65921,-176.71286,-17.614447,116.95061
3375000000,8.7765293,-46.880165,-66.680763,111.0762,-68.271667,110.53299,-17.525602,115.54548
3380000000,7.8032684,-166.82004,-64.454124,64.992119,-64.444283,66.657898,-17.352669,111.97124
3385000000,9.8048038,110.24627,-69.951508,-82.285294,-68.752022,-71.278183,-17.652086,109.8795
3390000000,9.7143192,-1.1739076,-69.503105,-130.24406,-69.011703,-143.53099,-18.223261,107.68856
3395000000,8.6431274,-73.043335,-70.079376,53.044636,-69.714722,57.180046,-18.208488,107.16007
3400000000,6.9476032,164.55525,-90.421532,-18.453495,-87.684097,-70.595131,-18.193598,107.75733
3405000000,12.779998,74.127449,-76.539413,-69.802284,-73.132042,-73.909081,-18.913706,107.14781
3410000000,8.8952894,-19.590464,-81.444382,-48.289452,-84.934586,-69.966194,-19.102007,101.70111
3415000000,10.434585,-114.9798,-64.924431,36.545059,-63.390133,31.728294,-19.017889,98.087006
3420000000,7.7080994,137.85078,-72.119568,-8.7618361,-73.923721,3.3990865,-19.797768,97.110252
3425000000,11.685449,36.73354,-67.60817,-82.941841,-65.559273,-84.263222,-20.760624,94.165985
3430000000,8.60079,-41.585213,-70.200096,123.60561,-70.484505,121.0684,-20.17178,90.678673
3435000000,8.7247868,-154.52985,-69.724609,95.020416,-69.423836,77.659904,-19.91534,91.25119
3440000000,8.8546057,118.38495,-70.012665,-95.78878,-70.413414,-77.933937,-20.623314,91.531532
3445000000,10.779965,3.8148661,-72.171318,-117.52648,-72.797249,-143.74806,-20.960125,87.20118
3450000000,9.0977821,-65.360031,-69.29895,51.454929,-69.830482,48.985882,-20.685015,84.466866
3455000000,7.1225166,171.43661,-70.796814,-56.171478,-70.591835,-63.512463,-21.566235,88.917381
3460000000,11.015405,81.706001,-63.029602,-139.96581,-60.065601,-135.0533,-22.882496,94.772049
3465000000,9.0774422,-16.422146,-73.541901,105.88643,-73.013435,96.366829,-23.44224,89.812675
3470000000,9.9967747,-101.3471,-67.124466,65.761955,-66.945229,66.489029,-23.370644,84.567993
3475000000,7.2957635,146.40207,-68.644562,-116.74829,-69.156036,-104.99427,-24.095547,86.989761
3480000000,11.983747,46.635021,-69.033821,160.46677,-66.557014,147.23889,-24.950178,82.778351
3485000000,9.5155878,-38.143108,-65.122612,55.36726,-66.450378,43.207745,-24.617838,75.836891
3490000000,9.157711,-137.97792,-66.476173,-45.506451,-65.892075,-43.384274,-24.667995,87.604195
3495000000,7.5673542,127.2249,-67.379852,-147.47815,-67.474899,-137.32962,-25.320789,100.72944
3500000000,11.212342,12.396078,-71.854698,179.98549,-70.600967,159.02307,-26.146244,94.212723
3505000000,8.5956202,-55.722523,-66.158852,53.749084,-67.21933,54.534756,-25.984697,87.325264
3510000000,7.9503269,-171.96698,-68.871109,-173.65521,-70.003723,-179.08989,-26.118412,97.690994
3515000000,9.3942604,96.904984,-69.444931,167.5311,-69.20285,179.79591,-26.494556,103.06541
3520000000,9.0517797,-6.5412459,-63.242081,29.62112,-63.744881,18.679558,-27.377512,108.06941
3525000000,9.6213779,-82.797882,-67.378113,-11.366533,-66.721497,-14.360852,-28.125191,119.93403
3530000000,6.5811577,160.70972,-68.288902,-122.15333,-68.985062,-117.03362,-28.95142,115.15288
3535000000,11.10517,64.216446,-82.821098,36.255394,-81.638794,51.466713,-27.547119,96.651054
3540000000,8.6050386,-29.688623,-71.731216,13.853093,-74.534149,-1.8708384,-26.94376,104.67978
3545000000,9.4171629,-117.61147,-71.304504,179.23375,-70.35218,171.97327,-27.745529,115.92891
3550000000,6.4695697,136.88185,-63.85743,153.38162,-64.418968,154.61444,-28.042149,107.41842
3555000000,10.780685,26.914236,-67.483879,36.455975,-66.206978,22.036247,-26.400421,109.95055
3560000000,8.0497599,-48.282562,-65.74868,3.0267498,-68.415482,3.2784214,-25.785362,119.85487
3565000000,8.3948193,-159.4362,-65.251793,-121.94075,-64.886238,-127.86583,-25.911404,111.72742
3570000000,8.3055534,108.82898,-78.153625,179.7677,-80.493866,177.16559,-24.631975,104.80163
3575000000,9.4014301,-2.3521554,-69.653946,-22.252188,-71.578079,-42.454933,-24.119967,121.28014
3580000000,8.8631163,-71.144913,-70.655548,-136.77208,-70.210487,-134.55353,-25.504108,134.75108
3585000000,7.0088186,173.7141,-68.479683,170.22038,-69.090073,171.5704,-27.091547,121.5163
3590000000,9.3230829,83.154633,-65.763687,82.238289,-63.994808,91.787361,-25.669807,113.8373
3595000000,8.7961063,-21.515337,-66.195152,-11.197207,-67.178238,-22.323099,-25.475435,120.4898
3600000000,9.4656467,-100.21574,-78.800941,40.621059,-74.785667,62.764076,-26.801022,106.625
3605000000,6.211988,147.72067,-74.914024,-144.89043,-76.31842,-132.78046,-25.424353,96.320473
3610000000,10.540177,46.196529,-66.804306,-10.847901,-65.408134,-17.766085,-24.556053,106.34353
3615000000,8.1362925,-42.005646,-84.064568,-21.644339,-81.8564,-49.662609,-24.855398,113.9856
3620000000,9.288578,-141.18791,-62.27113,156.44679,-61.734203,151.52397,-24.636856,106.91132
3625000000,7.1546226,122.16972,-70.365662,25.078829,-70.006599,38.242531,-24.347843,108.89543
3630000000,10.249336,14.338739,-68.005966,-1.7221777,-67.289688,-10.073772,-25.300564,110.26598
3635000000,8.6003523,-58.76371,-67.11496,-99.875023,-67.332436,-106.84397,-26.200132,101.05724
3640000000,7.7821975,-173.15829,-69.353012,148.95792,-69.86998,143.62941,-25.901527,98.522675
3645000000,8.5299931,100.37353,-70.119209,19.146904,-68.696495,26.75289,-26.036106,107.94122
3650000000,9.5578032,-12.884717,-65.042961,-85.173439,-65.679543,-100.15762,-26.316294,107.35958
3655000000,9.2671623,-83.020477,-63.625694,152.94656,-63.640083,157.53465,-26.66399,99.319092
3660000000,6.6497974,160.373,-65.924149,145.32149,-67.101692,142.16179,-27.216166,94.159378
3665000000,9.7536325,59.980148,-66.427528,-24.395266,-63.913406,-21.861519,-27.09133,88.724037
3670000000,7.9325156,-34.091763,-79.418831,29.984554,-81.201591,16.44492,-26.775463,88.732132
3675000000,9.819006,-121.01775,-65.732994,134.94713,-65.301949,140.18912,-27.547821,99.692886
3680000000,6.5992789,135.05324,-66.990074,-43.406631,-66.611855,-36.665001,-28.349463,106.84728
3685000000,10.652835,29.765152,-68.208305,-90.729729,-66.940056,-93.944153,-28.527864,98.676537
3690000000,8.8342915,-55.558849,-68.805824,146.28343,-69.512436,151.01845,-28.559,96.782013
3695000000,8.096096,-156.7841,-65.151352,54.080059,-65.127991,54.236492,-30.500141,102.76015
3700000000,7.0911269,110.85959,-69.118034,-31.895624,-69.100723,-19.938444,-33.571602,96.885796
3705000000,10.201843,-5.0545974,-74.884811,-71.311913,-72.466362,-98.893036,-33.798382,82.333992
3710000000,8.3691502,-72.76268,-63.019005,111.78137,-64.011703,112.17653,-32.111752,97.707863
3715000000,7.2542868,172.34662,-79.208199,-158.27374,-82.00312,-131.97635,-31.732153,107.68298
3720000000,8.7868299,77.042931,-66.782463,-95.37307,-64.86853,-92.365181,-32.88269,106.8111
3725000000,8.4288521,-24.725758,-72.669388,141.81425,-74.416664,126.45457,-33.231895,102.008
3730000000,9.7633505,-103.20176,-72.661957,57.674965,-71.639267,46.361446,-33.194218,114.2123
3735000000,6.1211276,146.92328,-66.655006,-35.59977,-67.335701,-38.923603,-34.129452,125.89104
3740000000,9.8750935,48.430965,-69.452919,-134.64153,-68.816841,-137.84166,-32.299679,133.46205
3745000000,8.9744444,-45.187111,-79.442978,33.815575,-79.065834,30.91416,-29.575489,139.56274
3750000000,9.3283672,-136.69574,-71.67086,-0.5383091,-71.291718,7.4380565,-29.810892,154.45964
3755000000,6.0441918,125.61271,-68.840591,-96.790863,-70.142868,-86.258072,-32.700302,160.0201
3760000000,10.49067,10.348676,-64.512238,114.36187,-63.095131,106.85691,-32.938148,147.80708
3765000000,8.2814856,-62.251534,-63.024754,112.52771,-64.516312,116.24668,-30.967052,151.49165
3770000000,8.4768572,-170.47191,-74.748749,-33.629257,-79.278732,-43.355366,-30.416563,160.74873
3775000000,8.0397682,94.964798,-70.789436,-80.621368,-69.26252,-64.655342,-29.486868,150.10962
3780000000,9.7043219,-18.877661,-74.69651,113.73896,-75.521973,122.49123,-27.356474,145.4321
3785000000,9.9117575,-83.821465,-76.558319,-4.4171352,-75.021332,2.3303571,-26.722023,151.99414
3790000000,7.3002915,162.53725,-76.449295,-88.657211,-77.39698,-84.020027,-26.801558,155.54114
3795000000,8.9112587,71.684021,-70.346573,168.55022,-68.245529,167.25053,-26.205931,155.41309
3800000000,9.1019249,-39.081161,-68.666542,89.834015,-69.873375,76.313255,-25.908806,160.45039
3805000000,9.5071907,-116.85123,-66.208702,-33.989674,-66.419952,-19.428335,-25.554699,158.10046
3810000000,6.0101824,136.06058,-70.801544,-80.008446,-70.694122,-72.550957,-24.505692,152.48015
3815000000,10.668981,27.260366,-78.806679,155.16505,-75.900604,124.5457,-24.836655,155.80417
3820000000,8.3607969,-55.942272,-65.375954,26.017839,-67.038689,28.279285,-26.935352,153.52765
3825000000,9.5298443,-154.86026,-69.386169,-70.414474,-68.203888,-80.692833,-25.557961,136.98146
3830000000,6.1026154,107.78555,-68.317001,-153.13342,-69.918053,-143.90919,-23.387859,139.71246
3835000000,10.054281,-6.7621012,-69.598358,113.56172,-69.375122,104.58086,-23.554966,149.40948
3840000000,9.1676283,-76.770752,-66.875488,1.9250779,-68.647163,3.9419899,-24.279516,141.60599
3845000000,8.0042105,175.52605,-71.66301,-112.69583,-73.281265,-122.77415,-23.046272,132.36974
3850000000,8.12638,84.316734,-67.020508,140.92633,-67.876373,148.92345,-22.85779,135.56944
3855000000,9.3990707,-31.820602,-80.67244,71.972672,-84.628181,19.78636,-23.566856,137.27663
3860000000,10.100761,-100.8628,-66.801079,-75.791809,-66.790909,-64.017746,-23.018127,130.25409
3865000000,6.3009567,147.59734,-69.115738,-161.30229,-68.975342,-158.86786,-22.332113,130.93361
3870000000,9.3990669,48.330154,-66.793861,99.631592,-64.777008,107.62357,-22.527723,133.21616
3875000000,8.5861025,-51.527035,-67.715569,-13.354013,-70.763161,-9.5517616,-22.447628,128.09097
3880000000,10.554585,-134.28725,-71.346649,152.66319,-69.705246,157.63383,-22.516344,121.96221
3885000000,5.9849024,125.55618,-65.737495,153.75119,-66.534958,162.26199,-23.14633,119.06097
3890000000,10.448565,13.582259,-67.153786,38.872856,-64.508278,30.987158,-22.371271,115.0845
3895000000,8.7370558,-67.958664,-67.757492,-72.342476,-70.357048,-74.579018,-21.101145,116.06012
3900000000,9.5410585,-167.496,-67.151932,-164.90991,-66.779289,-166.49409,-21.385382,119.66203
3905000000,7.3517475,96.580315,-68.407234,82.914017,-68.186935,86.346748,-22.095236,119.23186
3910000000,9.8648958,-20.268175,-71.745941,-52.528492,-72.487244,-62.250412,-21.991497,113.24187
3915000000,10.215543,-88.153198,-63.188686,-108.63206,-62.904793,-99.615875,-22.441181,110.16471
3920000000,7.7433653,161.01392,-67.220024,101.74763,-68.657166,91.804382,-23.139042,109.99451
3925000000,8.845583,68.350929,-69.667091,18.459944,-68.015488,41.675728,-23.016592,107.78808
3930000000,8.611167,-44.368507,-63.034096,-55.705818,-64.882919,-66.177063,-22.946884,101.6375
3935000000,10.673796,-121.55636,-70.269966,159.23045,-68.059547,164.54591,-23.096565,93.093651
3940000000,6.3026595,137.27588,-69.8517,73.302727,-71.891495,72.332253,-22.07085,91.771492
3945000000,9.9610853,27.905725,-66.270248,-35.932201,-64.978348,-43.284801,-21.430698,94.439705
3950000000,9.4945469,-62.814217,-65.483711,-128.36377,-66.636986,-132.72473,-22.790653,97.42366
3955000000,10.112153,-154.7597,-66.368416,146.61972,-65.382698,138.99362,-24.203217,94.816704
3960000000,5.9307098,113.71061,-65.159073,57.590134,-66.019005,67.910812,-23.137365,89.666153
3965000000,9.3827562,-10.864012,-71.011971,-92.128143,-70.081497,-103.73648,-22.624699,87.965485
3970000000,8.7725248,-79.902786,-71.777031,-147.15022,-71.72216,-138.95474,-24.126329,87.367088
3975000000,8.6838236,172.87616,-73.009789,57.467506,-72.389778,37.422924,-24.60273,80.198799
3980000000,7.9569602,82.642548,-66.956802,-52.960045,-66.00489,-42.89946,-23.754942,75.967438
3985000000,8.4719286,-35.184437,-68.456978,-117.77982,-69.483856,-122.87772,-24.457054,77.425362
3990000000,10.296829,-106.48676,-64.440742,104.04189,-63.858795,108.11248,-25.079683,78.467323
3995000000,6.6662769,149.19856,-66.258301,32.276497,-66.145081,30.29236,-23.652409,75.162491
4000000000,6.6360545,50.146885,-71.664276,-7.0224071,-70.052208,-9.5640774,-23.523331,75.379738
END

