!CSV A.01.01
!Keysight Technologies,N5247A,US56070710,A.10.64.09
!Date: Thursday, November 10, 2022 01:02:12
!Source: Standard

BEGIN CH1_DATA
Freq(Hz),S33(DB),S33(DEG),S34(DB),S34(DEG),S43(DB),S43(DEG),S44(DB),S44(DEG)
3000000000,5.7397809,20.622089,-72.042618,-38.917141,-70.686623,-54.131626,-16.059423,-136.71593
3005000000,5.5936379,-77.670235,-78.075874,128.76537,-74.450203,139.57176,-15.649734,-136.42708
3010000000,6.9179153,177.68214,-71.294846,96.256767,-71.395081,110.53367,-15.766255,-139.06384
3015000000,7.3318543,103.09075,-84.288147,-45.367172,-90.368698,2.8093953,-15.893476,-143.29245
3020000000,5.4645314,-10.072071,-73.617096,-153.72638,-74.048897,-154.24748,-15.59077,-143.75697
3025000000,6.1293755,-106.82224,-66.765518,69.696617,-66.104393,68.362686,-15.33928,-144.85645
3030000000,6.3541369,157.52713,-77.771355,-3.2795682,-78.417465,-0.64680791,-15.302756,-149.54796
3035000000,7.9598498,66.298882,-69.384819,-45.901005,-66.108032,-42.382275,-15.404764,-153.94246
3040000000,3.4919972,-35.419502,-67.531258,128.59312,-68.630119,120.53872,-15.419948,-158.32742
3045000000,6.8635182,-140.36316,-74.253418,-167.75638,-76.578362,-165.10947,-15.110781,-162.21799
3050000000,7.3194199,134.35065,-66.359398,-70.106087,-66.661827,-59.609337,-15.068491,-161.54498
3055000000,6.3261766,39.899212,-76.767616,72.554985,-74.081863,69.648216,-15.466639,-161.59613
3060000000,4.7592859,-62.766407,-70.011696,64.733734,-69.652611,65.549011,-15.344781,-167.31474
3065000000,6.8036165,-170.9249,-71.853333,174.78275,-72.597046,-174.00806,-14.865891,-171.028
3070000000,7.2870412,113.93702,-76.457016,172.92255,-76.217361,165.91501,-15.241975,-169.99963
3075000000,5.8934441,6.0854259,-72.561913,168.84117,-70.538139,159.48546,-15.933757,-172.65833
3080000000,4.9367847,-93.432541,-66.696236,105.44906,-67.127716,106.41283,-15.967108,-176.49858
3085000000,6.1854334,165.9464,-73.214256,9.4875536,-73.685104,-0.10753913,-15.762311,-176.32193
3090000000,8.3799562,85.641045,-65.398026,21.934645,-63.314545,27.932823,-15.993348,-176.46175
3095000000,4.2765722,-18.728205,-64.608612,159.35414,-64.542824,153.94604,-15.995211,178.59543
3100000000,6.1601639,-125.89761,-66.36116,-133.63216,-66.594681,-131.64139,-15.963053,174.89284
3105000000,7.2545319,142.3119,-71.550842,29.278765,-71.642845,31.499641,-16.176506,174.07883
3110000000,7.5593381,55.344627,-65.743614,166.02429,-64.656792,160.58371,-16.49164,173.01071
3115000000,4.6332917,-44.071903,-74.763092,87.864792,-77.382088,95.317307,-16.500269,172.7903
3120000000,6.9248867,-157.82774,-66.33213,54.853901,-65.449524,59.629513,-16.511969,173.49088
3125000000,7.1177325,124.49918,-71.15284,-18.582121,-70.017288,-8.2571764,-16.548185,172.14311
3130000000,7.4437623,22.477716,-76.331787,67.476936,-75.185249,78.856102,-16.900478,168.49374
3135000000,4.6052761,-76.777725,-73.830582,-137.95332,-73.648117,-133.1981,-17.403437,165.00467
3140000000,6.3200755,174.27092,-62.725845,-49.709923,-63.587276,-60.52924,-17.668711,163.26375
3145000000,8.9054384,97.248421,-71.139946,166.37582,-68.919281,-178.24605,-17.570465,163.62141
3150000000,5.7626963,-2.955837,-66.488914,127.93362,-65.991234,123.57378,-17.431385,164.48976
3155000000,6.1018658,-107.84877,-66.674713,34.111645,-66.59433,27.769361,-17.237625,164.05661
3160000000,7.1046219,150.74229,-77.048363,89.293732,-79.982346,81.441345,-17.184996,161.61467
3165000000,8.7895212,70.042801,-77.28994,-173.49512,-75.912758,-151.99426,-17.629288,160.1722
3170000000,4.8570156,-28.881626,-66.562958,7.9013882,-66.82473,2.5474236,-18.029537,160.59213
3175000000,6.1973357,-142.1485,-63.354229,-106.2422,-63.541019,-107.00463,-18.021463,162.4346
3180000000,7.3086634,132.79839,-69.095406,-137.09744,-68.71936,-127.03227,-18.054232,163.75623
3185000000,9.0905828,34.325645,-65.345284,88.860786,-63.728256,83.467293,-18.187292,165.14815
3190000000,4.4668202,-57.441818,-72.967651,-85.556198,-71.647087,-76.210167,-18.287056,161.74223
3195000000,6.2526855,-175.93326,-63.093136,-38.561413,-62.979797,-43.63414,-18.542944,156.06032
3200000000,8.6861277,105.7541,-65.508652,79.303886,-63.500999,91.46524,-18.462933,154.00592
3205000000,6.5716629,6.226696,-75.389267,115.40143,-73.082283,111.55294,-18.626162,159.5896
3210000000,6.9973021,-85.194794,-66.625404,-75.786972,-67.03743,-75.015648,-18.799643,159.41562
3215000000,8.0462065,158.47864,-72.417702,169.62526,-72.332161,173.98984,-18.480059,155.03123
3220000000,11.120468,81.651108,-69.97979,151.54497,-68.752235,151.6548,-17.481073,155.9469
3225000000,7.0485616,-20.740143,-79.304985,146.00349,-83.94976,153.96944,-17.633129,158.92644
3230000000,7.8104,-126.16749,-73.391647,-49.35675,-72.617905,-34.411545,-18.593069,155.81808
3235000000,7.5079603,137.46765,-67.779419,81.416153,-68.805008,84.774139,-18.588732,154.00606
3240000000,11.236673,41.379433,-77.38871,19.589571,-76.308784,1.5058475,-17.856077,157.95303
3245000000,6.4820504,-43.549725,-65.22506,-82.471375,-65.896729,-81.918747,-18.00489,159.2906
3250000000,7.7334371,-165.16862,-68.016098,-80.53405,-67.280052,-88.558296,-18.260002,156.13036
3255000000,9.4181137,120.43393,-67.490578,134.16779,-68.566055,151.65668,-17.929893,153.3112
3260000000,9.6068554,11.563775,-75.771057,133.43695,-78.134422,94.6642,-17.838758,150.1769
3265000000,7.5042758,-71.141045,-78.359566,-166.70683,-78.870018,-170.17896,-17.89646,148.81012
3270000000,7.7472711,166.50395,-78.324074,70.76123,-78.294777,88.008522,-17.644476,152.7596
3275000000,11.315014,90.955772,-68.996994,83.11837,-65.776245,85.982498,-17.579124,153.32198
3280000000,8.0582266,-13.427732,-82.044815,-77.63768,-83.780457,-92.944832,-17.641491,148.56601
3285000000,7.5502834,-101.29164,-65.10247,-124.26177,-65.091721,-119.18764,-17.167755,146.67918
3290000000,7.2777576,146.85837,-84.936165,116.57461,-85.011757,116.87016,-17.025555,147.27124
3295000000,12.575928,46.588284,-75.888474,92.624001,-72.554291,75.962425,-17.547102,143.68665
3300000000,7.1750154,-33.486015,-76.026703,-112.00279,-75.629204,-107.56524,-17.684599,143.25174
3305000000,8.4210873,-147.52168,-69.596245,61.073463,-69.095123,57.594246,-17.315735,145.42805
3310000000,9.2256594,125.24371,-66.490677,47.764118,-66.004616,67.736572,-17.364983,140.54913
3315000000,10.537338,19.129711,-74.827492,-26.540602,-71.788727,-44.670006,-17.051235,135.58286
3320000000,7.5578871,-53.475319,-72.621422,-80.902786,-72.916306,-79.41909,-16.875465,138.16133
3325000000,7.5159221,176.08359,-83.634041,36.611042,-83.366653,24.758942,-17.412283,135.29128
3330000000,10.623687,99.591522,-79.555061,111.96677,-74.583199,153.24583,-17.517956,127.67625
3335000000,9.1094074,-6.1266479,-77.512085,-112.72821,-78.83213,-115.69083,-16.75367,131.58821
3340000000,8.9097748,-89.040306,-70.604568,119.89378,-70.514984,133.65314,-16.696297,135.00174
3345000000,6.9578862,155.17932,-81.985245,-29.182951,-85.115479,-24.214354,-17.364157,127.5248
3350000000,13.346582,58.101257,-79.586655,-21.537384,-75.044601,-24.186823,-17.149414,122.2836
3355000000,7.8180165,-25.563292,-64.145218,-43.577801,-65.052765,-55.217251,-16.752949,124.8336
3360000000,8.9223719,-130.02679,-68.653198,174.01308,-68.060593,161.40543,-17.407009,122.312
3365000000,8.8072176,132.97319,-73.880341,117.96823,-72.774948,124.78922,-18.010553,118.41673
3370000000,11.431314,24.496225,-68.969765,142.27502,-67.317215,120.52623,-17.647121,118.73467
3375000000,8.7856054,-46.979641,-76.150909,-11.66223,-77.119637,-21.484575,-17.247522,115.16371
3380000000,7.8087091,-166.91324,-63.624641,120.03022,-63.778603,117.78822,-17.480383,110.22651
3385000000,9.8134127,110.16286,-71.230972,47.345581,-71.11544,50.112228,-17.861969,111.26894
3390000000,9.7175436,-1.2867664,-64.39576,-63.091434,-64.311722,-82.46788,-17.932913,108.64091
3395000000,8.6545286,-73.144203,-71.500816,-176.49533,-70.353493,-166.76984,-18.149323,104.96459
3400000000,6.9530497,164.49272,-67.14875,98.597282,-67.356171,91.243896,-18.534477,108.16703
3405000000,12.790888,74.007187,-65.879852,-18.428869,-61.404682,-22.989517,-18.718313,109.30608
3410000000,8.9010649,-19.675827,-65.540779,-104.32146,-67.545822,-118.32858,-18.800594,99.936592
3415000000,10.443312,-115.08704,-63.365662,76.971069,-62.169083,74.192955,-19.373846,96.489006
3420000000,7.7131748,137.76598,-64.175179,9.4155607,-64.245811,18.05444,-19.90638,100.20805
3425000000,11.694358,36.576519,-61.535259,-76.174454,-59.43848,-89.354691,-20.228275,94.072617
3430000000,8.6114073,-41.675259,-63.123955,153.14488,-64.229645,149.78149,-20.318382,87.173622
3435000000,8.7323389,-154.60715,-62.866184,72.561356,-63.34285,63.608719,-20.338751,93.49472
3440000000,8.8600416,118.30765,-63.802444,-71.469292,-63.495575,-53.837601,-20.114519,93.508751
3445000000,10.782331,3.6844678,-64.824318,-142.54173,-64.348694,-159.82596,-20.750477,83.093994
3450000000,9.1084337,-65.468353,-63.058743,81.037735,-64.152,86.346031,-21.355896,84.5019
3455000000,7.1293006,171.35309,-63.789791,-27.838213,-65.020866,-38.755749,-21.229593,93.234802
3460000000,11.024603,81.583786,-59.384216,-127.12354,-56.85817,-123.51842,-22.306713,90.496941
3465000000,9.0819597,-16.542086,-63.759895,126.86131,-65.15094,120.09254,-24.360865,86.853584
3470000000,10.008007,-101.47034,-61.817059,52.770267,-61.52916,50.418335,-23.490761,91.052284
3475000000,7.3029227,146.32359,-63.001656,-90.831848,-63.696369,-87.80732,-23.095219,85.558563
3480000000,11.988716,46.505226,-63.061218,173.08786,-60.01049,163.7276,-25.462044,75.153816
3485000000,9.5214338,-38.25882,-60.677868,63.817486,-61.499264,58.163036,-25.524374,81.602242
3490000000,9.1666203,-138.10323,-60.897907,-40.184021,-60.456802,-42.300625,-23.563709,89.708282
3495000000,7.5754805,127.15076,-61.419014,-146.66312,-62.311165,-131.75937,-25.564243,91.748856
3500000000,11.215766,12.264996,-65.987724,141.49557,-63.969238,126.04144,-27.501394,99.801041
3505000000,8.602706,-55.816521,-61.146713,33.004742,-62.704311,34.445293,-24.993671,93.85804
3510000000,7.9540343,-172.07588,-64.39106,-136.8938,-64.447746,-143.81096,-25.546175,88.582626
3515000000,9.402564,96.775261,-63.759285,154.88489,-62.225983,168.41068,-28.226843,104.72129
3520000000,9.0547733,-6.6723442,-59.566387,36.429554,-59.906712,22.898697,-26.355091,117.20615
3525000000,9.6316633,-82.924591,-62.744625,-35.420391,-61.779366,-36.481857,-27.128466,109.33723
3530000000,6.5872893,160.61804,-63.235714,-147.27557,-64.624855,-147.64417,-31.443892,111.36452
3535000000,11.113332,64.068481,-67.620811,72.544434,-65.292091,73.138962,-27.672243,109.23896
3540000000,8.6100292,-29.797295,-64.677834,-9.492837,-65.891113,-19.270927,-25.389874,101.48503
3545000000,9.4245243,-117.73316,-63.869263,-157.11821,-62.971336,-156.80687,-29.274206,105.89668
3550000000,6.4734149,136.78342,-60.601646,135.52348,-61.62841,142.78267,-28.794836,120.66264
3555000000,10.783954,26.739067,-62.035866,23.713224,-60.449768,7.9321275,-24.854273,110.70824
3560000000,8.0586042,-48.400478,-66.064217,-44.266006,-68.80777,-42.148224,-26.369358,109.6991
3565000000,8.404253,-159.55434,-64.184387,-156.17918,-64.026222,-163.90535,-27.161922,119.10735
3570000000,8.3135538,108.74183,-72.4412,37.984909,-72.067322,53.586437,-23.598829,109.67203
3575000000,9.4018326,-2.4847691,-65.156151,-48.47694,-65.221268,-63.618248,-23.993292,113.10145
3580000000,8.8724833,-71.282349,-65.303314,-157.80832,-65.182327,-153.36932,-26.741728,140.64848
3585000000,7.0143266,173.59108,-69.844696,125.25566,-69.64296,124.96049,-26.001425,129.16135
3590000000,9.3332872,83.028915,-67.604042,67.292221,-65.290649,71.705254,-24.81119,107.1986
3595000000,8.800108,-21.641653,-68.237679,-33.336498,-69.994858,-44.055904,-26.859222,118.5793
3600000000,9.4773903,-100.37124,-70.101593,76.437561,-70.379578,87.157761,-26.780249,116.34688
3605000000,6.2195115,147.6255,-78.360199,-87.661377,-80.147316,-98.724754,-24.309568,95.782593
3610000000,10.546091,46.045883,-66.485809,-30.775925,-64.695679,-39.124458,-25.091909,100.33033
3615000000,8.139925,-42.126755,-79.467987,-149.57628,-85.116447,-160.17331,-25.3174,120.08251
3620000000,9.2930174,-141.34175,-62.946583,146.992,-62.322483,139.3278,-23.770576,108.73012
3625000000,7.1632156,122.04606,-69.756859,15.200924,-69.577904,23.638859,-24.310232,103.20517
3630000000,10.254021,14.185802,-70.398651,-17.959064,-69.886299,-25.068327,-26.231617,112.72763
3635000000,8.6084023,-58.872162,-69.273972,-125.2906,-69.184776,-126.80663,-25.69964,106.70635
3640000000,7.7844586,-173.28569,-74.19516,144.11905,-73.035896,117.32551,-25.207428,94.464821
3645000000,8.5391207,100.23787,-70.618248,2.6513073,-69.644814,8.6112766,-26.988543,105.56496
3650000000,9.558341,-13.040966,-67.39254,-89.91687,-67.092804,-102.94143,-26.305725,113.70373
3655000000,9.2744513,-83.169586,-63.793861,141.59111,-64.130463,147.85713,-25.729183,98.412262
3660000000,6.6532907,160.24794,-68.256264,151.88181,-69.586533,150.78818,-27.562122,87.518356
3665000000,9.7605705,59.78867,-67.536049,-25.751053,-65.47963,-25.238169,-27.935764,92.678131
3670000000,7.9356508,-34.235008,-79.022095,34.482109,-77.843407,30.981489,-26.036697,91.971527
3675000000,9.8279285,-121.17772,-67.280388,137.0769,-66.714668,130.13045,-27.320404,93.413048
3680000000,6.6045833,134.94566,-66.726158,-41.318035,-67.764862,-37.5196,-29.393845,109.19241
3685000000,10.653696,29.589199,-69.609245,-98.41993,-67.000008,-105.90533,-28.031923,104.50691
3690000000,8.8397141,-55.731853,-69.886337,137.68738,-70.273041,134.63245,-27.78948,92.616386
3695000000,8.102356,-156.96329,-65.777885,57.481125,-65.736961,50.88393,-31.676805,98.963684
3700000000,7.1018739,110.75232,-70.065262,-40.810429,-68.958557,-26.293512,-33.786755,108.37247
3705000000,10.200738,-5.2247114,-78.080025,-66.268913,-77.420753,-90.307411,-32.247768,83.763527
3710000000,8.3743696,-72.903893,-63.591103,108.21316,-64.88475,110.80468,-32.622692,88.773224
3715000000,7.2550945,172.19661,-75.679352,-122.77782,-77.201065,-114.98978,-32.526863,115.10335
3720000000,8.7955847,76.868553,-67.870804,-98.669029,-65.800552,-92.142456,-31.602272,109.83852
3725000000,8.4277496,-24.878613,-71.501404,130.77101,-72.587059,110.81855,-32.901394,92.96048
3730000000,9.7693729,-103.38784,-72.057762,43.457634,-71.019363,36.706821,-34.583187,118.4521
3735000000,6.1246891,146.78258,-66.446266,-40.830536,-66.940613,-36.972141,-32.905582,131.23602
3740000000,9.8789883,48.249012,-69.933754,-140.29991,-69.517052,-142.38792,-31.899519,126.07574
3745000000,8.9758072,-45.336361,-77.243385,28.861519,-79.09137,15.655128,-30.429207,140.88326
3750000000,9.3300209,-136.87656,-73.078407,4.70474,-71.608269,-3.2336106,-29.217369,158.21544
3755000000,6.0491257,125.48175,-68.693062,-95.783203,-69.752724,-90.307266,-32.170765,153.38771
3760000000,10.48771,10.145096,-64.566933,121.97263,-62.910442,110.32333,-34.044861,145.15456
3765000000,8.2845535,-62.400295,-63.05191,114.50364,-64.800575,116.78806,-30.87085,157.17613
3770000000,8.4760818,-170.62416,-76.293404,-38.922699,-76.914803,-48.733727,-29.736717,158.33513
3775000000,8.0420609,94.801117,-72.126144,-75.459961,-70.566727,-63.634666,-29.883333,146.15298
3780000000,9.6977873,-19.043978,-76.636902,126.89366,-74.547241,104.72893,-27.690899,148.07918
3785000000,9.9155397,-83.989113,-72.44474,-25.097458,-73.667587,-15.450763,-26.254366,152.79617
3790000000,7.2982559,162.38791,-78.395607,-98.3591,-79.50312,-96.336464,-26.798788,152.39156
3795000000,8.9138765,71.507317,-69.441383,160.84631,-67.948769,162.92824,-26.605038,156.4987
3800000000,9.0967646,-39.24575,-71.084396,88.716568,-71.404625,77.982559,-25.62829,162.2811
3805000000,9.5096798,-117.04136,-66.805237,-34.566986,-65.829468,-33.094341,-25.345015,156.08134
3810000000,6.0111585,135.94244,-71.238464,-77.215706,-71.641853,-72.277626,-24.804901,151.68565
3815000000,10.663301,27.068497,-81.58947,139.27676,-77.025436,101.04981,-24.834791,157.92093
3820000000,8.3576345,-56.102119,-65.266006,20.315557,-67.66053,15.766065,-26.564075,152.98439
3825000000,9.5244694,-155.07143,-72.531464,-81.100189,-70.057549,-84.01339,-25.648489,134.84096
3830000000,6.1058531,107.63121,-69.544823,-158.00607,-69.319954,-148.37648,-23.593058,140.55032
3835000000,10.048299,-6.9446597,-71.65345,112.10632,-71.27034,93.769402,-23.336065,150.15184
3840000000,9.1681147,-76.927444,-67.544304,-7.1285095,-69.683914,-0.36921239,-24.174788,140.03925
3845000000,7.9963303,175.36682,-72.390572,-120.94734,-71.651474,-130.05995,-23.252983,131.99586
3850000000,8.1286564,84.157326,-67.631439,137.15096,-67.613609,147.75069,-22.816092,136.88234
3855000000,9.3923626,-31.989424,-92.507736,59.848019,-96.411507,-64.206337,-23.344984,136.62376
3860000000,10.101778,-101.0432,-67.334694,-81.691467,-66.323845,-67.469429,-23.121208,129.15309
3865000000,6.2977724,147.45634,-70.245895,-165.68922,-71.04789,-160.35449,-22.440088,131.83401
3870000000,9.3999815,48.117645,-67.45237,104.24855,-65.126633,108.88537,-22.352552,133.4666
3875000000,8.5811834,-51.672398,-69.978294,-10.627146,-72.467522,-17.241776,-22.420353,126.90524
3880000000,10.550572,-134.46573,-71.115723,148.65561,-69.452843,148.3661,-22.687571,122.01373
3885000000,5.9796281,125.42265,-66.647186,159.71609,-67.801727,160.7612,-23.097576,120.11375
3890000000,10.439429,13.364438,-67.609642,38.614651,-65.651756,29.76498,-22.235584,114.47604
3895000000,8.737216,-68.117088,-70.037498,-80.917404,-70.108337,-77.622459,-21.188824,115.41207
3900000000,9.5380116,-167.67352,-68.433098,-166.35312,-68.072937,-164.84532,-21.418634,120.50608
3905000000,7.3514261,96.460678,-68.089394,78.14801,-68.234116,84.26622,-21.945961,119.3802
3910000000,9.8542557,-20.421253,-72.192314,-54.829334,-72.090584,-66.422783,-21.99873,112.34381
3915000000,10.212987,-88.320778,-63.023075,-113.51512,-63.590027,-98.932465,-22.565226,110.47704
3920000000,7.7377329,160.88547,-67.601601,98.912621,-69.392838,91.561852,-23.043207,110.80918
3925000000,8.8461466,68.171242,-69.870216,17.683151,-68.623688,27.060585,-22.926798,107.04436
3930000000,8.6037607,-44.508179,-64.362198,-55.435741,-65.425781,-61.009033,-23.073389,101.17711
3935000000,10.671016,-121.74233,-70.535408,165.15413,-69.150734,164.86565,-23.142496,93.857162
3940000000,6.300034,137.14798,-72.090103,62.06686,-72.739983,76.124657,-21.950672,91.737465
3945000000,9.9530334,27.723989,-66.504784,-37.361961,-64.401405,-45.542728,-21.451738,93.695274
3950000000,9.4883347,-62.956585,-66.685097,-133.04599,-66.925156,-126.79556,-22.886768,97.828552
3955000000,10.103227,-154.93929,-65.586945,141.82347,-64.779808,141.64978,-24.099762,95.377434
3960000000,5.9300737,113.57541,-65.125008,62.485722,-66.162621,67.120148,-23.08135,88.981361
3965000000,9.3729563,-11.032226,-71.442001,-100.05762,-70.826477,-106.39094,-22.736887,87.747063
3970000000,8.7706337,-80.035866,-71.70974,-140.83063,-72.636414,-138.29349,-24.130016,88.178932
3975000000,8.6755362,172.75456,-71.71003,55.901123,-73.432434,40.952408,-24.467911,80.028717
3980000000,7.9512959,82.473862,-68.404778,-47.005501,-67.557961,-45.093346,-23.799677,75.288971
3985000000,8.4613485,-35.346256,-68.407501,-109.5084,-69.184296,-128.24159,-24.558685,77.995934
3990000000,10.293197,-106.67365,-63.748772,105.91888,-64.370949,105.75633,-24.97714,78.856117
3995000000,6.6612372,149.07596,-65.729538,34.272064,-66.988663,30.422623,-23.615902,74.493027
4000000000,6.6277766,49.990456,-71.447479,2.0026422,-69.293633,0.98067689,-23.626074,75.399872
END

