!CSV A.01.01
!Keysight Technologies,N5247A,US56070710,A.10.64.09
!Date: Thursday, November 10, 2022 00:37:57
!Source: Standard

BEGIN CH1_DATA
Freq(Hz),S33(DB),S33(DEG),S34(DB),S34(DEG),S43(DB),S43(DEG),S44(DB),S44(DEG)
3000000000,3.3773932,20.810926,-62.577179,82.303993,-62.123478,77.168259,-16.045347,-135.84828
3005000000,3.6121044,-83.504288,-57.67831,44.017357,-57.518192,46.605064,-15.634605,-135.51176
3010000000,5.0763283,173.26619,-56.421284,-51.942905,-56.738625,-51.772156,-15.766962,-138.17162
3015000000,5.0666304,96.475983,-56.986092,-84.099785,-56.28046,-76.277657,-15.893013,-142.53291
3020000000,2.8972931,-14.770624,-64.902885,162.62511,-64.905235,157.0704,-15.574359,-142.91055
3025000000,4.051867,-116.16906,-59.994164,132.16319,-60.118317,131.90863,-15.331697,-143.92259
3030000000,4.5760031,152.94896,-62.632374,59.344723,-63.209652,59.545078,-15.304494,-148.72475
3035000000,5.273026,62.359711,-61.410484,31.836338,-59.478626,32.483334,-15.396662,-153.08466
3040000000,1.2354871,-40.77673,-60.199951,-32.14827,-60.291859,-37.726665,-15.414371,-157.34087
3045000000,4.8157926,-146.78029,-55.656769,-99.99601,-55.268295,-102.04408,-15.117642,-161.26291
3050000000,5.4907761,129.5069,-60.358715,-138.8759,-59.974705,-132.35988,-15.075283,-160.61044
3055000000,4.0439501,37.36665,-56.852673,156.06952,-56.173569,152.63707,-15.472817,-160.64984
3060000000,2.8934472,-69.265778,-58.961781,96.870277,-59.184978,95.963776,-15.334735,-166.42406
3065000000,5.138062,-175.94421,-61.379005,32.485035,-61.336796,33.987251,-14.849436,-170.10622
3070000000,5.498889,109.07166,-62.818531,-31.294415,-62.671947,-20.579279,-15.240178,-169.04378
3075000000,3.4864461,3.3097539,-57.53307,-96.436768,-57.027328,-103.38301,-15.932231,-171.80821
3080000000,2.8274767,-102.72182,-59.699501,-133.02122,-59.607265,-131.67514,-15.946548,-175.60997
3085000000,4.3892984,161.26137,-61.256134,156.14612,-62.504189,154.9798,-15.761043,-175.37923
3090000000,5.8699241,80.429314,-56.669952,107.40036,-54.970039,112.16129,-15.996038,-175.54343
3095000000,1.6929462,-22.689522,-59.973549,52.0774,-60.738499,47.706299,-15.978613,179.55788
3100000000,3.9920321,-132.96204,-56.906918,-1.7021852,-56.807446,-2.2439888,-15.979484,175.91701
3105000000,5.3295326,137.19466,-59.978413,-62.11599,-59.818161,-57.146526,-16.213556,174.96469
3110000000,4.7917337,52.498199,-57.825241,-138.4257,-56.80109,-143.3598,-16.482828,173.89209
3115000000,1.8889321,-51.198059,-64.034683,162.20479,-64.007599,165.5078,-16.494493,173.84825
3120000000,4.6714139,-167.23343,-57.594334,94.898865,-57.430035,95.524574,-16.548616,174.44209
3125000000,5.1516604,118.01772,-60.525173,51.325211,-60.057762,57.25684,-16.554785,172.95218
3130000000,4.4714866,21.717836,-59.92588,44.36496,-58.851707,38.247349,-16.873896,169.44753
3135000000,1.6828191,-83.188622,-59.451992,-19.324963,-59.565735,-16.051426,-17.419636,165.95007
3140000000,4.173893,169.41724,-54.250736,-104.23551,-54.751816,-105.82244,-17.686193,164.16438
3145000000,6.5209479,91.081314,-62.054321,-151.49283,-60.67659,-139.77942,-17.541277,164.70769
3150000000,2.9405997,-5.4496374,-57.021442,129.90775,-56.787781,125.59459,-17.429703,165.56813
3155000000,3.2624333,-115.52541,-57.669853,29.178787,-57.368919,28.147667,-17.265713,165.00975
3160000000,4.9758439,145.59264,-58.859013,-22.294868,-59.287651,-17.149002,-17.186916,162.67262
3165000000,6.0588932,66.917946,-61.963043,-65.436104,-60.866348,-60.777969,-17.629883,161.1525
3170000000,2.2437704,-30.575363,-55.582172,-107.22638,-55.784451,-110.04687,-18.046715,161.33733
3175000000,3.8506386,-148.32866,-58.7146,-142.10915,-58.749027,-144.53772,-18.011002,163.51912
3180000000,5.5329399,126.88019,-55.882183,150.35825,-56.306206,155.21146,-18.041267,164.9874
3185000000,6.1773596,32.470268,-55.174057,68.157532,-53.445335,63.978363,-18.225508,165.86293
3190000000,1.769894,-63.044769,-56.928139,-0.10303456,-57.352448,0.062343087,-18.298422,162.49054
3195000000,4.2343869,177.85602,-65.377884,-59.770542,-65.118103,-64.279243,-18.504282,157.3438
3200000000,6.5329247,98.779289,-60.658672,-115.68368,-59.352055,-106.47625,-18.45417,155.07259
3205000000,3.941056,6.5090475,-64.775871,-174.50914,-64.148438,175.92793,-18.669994,160.54335
3210000000,4.2245636,-92.288483,-59.786282,169.35803,-59.931435,170.94669,-18.811853,160.76213
3215000000,5.9533367,152.54549,-60.195976,107.62275,-60.363632,109.79855,-18.475798,156.06323
3220000000,8.4796524,75.669731,-55.322334,20.21085,-53.428482,25.191818,-17.510193,156.67419
3225000000,4.687252,-20.763971,-60.610668,-35.863731,-61.248734,-44.406879,-17.669802,160.12378
3230000000,5.1100106,-131.44461,-59.567356,-118.88298,-59.832943,-116.00605,-18.582806,156.9989
3235000000,5.9599543,132.73462,-59.743782,-160.33125,-60.54401,-154.93797,-18.584957,154.60458
3240000000,8.7738485,38.994503,-73.568245,-102.07306,-70.762375,-108.88547,-17.89505,158.96858
3245000000,4.1218576,-47.332359,-59.867725,153.3441,-60.921219,152.92126,-17.992399,160.61229
3250000000,5.2425714,-170.53204,-62.293098,47.425694,-62.462448,38.975273,-18.220303,156.81615
3255000000,7.600214,110.50547,-57.515869,-19.040794,-56.604691,-4.033133,-17.96106,154.1245
3260000000,7.0424218,9.423481,-60.989559,-70.093758,-59.76923,-79.651909,-17.87079,151.67079
3265000000,4.9952016,-77.915092,-57.681576,177.0228,-58.041481,176.52829,-17.858076,149.85559
3270000000,5.5760174,160.22629,-61.846367,83.237373,-62.612331,87.290482,-17.66832,153.30519
3275000000,8.9149141,82.931152,-69.310989,136.21115,-67.914703,141.99059,-17.640844,154.61897
3280000000,5.8615575,-15.748533,-67.098099,80.10878,-67.440529,69.299835,-17.589743,149.85374
3285000000,4.9812388,-113.17404,-56.346989,28.542389,-56.141846,32.067486,-17.138113,147.26956
3290000000,5.6894951,138.53381,-57.451183,-50.489655,-58.513691,-45.414425,-17.122488,148.31883
3295000000,9.9394026,40.654762,-55.455601,-125.56426,-52.378124,-135.35817,-17.559141,145.20729
3300000000,5.0599747,-40.182495,-56.972622,147.77557,-57.998074,145.21817,-17.606995,143.88853
3305000000,5.6260438,-157.10872,-59.517807,99.74897,-59.474228,91.246811,-17.404137,146.03745
3310000000,7.5475564,115.28214,-73.508598,-125.51517,-72.891716,-112.4902,-17.422728,142.07652
3315000000,8.3592787,15.893958,-60.543606,91.849335,-59.376411,76.167809,-16.94603,136.70546
3320000000,5.591711,-60.652859,-58.521652,6.433897,-59.635666,11.25526,-16.916494,138.5955
3325000000,5.4379797,168.34648,-55.18256,-81.7435,-55.560654,-83.775879,-17.568546,136.53156
3330000000,8.8234644,88.768913,-57.555157,-158.97728,-56.085632,-153.63211,-17.429724,129.1982
3335000000,7.1132712,-10.327118,-56.170132,103.36539,-56.531193,90.974396,-16.684542,132.12489
3340000000,6.1066785,-99.110489,-59.753395,-1.7677946,-59.145599,0.54180586,-16.878574,136.07913
3345000000,4.9741154,148.53925,-63.822479,-101.19474,-65.593086,-101.42835,-17.394264,129.29526
3350000000,10.31613,52.651024,-65.387856,42.236637,-61.726028,37.851391,-17.012905,122.92446
3355000000,5.6933017,-28.474373,-56.613251,-13.438979,-57.711422,-19.646376,-16.871201,125.036
3360000000,5.938005,-134.3699,-53.839455,-126.19002,-53.55014,-132.13091,-17.519602,124.04569
3365000000,7.1154518,125.18736,-54.611469,137.39229,-54.065651,148.26091,-17.829531,119.84704
3370000000,9.2931871,20.720966,-55.799839,64.39817,-54.544701,49.288437,-17.66646,118.54408
3375000000,6.4662561,-53.973614,-60.470829,-50.422764,-61.354633,-46.203621,-17.446091,116.35125
3380000000,4.4348264,-173.65913,-62.159115,-179.29768,-62.7523,-179.58978,-17.369003,112.40045
3385000000,7.2062416,100.32589,-59.644329,39.794331,-58.930672,48.925228,-17.754839,111.32661
3390000000,7.4491696,-2.2158818,-54.890945,-81.568306,-54.893131,-95.185036,-18.189096,108.85435
3395000000,5.8881235,-79.453285,-55.489098,-174.06789,-55.474529,-168.18802,-18.187057,107.46583
3400000000,4.6320243,158.97852,-54.126881,89.375435,-55.428413,88.730713,-18.315754,108.84843
3405000000,9.9346132,63.904003,-56.583473,-0.34310207,-53.859352,-3.3200228,-18.922834,108.56329
3410000000,6.6563568,-24.328775,-56.916225,-83.172005,-58.22567,-88.565895,-19.009687,102.07448
3415000000,6.8294773,-123.61214,-63.817238,117.39864,-63.217438,114.04497,-19.115774,98.609688
3420000000,5.6669278,127.47924,-61.23748,-42.470356,-61.991161,-36.924576,-19.897255,98.657143
3425000000,9.2685947,28.381901,-57.152908,-139.93291,-55.442627,-148.6911,-20.612331,95.099937
3430000000,6.7066927,-48.829575,-53.691681,134.55353,-54.455639,133.05901,-20.184074,91.04557
3435000000,6.0539999,-162.36458,-54.934288,53.26944,-55.072941,47.294624,-20.103413,92.741302
3440000000,7.2525434,107.10838,-55.934994,-42.129185,-55.953102,-33.339207,-20.550625,92.937569
3445000000,8.7144718,-1.1148418,-62.465595,-145.32516,-62.317398,-160.22989,-20.882059,87.278831
3450000000,7.0961609,-73.833344,-62.333431,49.000389,-62.639542,50.987045,-20.903059,85.271225
3455000000,5.2924185,164.81029,-60.05468,-63.239048,-61.373993,-64.994064,-21.594782,90.802986
3460000000,9.4381123,69.407562,-58.768604,-166.87729,-56.370857,-166.31155,-22.710014,94.62059
3465000000,7.3670001,-23.556307,-54.331894,98.860123,-55.277851,89.251968,-23.663023,89.675797
3470000000,7.4231687,-111.0626,-53.400028,3.3611434,-53.208546,1.8049885,-23.490612,86.810844
3475000000,5.2442718,137.17046,-55.479549,-97.851036,-55.856617,-92.783257,-23.814228,88.071121
3480000000,9.4455853,37.59087,-63.113728,-162.65427,-61.278294,-172.95905,-25.094057,82.103577
3485000000,7.4689426,-45.010899,-65.547798,28.302116,-66.821213,26.774488,-24.988676,77.612343
3490000000,6.392519,-147.29951,-60.232689,-122.01323,-60.432865,-122.83855,-24.422535,89.512794
3495000000,5.9666519,115.21519,-57.755112,152.42268,-58.147217,160.13731,-25.391769,99.776726
3500000000,8.8608322,5.2469454,-53.702995,55.286613,-52.740841,39.696121,-26.644529,95.851883
3505000000,6.4405446,-64.393303,-53.394184,-46.272503,-54.261333,-44.142002,-25.833042,89.963768
3510000000,5.2653699,-179.15913,-55.170784,-129.3618,-55.432716,-133.50735,-25.974705,96.770782
3515000000,7.6400914,81.542763,-60.115238,133.62857,-58.933826,139.7085,-27.025938,103.94241
3520000000,7.1439624,-16.024851,-68.019661,35.396885,-67.799049,21.307249,-27.28392,111.18915
3525000000,7.4239669,-95.468376,-58.579937,-155.64932,-58.129822,-154.29514,-27.804636,118.22337
3530000000,4.6667099,149.56673,-54.068962,106.22024,-54.906696,108.56853,-29.493959,115.0658
3535000000,8.800231,48.674339,-54.994156,22.005798,-52.991222,16.369476,-27.712252,100.53746
3540000000,6.7156825,-37.727402,-54.319103,-82.623642,-55.785332,-90.655464,-26.556984,105.52199
3545000000,6.6533465,-131.00574,-55.923382,-177.95937,-55.76466,-178.62164,-28.141785,115.12801
3550000000,4.6280532,122.39085,-60.246258,93.12233,-60.828533,99.465385,-28.353985,110.91643
3555000000,8.1698713,14.517661,-61.436806,-42.668495,-60.485756,-53.354225,-26.039995,111.55711
3560000000,5.925211,-58.301785,-59.139118,159.19507,-60.515003,161.43449,-25.970686,119.35129
3565000000,5.3000407,-167.49471,-55.420815,55.412308,-55.761391,48.986935,-26.293272,114.00422
3570000000,6.1603184,92.605766,-54.702305,-44.724251,-53.873009,-38.424126,-24.478258,107.01446
3575000000,6.8649344,-11.252723,-55.62812,-116.05102,-56.135311,-127.93625,-24.166668,120.99535
3580000000,6.6050463,-84.096123,-55.226971,136.5988,-55.522156,142.77849,-25.86318,136.32819
3585000000,4.5157652,160.43738,-61.672718,38.773956,-62.359577,36.860336,-26.897724,123.41273
3590000000,7.405654,64.849693,-61.441513,-74.414902,-60.334236,-69.546822,-25.451498,114.10192
3595000000,6.5985036,-31.797628,-58.440464,115.1755,-59.186951,108.11108,-25.744154,121.39355
3600000000,6.4764957,-116.36566,-64.626411,30.608425,-64.117989,34.160423,-26.907597,109.15311
3605000000,4.0438657,132.04218,-57.97517,-87.839638,-58.724205,-86.12619,-25.272366,97.775932
3610000000,8.1768951,28.828203,-58.372673,173.5916,-56.768055,167.30798,-24.692417,106.59766
3615000000,6.1494775,-52.575459,-55.494904,101.39648,-56.993916,99.205215,-25.012796,115.84615
3620000000,6.0954313,-152.198,-58.458153,-2.0696495,-58.450294,-5.337347,-24.58102,108.77225
3625000000,5.0797992,104.89156,-65.948357,-67.984436,-65.897507,-64.56881,-24.461882,109.16704
3630000000,7.5902491,0.32694954,-68.349121,99.672104,-68.810219,88.975922,-25.507111,110.6593
3635000000,6.6848397,-71.190308,-63.72678,-36.838894,-65.129738,-34.355793,-26.155432,102.99772
3640000000,5.0586686,175.86383,-62.358391,-126.2406,-62.642727,-131.72211,-25.886501,99.663399
3645000000,6.3654666,81.645966,-59.932423,162.6418,-58.805141,171.40399,-26.252996,107.93993
3650000000,6.8904486,-22.805063,-58.098835,39.881405,-58.344151,28.144266,-26.396526,108.71739
3655000000,6.7111173,-97.082054,-57.499016,-18.100508,-57.776192,-15.617127,-26.576324,100.97958
3660000000,4.3500705,148.25014,-58.524536,-106.27039,-59.557251,-107.42049,-27.27009,93.815437
3665000000,7.6434174,44.498444,-68.963089,-159.09851,-68.510094,-168.79352,-27.220644,89.793106
3670000000,5.9493504,-42.500168,-73.532188,3.7523274,-73.167709,-9.9989061,-26.797623,91.349045
3675000000,6.7457113,-132.38908,-68.59848,169.40053,-67.860313,171.55159,-27.67594,99.880539
3680000000,4.286201,121.45789,-62.445881,112.90866,-62.539768,119.97734,-28.613764,106.69498
3685000000,8.0067902,16.492977,-60.555828,25.268623,-59.503281,15.565886,-28.534893,100.73205
3690000000,6.760602,-65.258766,-59.567451,-30.565117,-60.400661,-29.673559,-28.56966,97.718895
3695000000,5.1258879,-165.75381,-59.815903,-133.18863,-59.881451,-135.34781,-30.731417,101.98318
3700000000,4.9030452,96.30706,-60.827885,160.19232,-60.350315,166.78671,-33.714382,98.620934
3705000000,7.4152975,-14.285895,-64.740402,101.26169,-63.7257,87.004158,-33.701038,84.677994
3710000000,5.9269805,-83.326263,-66.957283,149.40665,-67.98896,150.14154,-32.112068,97.211815
3715000000,4.1751518,163.06165,-90.213089,151.38367,-93.590866,-18.250463,-31.89286,109.67557
3720000000,6.3522239,59.523712,-66.576614,-0.18177012,-65.23436,4.4439521,-32.891418,109.76414
3725000000,6.0119371,-33.340321,-59.165371,-79.225868,-60.084316,-87.534653,-33.221962,101.67196
3730000000,6.6100068,-114.71766,-59.618534,-144.10336,-58.797485,-140.25259,-33.374611,115.59419
3735000000,3.0292408,133.55273,-59.423531,122.00668,-60.083885,123.41767,-34.140484,130.19167
3740000000,7.0127239,31.155727,-62.078838,76.612389,-61.051384,71.929459,-32.466766,134.67201
3745000000,6.6454048,-55.266277,-70.032761,-20.774023,-70.20649,-25.371498,-29.782877,140.40598
3750000000,5.955935,-146.47108,-71.760246,83.837021,-71.636253,81.010979,-29.805908,156.4765
3755000000,3.4647813,111.74741,-64.656593,8.9169121,-65.52858,14.360174,-32.672237,161.4158
3760000000,7.4299788,-1.153082,-65.113235,-65.784424,-64.715927,-77.594376,-33.067047,148.72966
3765000000,6.1071458,-72.188766,-61.188213,179.66238,-61.964005,-178.84177,-31.051155,153.78302
3770000000,5.4212422,-177.81406,-62.300514,85.238556,-62.653839,77.304985,-30.421263,162.40019
3775000000,5.7142234,79.155663,-58.471546,38.074848,-58.41275,43.07267,-29.494726,150.92126
3780000000,6.9951057,-26.647549,-61.755718,-62.696991,-62.2826,-73.611351,-27.414896,147.42345
3785000000,7.3096294,-94.832581,-71.494301,-92.886017,-71.981743,-94.985649,-26.826668,154.00601
3790000000,4.3726377,152.19821,-73.012711,15.377112,-72.638138,5.0708628,-26.904091,156.22676
3795000000,6.6532888,53.894363,-62.801338,-118.27481,-62.085701,-116.02546,-26.238262,156.34814
3800000000,6.9942875,-46.558624,-63.851036,165.95161,-65.173393,164.91386,-25.926989,162.00125
3805000000,6.9627032,-126.50263,-59.506615,78.623077,-59.611523,79.050774,-25.590738,159.13631
3810000000,3.7793093,123.95761,-60.664825,-16.530472,-60.984661,-13.11692,-24.513634,153.51727
3815000000,8.1590643,12.882811,-61.959354,-88.527992,-60.664848,-99.591949,-24.892054,157.21124
3820000000,6.5616856,-64.204971,-63.686211,-177.11296,-65.222984,-174.56467,-26.98311,154.44781
3825000000,6.7496529,-161.01772,-74.860176,-46.114998,-76.756836,-56.999866,-25.501089,138.17288
3830000000,3.9602323,94.354263,-69.262543,-124.31642,-70.32766,-127.46393,-23.433439,141.35886
3835000000,7.4028473,-17.692747,-62.941326,140.76573,-62.922707,131.60114,-23.678909,150.53455
3840000000,7.0494676,-86.909477,-59.745907,21.773529,-60.431995,23.371054,-24.270739,142.31386
3845000000,5.1514411,167.73584,-59.305981,-44.881222,-59.558979,-48.248371,-23.044861,133.75189
3850000000,6.0113993,67.723999,-61.279335,-123.39285,-60.218372,-121.43858,-22.956995,136.74673
3855000000,7.1683831,-39.187183,-60.86166,144.7164,-61.875969,132.95769,-23.609522,138.05247
3860000000,7.567431,-110.72923,-65.329422,66.272926,-65.073021,74.965729,-23.010641,131.43869
3865000000,3.4376986,138.27954,-72.411369,163.71893,-75.741722,173.71761,-22.389782,131.98204
3870000000,6.6965866,29.114344,-64.425713,102.51585,-62.56596,98.302895,-22.555796,134.04068
3875000000,6.5339508,-59.506783,-64.845772,15.75593,-66.517372,13.946275,-22.443588,129.46355
3880000000,7.7036858,-141.81407,-60.563705,-67.303612,-60.251171,-68.249641,-22.584421,123.11626
3885000000,3.1319091,114.50183,-58.327812,-164.88855,-59.021015,-161.57341,-23.168163,119.66395
3890000000,6.9572363,0.0058228276,-61.188053,138.80855,-59.824154,130.29059,-22.352726,116.58878
3895000000,6.6107392,-77.160393,-65.208755,33.575706,-67.525475,39.472874,-21.191719,117.63231
3900000000,6.5324292,-175.89984,-79.554535,42.360691,-83.246475,19.326429,-21.506578,120.19888
3905000000,5.1782064,80.93454,-84.70327,87.578545,-83.639008,71.790665,-22.108429,119.72525
3910000000,7.4173188,-30.653616,-61.532825,-5.5400486,-62.091698,-13.083105,-21.994293,114.46285
3915000000,7.8141298,-98.909592,-59.74099,-95.338684,-59.879528,-89.551865,-22.468277,110.93955
3920000000,5.0117292,155.11739,-58.432949,177.85478,-59.12714,171.2282,-23.12685,110.66743
3925000000,6.6473699,48.858196,-59.799522,88.435669,-58.210148,94.745125,-23.036848,109.17542
3930000000,6.7693534,-53.034943,-63.567112,42.242489,-64.196976,34.584385,-22.969217,102.57757
3935000000,8.364584,-131.04005,-67.372185,-59.228626,-66.40554,-54.623905,-23.048697,93.992294
3940000000,3.8201702,125.54695,-68.827805,140.19479,-68.470467,135.41858,-22.128916,93.388634
3945000000,7.0626941,10.887046,-64.636749,11.808876,-63.590164,1.3867885,-21.539707,95.723206
3950000000,7.5185323,-72.332146,-61.923538,-128.06688,-62.969799,-124.91207,-22.824986,97.9021
3955000000,7.4432359,-160.9191,-61.19894,149.35092,-60.250816,149.41769,-24.24551,95.673134
3960000000,3.7264218,101.46926,-60.160278,77.210533,-60.445583,83.649513,-23.222851,90.776993
3965000000,6.9358897,-22.724228,-58.513073,0.6086874,-58.15377,-8.5487347,-22.602175,88.638794
3970000000,6.9427657,-90.524147,-60.15641,-104.05573,-61.033092,-98.201897,-24.110128,88.345901
3975000000,5.7625928,167.43965,-77.729538,-25.469763,-77.969299,-29.058897,-24.738987,81.41024
3980000000,5.2566791,63.644318,-70.648048,-26.292376,-70.335678,-24.052097,-23.786417,76.652443
3985000000,6.3088479,-45.785484,-64.553291,-141.99606,-65.985764,-151.94814,-24.392698,78.122185
3990000000,8.1671505,-116.37814,-65.308792,129.94232,-65.155357,137.78378,-25.154421,79.616989
3995000000,4.078989,142.6823,-58.106251,45.682068,-58.414585,45.774925,-23.727535,76.333618
4000000000,3.6588051,30.91317,-55.043766,-40.166641,-54.131989,-40.3909,-23.523476,76.372498
END

