!CSV A.01.01
!Keysight Technologies,N5247A,US56070710,A.10.64.09
!Date: Friday, November 18, 2022 22:37:58
!Source: Standard

BEGIN CH1_DATA
Freq(Hz),S33(DB),S33(DEG),S34(DB),S34(DEG),S43(DB),S43(DEG),S44(DB),S44(DEG)
3000000000,-19.828363,-108.59041,-73.689476,-75.472549,-74.163963,-70.90802,-11.059904,-136.9579
3005000000,-21.348312,-97.384163,-72.44606,174.00526,-72.666,169.59604,-17.913509,-113.55247
3010000000,-22.725042,-106.35039,-82.346664,119.25114,-80.006317,98.662849,-16.822575,173.25897
3015000000,-27.509045,-88.441208,-74.031189,-17.180891,-76.611427,-14.164163,-10.167193,-139.63535
3020000000,-19.337288,-101.24225,-74.159103,-139.10641,-75.257149,-139.70575,-29.761862,-87.963142
3025000000,-22.537994,-72.370346,-88.878471,107.08243,-91.609207,44.165668,-11.084867,-169.58827
3030000000,-18.829178,-131.45071,-91.959496,-55.683365,-85.889122,-107.22401,-13.586905,-133.55609
3035000000,-21.360912,-102.7473,-90.133972,117.60832,-93.315109,-165.77139,-22.084396,-167.1095
3040000000,-28.134148,-134.45137,-100.91546,-158.15269,-93.425499,-138.53555,-10.27289,-177.66637
3045000000,-25.841743,-84.397491,-83.768898,-115.07433,-83.137222,-114.95897,-16.487801,-113.88581
3050000000,-17.078339,-113.48956,-83.254562,145.64937,-80.960678,147.47836,-13.651007,157.79395
3055000000,-27.73954,-147.34435,-91.442963,144.7832,-89.961479,-143.24509,-12.018272,-162.69716
3060000000,-19.220825,-128.38234,-86.801445,132.40381,-90.373238,-175.1918,-18.076937,-136.01956
3065000000,-29.662027,170.42316,-96.77021,-11.822413,-90.424034,36.95705,-12.152324,152.17461
3070000000,-19.614029,-102.33065,-78.845055,-79.287781,-84.791229,-72.656075,-12.231862,-144.6371
3075000000,-21.095228,-166.18394,-79.015251,178.26807,-80.528229,163.30954,-19.37908,144.92561
3080000000,-23.040586,-89.147911,-80.68573,102.54475,-86.229492,146.73659,-12.925611,166.08774
3085000000,-17.936949,-162.93239,-80.751106,-34.750847,-84.590469,-62.078888,-13.597178,-150.69498
3090000000,-30.758492,-170.64705,-75.673424,-124.79774,-76.490677,-138.44955,-16.842413,118.13729
3095000000,-22.53566,-138.51437,-77.808701,113.83419,-76.908943,110.14995,-10.44014,-176.09778
3100000000,-24.508289,-172.03738,-79.545975,-21.991777,-81.893486,-48.635956,-22.035532,-173.6461
3105000000,-22.344429,-132.27376,-73.745316,-137.63806,-73.815491,-140.62538,-15.41815,143.35915
3110000000,-22.045315,-177.61111,-77.482681,137.32242,-76.276184,135.20653,-11.80754,178.72815
3115000000,-22.465336,-171.21609,-79.345276,44.560863,-77.311401,57.21423,-42.144318,-143.19907
3120000000,-24.533129,161.76515,-76.147095,-57.195679,-75.850891,-58.652031,-11.320243,149.28583
3125000000,-21.7967,-173.17126,-72.502663,-162.23369,-72.817825,-164.03458,-16.087872,-166.61327
3130000000,-34.346523,-168.85155,-75.05761,88.691925,-74.412941,94.878387,-21.182283,135.16859
3135000000,-17.948757,-174.67609,-78.617798,4.5781584,-78.386314,16.911932,-11.66442,149.3539
3140000000,-23.091566,143.15585,-76.429291,-119.71844,-75.178619,-109.91696,-18.528362,-135.87056
3145000000,-21.582588,174.3214,-73.987389,140.86371,-76.117531,142.27171,-14.423947,121.28945
3150000000,-19.728777,123.58788,-79.737022,55.338665,-83.856239,46.68132,-14.288399,173.93512
3155000000,-24.35718,-142.86084,-79.553368,-43.201935,-78.412727,-46.360806,-21.26655,-164.95941
3160000000,-18.837435,156.28438,-78.381439,-120.82201,-77.042137,-102.69331,-13.573836,114.50468
3165000000,-22.641026,141.81714,-84.387505,126.1664,-81.921555,147.35805,-13.076664,-168.98457
3170000000,-17.171654,149.80014,-80.881546,118.12975,-80.353912,130.72742,-20.863104,95.359955
3175000000,-20.007013,71.835495,-84.334969,40.570255,-84.485649,7.0371208,-14.313371,147.92421
3180000000,-16.521217,179.77507,-79.301819,-76.382889,-81.887741,-50.275383,-15.089378,-176.8992
3185000000,-21.056044,100.61319,-82.016701,-159.12674,-79.772652,-138.42436,-22.53105,82.121056
3190000000,-17.321655,152.36717,-80.759636,101.06452,-84.159767,90.452438,-11.383176,158.49782
3195000000,-18.036657,128.6958,-83.794113,-17.787367,-90.037041,34.404263,-27.928713,-141.81996
3200000000,-20.870068,103.27973,-81.170509,-116.82718,-83.960167,-107.90253,-16.43582,121.39238
3205000000,-19.506662,116.97187,-93.069763,130.69418,-93.705994,-139.54449,-13.964595,161.08345
3210000000,-19.554892,149.40263,-89.629883,155.95064,-88.695976,100.23557,-29.854401,-114.17735
3215000000,-18.565073,115.1906,-83.832214,69.099037,-84.55101,66.829132,-12.341847,126.62524
3220000000,-15.099127,120.90551,-85.548561,12.25645,-81.872169,20.668846,-16.478004,-172.19289
3225000000,-18.558514,99.100311,-80.719589,-97.942223,-79.358635,-81.208588,-22.731964,132.81516
3230000000,-23.230835,110.02483,-78.948486,-160.86215,-81.724983,170.93654,-13.539638,128.88689
3235000000,-14.370516,109.84759,-80.585236,63.267204,-79.015533,89.381561,-15.714967,-151.24783
3240000000,-28.456545,133.34155,-81.907982,12.520679,-79.046288,-6.9137158,-15.655655,95.407982
3245000000,-12.209227,108.33994,-80.091629,-58.746456,-83.062851,-63.781708,-13.905659,167.52766
3250000000,-17.923008,92.796768,-80.21566,-175.72971,-80.047035,-176.60583,-20.778316,164.5764
3255000000,-16.038788,91.828873,-75.90757,107.22924,-76.433014,98.373116,-16.59721,102.76001
3260000000,-18.549862,86.956329,-77.818092,-2.7220638,-76.956039,0.25441766,-11.764614,166.89197
3265000000,-15.089542,133.58588,-81.342674,-78.292801,-76.654419,-58.080822,-28.885181,60.333752
3270000000,-13.677662,78.813423,-76.881592,172.52119,-78.574982,170.96124,-13.595243,137.57793
3275000000,-14.589898,97.552864,-75.933273,73.525345,-74.981041,72.791634,-15.989722,164.70482
3280000000,-16.164097,87.888466,-76.599686,2.182678,-80.017532,-2.1613319,-25.145082,97.918007
3285000000,-16.871262,72.867935,-78.393791,-95.780655,-78.466782,-119.50737,-11.275029,135.03127
3290000000,-14.132574,110.40514,-98.518486,170.64735,-94.229996,78.58432,-22.806128,-164.20551
3295000000,-14.30793,89.99881,-80.360008,100.42979,-83.435974,82.281746,-15.369802,113.64956
3300000000,-14.006864,72.491875,-89.554794,-174.2534,-92.976822,135.83257,-13.799646,138.35881
3305000000,-14.562386,86.522797,-83.150429,26.914074,-83.729019,10.777818,-19.940006,-163.0759
3310000000,-14.705227,76.291412,-82.077019,-80.054779,-79.499077,-78.062767,-12.14579,101.84638
3315000000,-16.060928,93.258865,-78.543488,-156.67171,-79.213959,-151.30171,-14.642452,174.34489
3320000000,-11.499424,77.196907,-75.515671,119.89579,-76.932304,107.26164,-18.612762,99.439171
3325000000,-16.961672,73.956459,-74.561646,21.288736,-76.197411,35.966164,-14.381689,112.86385
3330000000,-10.296812,84.722198,-71.78907,-75.636719,-72.931488,-70.963928,-14.232125,162.25423
3335000000,-15.445845,46.304638,-72.337791,174.5542,-74.404091,178.22441,-17.090935,69.089928
3340000000,-13.475777,90.197021,-73.442001,80.807358,-73.757133,73.579849,-11.870106,138.38579
3345000000,-12.181456,67.943222,-71.69339,-8.0893612,-70.746201,-13.800151,-20.981798,139.17465
3350000000,-13.98101,86.05217,-72.94165,-119.13577,-72.376694,-113.76391,-16.317648,83.868073
3355000000,-10.536033,59.554607,-73.537956,137.95036,-74.929527,139.05177,-12.016927,137.07414
3360000000,-15.807563,66.832619,-78.358299,53.627823,-77.235641,55.048298,-26.408155,23.716646
3365000000,-11.534625,72.201859,-82.592613,-2.4743912,-81.417046,-29.323799,-12.396536,106.67775
3370000000,-14.373328,63.254894,-79.000694,-102.75449,-80.197227,-124.4792,-16.645918,130.73831
3375000000,-12.084767,65.495178,-80.56546,178.64149,-91.357658,155.87987,-24.404158,89.717567
3380000000,-11.611117,62.858265,-97.041946,57.351219,-82.11972,133.34225,-11.210135,100.80568
3385000000,-11.958865,56.79744,-85.509003,56.151741,-80.132668,11.377593,-22.088995,-174.38873
3390000000,-13.464053,53.526672,-82.846298,-90.12011,-83.020607,-112.20826,-14.476047,76.41201
3395000000,-10.536159,60.279514,-81.545563,-104.77274,-93.404732,-65.730721,-15.602443,112.64277
3400000000,-13.319845,66.194496,-82.514389,175.2227,-83.769173,154.71599,-23.134001,155.57384
3405000000,-10.321815,58.675896,-84.714523,97.070992,-83.62812,59.70797,-12.588642,63.513683
3410000000,-11.842375,52.101017,-83.702339,-6.6540642,-81.595596,32.579323,-15.312891,144.86839
3415000000,-12.007615,54.935513,-78.698334,-78.612999,-74.411598,-83.837425,-18.675751,53.802753
3420000000,-12.675883,38.848091,-79.243668,173.47464,-81.549355,166.98924,-16.418493,81.264755
3425000000,-10.644962,69.554291,-77.48629,106.30406,-79.053185,93.663528,-16.240734,135.8353
3430000000,-10.567097,42.491356,-81.522141,-8.328207,-82.691315,-9.9316044,-17.195454,14.765114
3435000000,-11.234523,49.277386,-77.470741,-117.39411,-79.177574,-96.927956,-13.380317,113.84753
3440000000,-10.943155,51.213474,-78.392982,-170.24345,-78.276917,178.77652,-27.831717,36.545528
3445000000,-12.843339,35.290527,-78.704788,77.814568,-76.508621,61.241261,-19.143347,57.555546
3450000000,-10.261331,55.742146,-84.45829,-20.117815,-82.824661,-51.396152,-14.661318,100.05371
3455000000,-12.023961,48.706718,-81.585052,-127.57316,-79.646141,-140.27847,-24.63353,-72.549583
3460000000,-9.8763742,41.263996,-90.111031,89.492683,-94.816719,130.84537,-13.918958,74.022522
3465000000,-10.701531,34.473915,-86.422462,36.377304,-86.143715,49.192711,-22.79443,143.25078
3470000000,-13.056664,51.20417,-86.722,-138.22469,-89.171982,-94.132904,-27.861366,26.099741
3475000000,-11.156001,36.905075,-87.206245,7.7786121,-88.32663,-19.313831,-15.055604,71.389534
3480000000,-9.4451895,46.691486,-77.998207,-94.815681,-82.160858,-76.817482,-21.66798,-161.46611
3485000000,-12.458058,32.971657,-79.397476,152.51389,-83.504044,171.16862,-16.919132,39.671101
3490000000,-9.4304237,32.88039,-80.287636,138.78392,-80.568665,153.95578,-21.22978,108.00746
3495000000,-12.37343,36.746605,-81.756256,26.669855,-77.174477,36.229057,-25.423998,156.20152
3500000000,-10.88957,41.090115,-84.501251,-87.36937,-88.088783,-112.94785,-16.56444,27.876692
3505000000,-10.60949,31.880278,-84.534851,-169.21921,-87.538414,-137.80466,-15.243034,143.05956
3510000000,-10.104296,41.39502,-82.284752,92.96244,-82.271935,88.41761,-21.372519,-14.608664
3515000000,-10.590783,19.942097,-80.288483,-26.621717,-79.608299,-18.709789,-22.209967,92.002548
3520000000,-11.683544,40.310616,-79.169876,-127.97495,-81.988617,-127.96806,-20.617899,123.08201
3525000000,-9.594512,32.559101,-79.208366,100.31129,-80.342621,101.40489,-21.770607,-44.442894
3530000000,-13.508758,30.051741,-82.00248,22.820927,-84.332359,18.763779,-14.116969,97.906136
3535000000,-8.4214582,32.797657,-84.790283,-144.5443,-86.451309,-166.82489,-25.019331,-127.60255
3540000000,-12.952547,23.751461,-83.358391,47.780029,-90.620995,14.260663,-23.232618,71.144669
3545000000,-10.299479,29.475269,-82.965439,-17.369867,-81.814453,-27.944481,-18.922615,99.480209
3550000000,-10.764011,23.797264,-86.258507,-165.70491,-83.032219,-144.62141,-19.885384,-139.35397
3555000000,-11.509617,27.512342,-82.066673,92.096977,-86.061287,91.385818,-16.576429,57.867233
3560000000,-9.944953,30.051464,-85.624275,40.906925,-81.708282,30.414778,-20.02729,164.07614
3565000000,-10.310944,24.485922,-84.749916,-135.32199,-86.321304,-107.38599,-33.135036,101.48034
3570000000,-11.266749,21.421354,-95.622391,179.32104,-86.892204,124.404,-18.65535,50.940235
3575000000,-10.379772,30.45248,-88.466354,-15.547339,-96.484947,-73.702171,-15.690493,159.68097
3580000000,-11.148193,16.248268,-88.100128,-101.97011,-87.334816,-176.14595,-19.494001,4.3594713
3585000000,-10.07224,35.224937,-90.454765,108.4859,-90.169426,105.79556,-16.841562,127.1035
3590000000,-10.366714,13.81047,-88.437172,8.9684963,-92.658867,-157.23338,-26.319275,145.05704
3595000000,-11.339741,33.661915,-86.094276,-91.089539,-88.270485,-32.243015,-24.300278,7.6454587
3600000000,-9.0958452,15.100249,-84.909622,83.446075,-93.779678,-22.803787,-14.691793,115.62564
3605000000,-14.246063,28.997814,-79.510368,24.516647,-81.170273,28.832834,-23.10957,-77.764267
3610000000,-8.7164335,18.462358,-84.439217,-21.572708,-91.430733,-21.710743,-18.231192,81.231918
3615000000,-12.115915,28.45908,-85.769371,-107.06525,-89.270218,-143.97469,-19.589518,118.15397
3620000000,-8.9059858,19.453547,-80.014259,115.04468,-81.274704,101.79936,-26.246483,-107.94421
3625000000,-11.790486,11.196083,-86.053879,-31.829212,-82.953552,-10.876009,-14.02147,77.322647
3630000000,-10.015363,31.66865,-81.028633,-67.716904,-81.403923,-105.58488,-20.292727,-158.94893
3635000000,-11.253519,11.429886,-79.185387,-145.23375,-81.665642,-148.22589,-20.935352,59.935497
3640000000,-9.3519506,27.635588,-76.233223,121.09966,-83.094688,110.29723,-21.240644,80.1726
3645000000,-11.396091,15.692248,-86.184998,35.950527,-88.768173,37.159744,-18.956997,177.94525
3650000000,-10.335802,19.493534,-82.873482,-14.065473,-82.807205,-48.588783,-15.81051,24.865152
3655000000,-10.356607,15.747614,-78.459518,153.62282,-78.110176,166.04202,-16.854996,142.57544
3660000000,-11.432693,25.167305,-88.447388,46.694904,-86.061134,80.022751,-27.769199,31.108538
3665000000,-10.834119,10.525777,-83.46743,-31.841768,-81.300751,-50.991726,-23.982384,34.233898
3670000000,-8.4627256,28.008793,-84.792625,-144.33237,-91.481789,-106.00945,-15.770283,127.80213
3675000000,-10.72478,0.080639556,-86.593559,92.388733,-91.587677,164.12286,-18.61348,-47.874435
3680000000,-10.934132,24.469526,-82.877464,-63.861778,-88.828606,-61.117195,-16.256672,103.80403
3685000000,-9.8243141,18.461065,-87.005211,-175.19885,-82.622528,168.52574,-43.059437,-125.53059
3690000000,-11.898118,20.003132,-88.965721,35.803196,-83.419174,25.556635,-30.562649,-22.697042
3695000000,-7.4766965,13.329289,-81.022629,0.24343143,-82.284035,-20.463415,-16.123272,80.637962
3700000000,-13.015886,15.152693,-84.888962,-153.98604,-80.667892,-133.23688,-19.001551,-124.01487
3705000000,-9.4080057,14.510016,-79.864334,129.09647,-80.501808,124.13277,-17.763174,56.258781
3710000000,-10.129498,18.657169,-83.160782,25.714218,-82.486229,25.933517,-26.338442,140.20477
3715000000,-9.5125093,19.821142,-79.980278,-106.14924,-79.198441,-91.78952,-25.946781,-158.96497
3720000000,-10.531966,7.4296417,-82.172462,136.71477,-82.971764,127.44152,-17.793102,37.421986
3725000000,-8.9726553,16.755428,-88.413078,40.155098,-85.431297,33.787361,-17.979149,179.44934
3730000000,-11.131431,11.543829,-82.820229,-71.313545,-92.873779,-36.761532,-22.127865,3.6142976
3735000000,-9.1556606,15.690971,-84.696342,-168.08195,-82.602661,-148.36766,-26.977818,109.17793
3740000000,-9.5895004,11.083128,-83.511292,40.551289,-84.737068,44.307076,-19.621458,154.40544
3745000000,-8.9832582,16.295181,-89.610237,168.35724,-89.753174,-143.17432,-19.494917,-28.366714
3750000000,-9.8738194,0.72771621,-99.055733,107.95554,-86.354721,122.01517,-16.021212,131.54724
3755000000,-8.8337955,27.572109,-85.283455,73.928032,-89.215736,119.99644,-25.458817,-79.955406
3760000000,-8.4358606,0.48325804,-80.656975,-43.384212,-81.935471,-24.653959,-40.178009,116.81261
3765000000,-10.307726,18.216568,-85.677246,177.92714,-84.290443,148.55171,-19.407516,115.99467
3770000000,-8.1772356,8.3287029,-84.459984,121.25672,-88.053078,69.329369,-18.6782,-103.12377
3775000000,-11.020172,12.87362,-82.507164,53.276688,-82.3377,63.778675,-16.11837,87.168839
3780000000,-6.7009921,9.4319468,-80.045792,-82.169655,-83.26371,-98.953232,-22.226954,-149.5737
3785000000,-11.289135,6.8677626,-83.159294,-143.10692,-89.230087,-130.75436,-28.654099,161.0751
3790000000,-8.1570482,10.07504,-80.510406,95.686485,-83.69278,86.403557,-20.056087,72.478668
3795000000,-9.2641468,6.3792014,-82.35759,9.1018171,-80.52256,-15.122596,-15.286104,-164.64775
3800000000,-8.4814081,12.431145,-83.717262,-114.72841,-80.240005,-114.04936,-20.384768,31.102144
3805000000,-8.0462961,1.3100574,-87.891319,-175.26151,-81.693855,-175.28784,-19.108807,158.62418
3810000000,-9.3386574,7.8727231,-80.333122,54.056526,-88.195084,78.59935,-23.178774,149.19914
3815000000,-8.4398937,3.551441,-83.838997,-3.1511812,-85.267998,-27.661819,-24.720865,11.024714
3820000000,-8.4265614,13.856549,-82.458015,-123.03501,-98.425049,62.867233,-14.079572,145.47392
3825000000,-8.017601,-5.5270891,-91.928558,-135.69092,-81.389175,163.15181,-25.7939,-44.208195
3830000000,-7.8994617,10.216339,-87.86721,38.394657,-81.095573,2.4458854,-17.905781,128.05959
3835000000,-8.7760906,-6.4374733,-82.287109,-161.20309,-85.172218,-102.3546,-19.526569,143.86266
3840000000,-8.1817074,14.540236,-93.739479,-110.29317,-90.383766,-82.211205,-25.041168,-101.02549
3845000000,-7.2537723,-7.1728144,-90.53978,94.101585,-82.181923,77.474419,-14.39911,103.03813
3850000000,-8.8136253,9.1947498,-85.382751,-48.458961,-86.972366,-63.795742,-21.046741,-137.02611
3855000000,-7.2422624,-6.5948954,-87.076927,176.24553,-93.771393,-143.22458,-21.345432,97.147148
3860000000,-9.0856285,3.2883232,-83.909119,137.3187,-87.872276,129.06979,-18.492596,100.66126
3865000000,-7.4614053,0.91228193,-93.638474,-44.147018,-104.77152,28.212423,-18.674992,-169.84673
3870000000,-7.8219075,-9.1153421,-87.51178,-78.515747,-87.302994,-82.271393,-15.696154,67.077133
3875000000,-7.3935947,5.4096932,-84.10331,142.58968,-86.056053,144.30655,-16.843094,165.233
3880000000,-8.7691994,-15.8419,-88.973717,54.253246,-82.609474,19.025398,-24.290077,97.517448
3885000000,-6.4788189,3.227612,-79.182175,-68.043411,-83.719658,-68.238953,-21.606497,66.097847
3890000000,-8.4667101,-11.063209,-88.715004,-134.83974,-88.450493,-162.36885,-14.558589,152.15799
3895000000,-7.6267333,-1.9179341,-84.267815,99.865555,-87.87249,126.36636,-18.464943,10.080332
3900000000,-7.3713365,-8.5545425,-85.668655,-23.249512,-84.3181,-33.662045,-14.805828,124.89125
3905000000,-7.6897802,-7.2973108,-83.855843,-106.69946,-83.151321,-105.83289,-24.126509,106.1618
3910000000,-8.3815546,-12.049824,-85.610764,132.33606,-85.107254,156.40086,-28.046352,45.258362
3915000000,-6.8617082,-5.5497355,-86.251724,94.810394,-85.929047,23.212843,-13.487975,108.32245
3920000000,-7.5265069,-14.788721,-80.85833,-28.778204,-83.381859,-23.084742,-23.920162,-84.653198
3925000000,-7.736187,-9.8582764,-83.577919,-162.54863,-80.900879,-148.04105,-15.583808,93.725891
3930000000,-6.7302799,-15.17206,-86.213516,104.53281,-90.243301,-172.70264,-22.1667,94.721474
3935000000,-8.6279964,-8.9528313,-81.030228,28.499596,-84.212769,5.1121669,-28.957134,-179.3308
3940000000,-6.7530494,-17.018194,-82.82682,-126.81901,-83.971268,-155.40498,-13.314264,65.29818
3945000000,-7.423409,-11.917344,-80.132561,144.97884,-84.005829,150.45772,-19.140596,-176.63144
3950000000,-7.0550799,-17.35742,-84.335045,10.957541,-82.665787,24.722879,-16.860874,56.690983
3955000000,-7.793097,-23.476355,-81.992668,-37.674316,-82.430351,-17.530128,-23.028839,94.527992
3960000000,-6.5900345,-8.1098318,-80.22406,-146.69035,-83.585907,-144.46501,-19.572802,135.64668
3965000000,-7.9456816,-27.062075,-88.342911,40.020645,-84.567566,85.872749,-16.761444,23.721653
3970000000,-6.5361595,-13.35861,-87.144356,24.661642,-82.66153,-3.1297653,-17.207306,132.24321
3975000000,-7.4037223,-25.085196,-82.87323,-86.081543,-80.536842,-80.344185,-22.366753,28.155952
3980000000,-8.1177235,-17.476488,-78.151657,115.34934,-82.254868,126.44915,-23.519587,53.365852
3985000000,-6.2462487,-25.516521,-82.262787,28.780846,-88.772095,20.557016,-16.472029,108.06464
3990000000,-8.1476316,-21.306746,-80.595253,-41.57687,-80.040314,-31.0186,-20.176285,-36.269184
3995000000,-6.7125821,-21.606575,-80.831635,178.01213,-78.353485,156.59439,-15.119812,95.351006
4000000000,-7.3066773,-23.802391,-78.93219,37.019413,-79.73848,47.283592,-29.934032,23.434246
END

