!CSV A.01.01
!Keysight Technologies,N5247A,US56070710,A.10.64.09
!Date: Sunday, November 20, 2022 00:10:31
!Source: Standard

BEGIN CH1_DATA
Freq(Hz),S33(DB),S33(DEG),S34(DB),S34(DEG),S43(DB),S43(DEG),S44(DB),S44(DEG)
3000000000,-11.625858,177.76093,-62.889324,75.239807,-63.158184,74.931152,-18.666573,-164.34616
3005000000,-11.749394,60.306938,-64.966682,58.445438,-64.728096,54.59008,-17.220671,-157.6709
3010000000,-10.679186,106.21361,-61.343456,59.654251,-60.759228,58.18742,-15.470454,-169.25792
3015000000,-10.562451,163.2236,-63.46423,27.066753,-63.036461,24.813681,-16.261646,-157.17795
3020000000,-11.206289,32.611603,-70.852592,-2.8351722,-72.779388,0.91089851,-16.056854,-178.29254
3025000000,-6.6295009,129.82965,-61.099297,-28.127766,-61.830051,-27.447973,-14.863302,-161.39374
3030000000,-25.60911,59.63921,-59.659927,-76.116684,-59.188351,-78.915695,-18.58292,173.17525
3035000000,-9.7161665,57.17659,-62.251369,-111.62241,-63.00275,-108.21419,-13.882577,-174.08447
3040000000,-6.747067,137.3577,-63.676479,-123.74139,-64.308609,-120.84368,-18.863632,173.16037
3045000000,-19.067467,-21.973896,-72.016373,103.62286,-70.125046,115.80611,-15.503495,170.41512
3050000000,-7.5072646,84.50724,-68.591652,165.67877,-68.810013,176.3476,-14.280354,166.8855
3055000000,-8.4251528,125.93387,-66.487099,96.868309,-65.687492,98.731499,-16.530499,-177.34615
3060000000,-11.113646,-4.7115989,-67.197128,65.020111,-67.889305,58.911064,-14.536831,156.02444
3065000000,-5.163434,105.37788,-73.121635,6.3592186,-70.940826,11.065423,-15.806542,-174.54349
3070000000,-21.596714,173.80598,-74.88266,21.095367,-74.934067,11.253815,-16.937965,148.81273
3075000000,-9.1367884,59.104046,-62.272629,90.059052,-62.316185,95.19236,-15.904686,163.15756
3080000000,-4.8020048,100.05835,-61.523693,19.631296,-61.624512,19.358347,-16.801023,154.10083
3085000000,-15.058209,-100.35517,-67.653755,-24.005604,-67.972252,-28.43269,-16.902479,148.18265
3090000000,-4.5634756,70.262283,-64.14064,-29.303144,-64.239655,-30.379644,-13.716928,148.63803
3095000000,-13.224339,140.46967,-62.874615,-60.559151,-62.952999,-59.063412,-18.444925,168.50774
3100000000,-14.367854,76.279793,-58.697086,-85.295746,-59.080494,-83.945374,-14.294351,136.97768
3105000000,-5.4281983,64.112694,-60.669502,-139.51181,-60.791447,-139.63995,-16.770174,171.25804
3110000000,-9.135581,146.95535,-66.453712,156.10664,-65.970146,148.06352,-17.340462,127.98929
3115000000,-7.8692579,15.828998,-69.306686,-119.52342,-69.271881,-123.65668,-16.914495,151.84773
3120000000,-6.165122,97.402405,-72.533257,-150.75856,-71.865715,-147.69525,-16.902775,130.65884
3125000000,-15.643481,151.63484,-69.997574,169.17654,-70.137558,160.27121,-17.557329,142.64415
3130000000,-5.2096553,37.601959,-71.767326,72.636421,-71.643311,73.899361,-15.262533,128.16267
3135000000,-7.4033003,107.29067,-67.421867,-163.11646,-67.201157,-160.85204,-17.993628,160.13353
3140000000,-16.667786,39.411945,-59.277618,160.63182,-59.214993,161.12366,-15.791276,117.60232
3145000000,-7.1595893,36.543171,-57.8549,87.187965,-58.466206,86.006088,-17.047724,153.0137
3150000000,-5.4918714,123.2238,-61.510822,47.858772,-61.091389,42.252037,-18.637402,134.32498
3155000000,-8.1893692,14.265317,-62.134167,-63.343723,-62.145443,-60.81147,-18.902542,121.51732
3160000000,-6.45122,73.086945,-71.879745,-23.538353,-72.059242,-26.494787,-16.421663,138.18716
3165000000,-12.546477,83.457817,-65.522324,2.205508,-64.798409,6.8630772,-19.362324,110.75305
3170000000,-12.68352,16.887638,-63.534916,-118.52203,-63.499786,-113.41604,-15.033009,134.22144
3175000000,-5.5097914,85.327766,-59.604671,-168.46115,-60.016979,-170.73715,-18.661581,139.17285
3180000000,-18.594679,-2.6661551,-63.268116,90.243362,-63.392128,91.901344,-17.732986,123.66574
3185000000,-4.8776193,44.090534,-64.946854,-23.707396,-64.636726,-27.674635,-16.611172,148.22279
3190000000,-9.8254185,79.481476,-61.614681,-102.54504,-62.147114,-101.65219,-21.476629,136.75279
3195000000,-17.058008,-7.8324275,-69.758179,-175.01276,-70.994934,-172.7307,-21.070614,114.77227
3200000000,-4.0746484,49.533768,-67.975464,45.483322,-68.354622,44.67268,-15.788422,124.55006
3205000000,-10.177629,116.1918,-65.469254,-89.729004,-64.470993,-87.339684,-26.369537,126.395
3210000000,-7.2141852,3.1941831,-61.833714,154.64395,-62.584362,158.31421,-13.71945,114.42449
3215000000,-5.9028258,59.365047,-60.521568,73.595055,-60.557709,73.157318,-21.710735,143.64413
3220000000,-19.117039,73.835968,-62.854179,20.157925,-62.062382,17.074337,-15.739169,123.46285
3225000000,-6.9139934,10.934766,-64.840866,-82.564705,-65.271492,-89.366966,-18.511591,129.77824
3230000000,-6.6048493,76.15757,-66.044907,69.69738,-65.449562,71.673958,-18.329329,145.29559
3235000000,-16.381653,39.340134,-64.18232,0.92451757,-63.395237,7.799953,-19.992464,103.85664
3240000000,-2.7110522,19.093073,-62.874969,-93.292953,-62.37785,-95.133507,-16.465902,128.59557
3245000000,-10.56728,125.69612,-67.004349,-166.87558,-67.262314,-170.63928,-20.874659,134.82848
3250000000,-8.4257603,2.763751,-65.2799,33.0756,-65.199585,30.41272,-16.771656,101.30826
3255000000,-6.613677,41.908718,-59.149521,-42.046982,-59.651325,-41.907394,-17.42148,138.01392
3260000000,-11.164558,77.459038,-60.040455,-121.11207,-59.985611,-119.27612,-16.433319,107.12531
3265000000,-5.0867968,-11.888436,-66.436974,-175.57312,-66.481934,178.83057,-17.788425,133.62054
3270000000,-4.8641958,64.312393,-66.961525,-24.010368,-66.632813,-22.133055,-17.000383,124.38045
3275000000,-14.403618,-51.557728,-62.154144,-129.21205,-62.520649,-127.46786,-20.701052,100.22865
3280000000,-7.6219883,32.736847,-63.048298,155.97261,-62.95845,159.40848,-14.285386,120.35458
3285000000,-5.737618,53.587643,-61.932751,79.586853,-62.253819,80.762085,-21.416655,117.17273
3290000000,-9.3235636,-59.417618,-67.707352,-30.597862,-67.809212,-33.620716,-15.508876,105.74814
3295000000,-4.3840771,24.257053,-64.050049,-163.22131,-63.89917,-158.92366,-15.566634,117.96918
3300000000,-11.06719,72.473701,-63.678009,107.31834,-63.280571,113.49638,-18.123272,121.15593
3305000000,-7.8044844,-35.692768,-67.829239,-6.4695969,-67.988121,2.9623542,-15.972388,108.20547
3310000000,-4.4805164,42.254986,-68.934258,-54.228874,-68.789009,-59.090466,-17.010075,127.35183
3315000000,-22.530308,18.912437,-65.158485,118.00202,-66.553535,118.83449,-20.288324,90.719978
3320000000,-6.6154861,-9.0678387,-59.781345,31.677376,-59.478436,32.060783,-14.491149,105.64483
3325000000,-7.1027217,27.422474,-61.812042,-37.125198,-62.177296,-36.290825,-20.482462,102.62388
3330000000,-13.479218,-116.08067,-62.61203,-137.20151,-62.649906,-141.24657,-13.878363,96.278465
3335000000,-2.2096958,7.9962664,-69.313263,152.87386,-69.033417,150.26993,-17.496531,106.6496
3340000000,-13.85418,61.910797,-69.568497,-31.019857,-69.213448,-27.882179,-15.12942,108.75485
3345000000,-9.3663387,-28.066013,-63.419003,-114.47417,-62.981113,-111.04533,-18.699165,87.225883
3350000000,-4.1072898,-4.7911062,-65.146477,158.81337,-65.19799,157.74791,-14.900068,112.03997
3355000000,-12.860074,105.43088,-66.16832,40.6297,-66.271828,38.239025,-21.997953,69.859367
3360000000,-5.7874155,-40.750446,-65.587311,-79.550346,-65.682312,-83.278893,-14.709872,92.504051
3365000000,-4.6298413,30.317373,-63.559551,175.66664,-64.203934,172.92134,-19.475132,74.889183
3370000000,-12.94318,-37.771717,-62.559433,114.0063,-63.00156,116.88877,-14.921241,85.840225
3375000000,-4.8812151,-22.837439,-63.328796,30.037609,-64.264793,26.917976,-16.502934,85.164993
3380000000,-11.029497,50.70155,-75.459435,-112.99437,-76.07029,-111.73193,-17.668283,97.578148
3385000000,-19.375826,-47.486305,-64.80761,98.936363,-64.31131,100.58362,-17.519857,69.351173
3390000000,-2.5368943,-12.648347,-62.49255,27.488188,-62.626564,21.984924,-16.84,88.309441
3395000000,-14.527268,88.403336,-63.397247,-40.118908,-63.656757,-42.473621,-19.125305,71.485748
3400000000,-4.7587614,-53.943825,-63.661354,-112.88981,-63.604332,-110.52518,-16.809765,71.623085
3405000000,-8.1345596,-2.6122775,-69.444649,96.507813,-68.903297,98.512444,-19.14395,71.55191
3410000000,-14.535232,43.899158,-65.565811,-17.957178,-65.522354,-15.507928,-15.992355,66.096161
3415000000,-3.8976431,-42.733528,-66.595955,-78.776672,-65.97271,-87.245995,-18.119308,72.748604
3420000000,-6.6172104,26.365744,-66.454834,166.23904,-66.549995,161.13431,-17.596056,86.371872
3425000000,-12.800484,-92.920761,-69.380676,36.80592,-68.198265,33.428707,-20.428076,44.833408
3430000000,-4.7808633,-23.816191,-61.656189,-77.55674,-61.28326,-76.190521,-17.376429,83.172531
3435000000,-16.684597,37.310707,-61.214767,-149.49953,-61.804554,-151.08688,-22.53771,42.043491
3440000000,-9.4611254,-58.216892,-62.802608,113.87345,-62.996529,108.01543,-20.054964,52.24456
3445000000,-4.5150609,-20.322361,-63.423298,25.67284,-63.785023,29.41893,-16.910255,55.88448
3450000000,-16.194458,44.00967,-66.377838,-136.80093,-66.197533,-130.4567,-22.914999,62.12281
3455000000,-5.3724003,-68.480232,-62.277344,137.55617,-61.982441,137.10945,-17.842726,55.845577
3460000000,-8.0033388,12.806671,-59.887333,36.060261,-60.887367,36.278801,-20.330515,75.076447
3465000000,-13.978211,-66.345627,-59.867889,-62.210537,-60.28706,-60.275635,-25.33482,52.888191
3470000000,-6.3463521,-50.236652,-65.915344,-156.94849,-66.149239,-149.66748,-18.236141,61.774494
3475000000,-7.2598448,14.691934,-62.938637,63.289085,-62.928467,63.526989,-34.74596,118.47962
3480000000,-7.4723892,-102.87072,-60.705345,-41.135742,-61.29425,-39.532528,-19.612471,36.735626
3485000000,-3.6511672,-22.316769,-61.211578,-119.68975,-61.301605,-120.80499,-21.473694,46.10714
3490000000,-20.270912,122.722,-60.632202,119.53662,-61.573597,121.21774,-23.502153,104.49759
3495000000,-8.6388903,-54.841461,-64.553825,4.2823081,-64.897873,5.0693345,-17.477013,16.800289
3500000000,-4.5369344,-25.469286,-59.219193,-110.51619,-59.477608,-111.35123,-17.860558,111.56059
3505000000,-21.554937,163.91597,-58.038002,157.70607,-58.253811,158.74525,-24.173923,9.4679365
3510000000,-4.1004558,-72.022606,-61.479053,76.586319,-61.259514,81.005707,-21.516924,95.609062
3515000000,-7.2373095,22.702648,-63.309883,-75.780403,-62.886986,-77.202461,-29.977427,51.517776
3520000000,-12.37271,-113.9959,-62.741356,-160.71417,-62.747623,-156.18208,-26.35051,21.033646
3525000000,-5.5084763,-46.834606,-61.264359,63.518955,-62.195923,66.444824,-19.953695,61.48587
3530000000,-10.808642,-16.371981,-60.482273,-8.7460938,-60.827438,-2.0265653,-23.17531,92.560852
3535000000,-8.9339504,-117.76945,-62.36129,-139.85376,-61.831921,-136.96204,-25.491947,36.776875
3540000000,-5.5630422,-34.449821,-60.211147,109.44006,-60.227242,107.41103,-17.440531,98.859306
3545000000,-13.572536,51.481609,-61.211243,34.305515,-61.200253,32.066547,-34.172546,-109.59437
3550000000,-4.2553086,-76.364799,-60.970711,-81.957466,-61.597878,-82.110977,-19.071218,79.869186
3555000000,-10.606939,5.1193738,-66.203224,173.88097,-66.733604,178.82629,-36.959263,156.94353
3560000000,-13.102084,-85.536484,-62.121212,31.071493,-62.630535,34.471607,-23.718622,80.904922
3565000000,-8.2084808,-101.97997,-58.849716,-79.169151,-59.023308,-82.812126,-23.855759,43.060322
3570000000,-4.3379941,3.7055833,-58.624954,-162.60445,-58.935051,-160.98344,-22.95293,96.977325
3575000000,-7.2715654,-139.21613,-60.538631,96.705399,-60.250324,98.818863,-22.116138,57.974072
3580000000,-5.035428,-43.280975,-64.331497,-0.27091125,-64.259552,8.6424761,-21.058281,94.665016
3585000000,-16.04701,-32.850101,-66.919487,-175.14212,-66.420776,-177.34486,-23.90086,102.08639
3590000000,-9.3755283,-138.83768,-61.073174,89.525131,-60.912647,87.923683,-29.836721,53.487087
3595000000,-3.7972772,-32.801388,-59.601631,14.893331,-59.387856,16.103968,-19.144394,85.936523
3600000000,-20.360428,166.84554,-62.53614,-133.94164,-61.987503,-133.67015,-41.650318,144.64481
3605000000,-5.0914588,-76.75032,-61.361946,158.56967,-61.167183,158.32234,-20.355778,52.903198
3610000000,-8.865531,-22.658373,-60.19437,36.696392,-60.488312,39.46714,-21.744444,86.146744
3615000000,-14.854195,178.81763,-65.806366,-33.459087,-66.233109,-34.326107,-24.615978,71.627899
3620000000,-5.8317065,-69.897758,-71.616432,-143.60515,-71.443871,-134.34973,-20.9051,66.374023
3625000000,-10.865537,-21.672091,-59.627262,28.458872,-59.686028,30.947857,-21.71077,104.5966
3630000000,-15.873964,-172.83548,-60.813843,-47.123478,-61.399147,-46.404495,-29.464565,63.222977
3635000000,-2.4719489,-73.558128,-59.296783,-126.87403,-59.818253,-128.1837,-19.844645,59.447605
3640000000,-14.183042,78.750099,-63.891457,129.83011,-64.714172,126.39157,-22.979919,151.30531
3645000000,-5.1869607,-90.785713,-66.722252,0.23201771,-67.013397,1.7740906,-17.795536,10.897022
3650000000,-12.894425,-36.135239,-61.98774,-117.29663,-62.345245,-121.0911,-19.078653,108.16448
3655000000,-9.8777657,-21.681894,-62.798534,130.2943,-61.932995,131.40971,-22.747108,11.989807
3660000000,-3.1096916,-110.88792,-63.204655,5.9215355,-62.99572,8.8361034,-21.465906,85.756027
3665000000,-5.4730368,14.744061,-60.823021,-82.388588,-60.828896,-86.293388,-22.220186,66.033264
3670000000,-7.4485016,-135.28313,-59.462242,-170.73265,-59.626846,-171.38252,-31.713276,124.66167
3675000000,-8.9101,-57.5597,-63.361794,105.54232,-63.181343,103.46496,-21.859793,47.834034
3680000000,-8.7684593,-37.06176,-64.481651,3.0441768,-65.036407,-0.95301068,-24.681471,131.43007
3685000000,-7.7323556,-141.06296,-64.34993,-178.93016,-64.119141,-178.80054,-22.477915,-30.44383
3690000000,-4.4950399,-46.199131,-62.081039,91.189644,-62.258041,90.856651,-19.436859,70.070198
3695000000,-27.00938,150.43886,-60.916061,-4.890295,-60.403332,-2.6188591,-31.400791,-31.620546
3700000000,-7.5477166,-108.78418,-60.816441,-109.66396,-61.054554,-107.82722,-21.888096,62.811443
3705000000,-4.7177172,-33.44141,-59.029591,167.04103,-58.976631,168.0255,-23.658009,42.004704
3710000000,-9.1364679,-174.35254,-63.111126,79.428024,-63.269222,82.122658,-24.179405,143.61781
3715000000,-4.6736984,-68.923477,-68.177628,-51.215786,-67.622406,-49.506523,-19.207954,23.348877
3720000000,-10.426021,-55.072712,-65.774017,173.88306,-65.582909,169.9333,-20.129194,157.15891
3725000000,-11.214697,167.429,-61.601597,60.163872,-61.227829,61.322403,-21.490137,-4.5253992
3730000000,-1.5045688,-63.528061,-58.432144,-25.408979,-59.245857,-24.698267,-25.957235,88.153282
3735000000,-15.648657,102.51554,-60.417706,-115.8075,-59.936207,-119.1129,-24.438129,88.583954
3740000000,-7.0142617,-94.100784,-61.100365,121.57603,-61.394047,118.45986,-40.376057,-8.6386967
3745000000,-5.4364681,-83.692505,-61.426888,36.826466,-62.108143,38.493015,-21.608686,90.316589
3750000000,-10.776465,56.017773,-68.227592,-68.819389,-67.820183,-66.2099,-28.326912,174.45724
3755000000,-1.9786495,-122.03979,-62.02618,135.09535,-63.10363,140.32782,-27.445938,31.445898
3760000000,-5.1222968,-5.8482823,-60.113834,50.10051,-60.272301,54.290455,-21.234718,134.30901
3765000000,-4.7812109,-111.38416,-58.763493,-45.85788,-59.024529,-43.785545,-25.306736,-47.663818
3770000000,-6.850585,-131.15338,-58.42807,-135.74535,-58.356174,-139.63756,-21.916319,92.321449
3775000000,-5.1920056,-14.213904,-59.930721,123.49277,-60.512596,124.1407,-26.268526,68.895599
3780000000,-5.7696815,-155.32994,-64.236885,12.45296,-63.994728,7.1089129,-25.225231,155.13834
3785000000,-3.6323781,-60.962582,-62.620476,-70.451164,-63.072418,-72.628845,-18.220932,55.349316
3790000000,-13.029216,-82.228836,-63.581051,134.2048,-62.682137,135.76195,-17.057287,160.81366
3795000000,-4.3163795,-150.25601,-62.306744,32.484741,-62.818405,32.358761,-24.727255,29.407196
3800000000,-5.2040906,-34.328949,-58.881863,-68.60347,-59.001236,-70.018135,-19.523039,136.68442
3805000000,-12.819521,-118.68696,-60.033253,178.85573,-60.138786,179.36871,-47.986748,1.0966415
3810000000,-6.7587681,-120.62407,-59.776855,109.83241,-59.481983,107.92368,-21.949253,85.500465
3815000000,-3.170805,-66.942261,-59.504108,5.8261919,-59.325371,6.2692146,-23.206867,107.49456
3820000000,-4.3913279,148.16541,-67.024368,-86.938309,-66.883255,-79.466072,-23.938379,115.77962
3825000000,-1.1000251,-66.094856,-65.872147,120.99884,-66.164551,128.47044,-20.673172,63.55315
3830000000,-12.168587,-155.38702,-61.17865,6.9145107,-60.856262,4.8829665,-15.277549,130.07993
3835000000,-12.886966,-109.67453,-59.404301,-68.960724,-59.242058,-68.594429,-36.147678,-58.266712
3840000000,-2.1467578,-106.64169,-58.23296,-175.82162,-57.971893,-176.74611,-18.010517,108.16902
3845000000,-10.370259,68.079109,-58.912098,93.043594,-59.049744,97.389954,-30.656294,113.05992
3850000000,-1.51632,-110.9673,-60.045563,-3.0510681,-60.096973,-2.5403214,-24.691347,97.27282
3855000000,-10.10097,-106.46663,-61.646832,-124.26617,-62.021965,-123.59978,-18.446684,70.941811
3860000000,-20.158905,-113.99462,-67.894478,115.06133,-68.390503,126.50462,-22.382158,143.03499
3865000000,-3.3311539,-119.99139,-64.322662,-6.6678209,-64.070236,-5.1463542,-15.761416,57.188465
3870000000,-9.794754,-42.948566,-59.856411,-108.54614,-59.848682,-110.03413,-16.909658,141.78065
3875000000,-5.2004156,-136.09933,-57.929409,171.00317,-57.495556,172.0556,-20.904243,56.46471
3880000000,-5.3863335,-135.1512,-57.385952,74.127029,-57.19117,75.737846,-21.623922,116.85976
3885000000,-9.4638433,-10.624905,-60.453659,-18.354246,-60.563557,-18.075932,-19.062593,83.661865
3890000000,-1.6960942,-138.03946,-64.494194,-136.01242,-64.182953,-128.49599,-36.513905,-158.65251
3895000000,-8.3106546,-87.801735,-63.250191,126.45694,-63.589203,126.51694,-14.69031,55.144962
3900000000,-8.3220587,-113.9835,-65.455162,1.0777047,-65.758064,2.2735367,-19.466835,131.84785
3905000000,-4.1428609,-160.61592,-60.979973,-106.25809,-60.706928,-102.42481,-17.916748,33.88554
3910000000,-4.1018138,-38.087456,-58.199627,155.90367,-58.464542,154.25179,-15.768817,104.79211
3915000000,-2.6791403,-160.39958,-58.819042,58.50626,-59.412582,58.534645,-25.733253,47.03933
3920000000,-6.149446,-90.755943,-59.538712,-57.684151,-59.547756,-52.898319,-19.787169,87.467484
3925000000,-7.3631401,-127.46576,-61.626072,-138.9761,-61.069462,-136.06363,-19.508255,63.595974
3930000000,-8.0997362,142.1991,-64.143372,112.93859,-64.493866,113.72785,-26.493849,155.00735
3935000000,-0.47406435,-97.805077,-66.270256,3.6097777,-66.316536,3.8562744,-14.115767,31.464476
3940000000,-15.649837,111.22558,-63.76387,-120.90881,-64.874649,-117.24804,-18.37134,125.07814
3945000000,-1.7394027,-143.90753,-60.25716,133.74522,-59.708447,135.59468,-17.477596,21.800085
3950000000,-8.4533739,-94.954796,-57.413799,42.322884,-57.095112,43.07156,-16.589972,84.328682
3955000000,-13.006839,166.52115,-58.424915,-42.259651,-58.538643,-45.014095,-27.716703,106.86581
3960000000,-3.8560395,-133.19969,-60.311661,-124.55701,-60.474262,-128.0712,-18.466455,31.754639
3965000000,-10.50975,-103.23836,-67.274826,96.007584,-67.846962,102.52684,-19.523539,99.652115
3970000000,-6.6559501,173.90471,-62.977547,-12.551357,-62.544376,-16.96244,-25.915462,0.018040203
3975000000,-2.0751476,-130.91142,-62.009747,-123.997,-61.725864,-125.48643,-17.671154,34.333851
3980000000,-21.776752,-18.850012,-61.568157,119.84685,-61.219604,116.6069,-19.483906,97.310585
3985000000,-3.4133141,-158.05121,-59.131744,36.619583,-58.851318,38.205803,-19.825665,2.3571203
3990000000,-9.0119848,-134.71167,-61.109798,-60.410236,-61.246902,-60.466759,-18.675913,82.010086
3995000000,-14.867082,-97.126915,-62.893593,-167.90599,-62.178242,-170.07018,-24.605324,50.153835
4000000000,-0.24261987,-175.57176,-61.602146,134.00107,-61.420425,130.96953,-30.384497,-2.2673109
END

