!CSV A.01.01
!Keysight Technologies,N5247A,US56070710,A.10.64.09
!Date: Thursday, November 10, 2022 01:14:53
!Source: Standard

BEGIN CH1_DATA
Freq(Hz),S33(DB),S33(DEG),S34(DB),S34(DEG),S43(DB),S43(DEG),S44(DB),S44(DEG)
3000000000,6.0013924,22.99859,-80.43306,-124.1601,-88.219246,-158.83327,-16.063742,-137.24097
3005000000,5.6685524,-75.775162,-65.225494,156.48393,-64.935547,162.52831,-15.657446,-137.03679
3010000000,6.8955154,178.09087,-71.215874,148.44699,-70.73539,150.37198,-15.763457,-139.78046
3015000000,7.3013806,103.82835,-68.841293,102.38087,-68.891174,116.48298,-15.892308,-143.84328
3020000000,5.6703887,-9.1790867,-74.069733,60.475624,-74.50499,59.199265,-15.601686,-144.25523
3025000000,6.3658862,-105.839,-74.893562,-98.542488,-75.001625,-105.8502,-15.35337,-145.48074
3030000000,6.5620551,157.75429,-65.521469,1.8743635,-67.256889,5.3844428,-15.316996,-150.13351
3035000000,8.3596983,67.441689,-66.853706,-101.9044,-63.644268,-102.35506,-15.42191,-154.49364
3040000000,3.8617146,-33.729435,-65.188148,-102.72529,-66.304901,-106.12885,-15.430234,-158.95818
3045000000,7.0055552,-139.92874,-75.476303,-127.93447,-74.04921,-125.342,-15.119896,-162.91823
3050000000,7.428062,135.36301,-82.513222,-164.07336,-81.150131,-118.02165,-15.073285,-162.1886
3055000000,6.8286223,41.897266,-75.630096,-95.560768,-72.892517,-102.80805,-15.450817,-162.11626
3060000000,5.109097,-60.310051,-84.59314,174.68147,-86.059418,-172.11974,-15.344691,-167.80997
3065000000,6.9538035,-169.67862,-83.046379,65.941902,-83.781982,25.145683,-14.882328,-171.67795
3070000000,7.4543748,114.52998,-70.093849,-27.017069,-68.685829,-12.251916,-15.232277,-170.64626
3075000000,6.035871,6.0144196,-69.143318,-158.00139,-68.049309,-169.01471,-15.91199,-173.17505
3080000000,4.8243971,-93.174385,-62.217384,93.186684,-62.585949,98.282722,-15.988673,-177.08574
3085000000,6.1192794,166.04488,-64.5979,47.502857,-65.991478,41.28104,-15.789232,-177.00357
3090000000,8.3737783,86.300476,-69.718292,3.1904719,-67.028831,9.7166605,-15.996567,-177.10439
3095000000,4.4667954,-16.484398,-72.930969,-45.814575,-73.404305,-57.892281,-15.997387,177.85011
3100000000,6.1834865,-124.69964,-79.561371,67.616432,-78.955269,51.032291,-15.961744,174.11737
3105000000,7.1597819,142.08659,-67.838615,-39.011417,-68.3405,-32.524925,-16.165819,173.54742
3110000000,7.5261087,55.840183,-66.710297,-154.5016,-65.692047,-148.70313,-16.492905,172.4502
3115000000,4.5908217,-43.233562,-68.787231,119.55123,-68.372528,122.68507,-16.500889,171.97903
3120000000,6.8198514,-157.25905,-65.344917,34.868877,-64.744644,33.649891,-16.494635,172.92004
3125000000,7.1345172,124.63728,-67.881775,-23.815937,-69.457794,-12.96641,-16.54174,171.7914
3130000000,7.4925318,22.589739,-74.002518,161.36775,-73.774216,150.44153,-16.911768,167.81638
3135000000,4.3801255,-75.176651,-71.107056,65.882935,-72.601448,65.634346,-17.406191,164.29297
3140000000,6.1355162,175.60176,-62.051971,-41.768246,-62.194016,-46.842224,-17.686832,162.85265
3145000000,8.6797733,97.843819,-66.596031,-105.01579,-64.977089,-97.400497,-17.594389,162.8967
3150000000,5.6155505,0.13369513,-73.831032,-150.51991,-71.451683,-150.6476,-17.42914,163.4706
3155000000,5.7982187,-104.61639,-74.161087,-130.8768,-73.514687,-145.23421,-17.231115,163.42216
3160000000,6.7799435,151.55534,-71.266899,-95.638832,-72.254112,-87.408569,-17.17684,161.07405
3165000000,8.4679842,72.149849,-66.467285,150.20015,-64.757416,156.24318,-17.600327,159.34579
3170000000,4.6851573,-26.614786,-61.840511,55.666214,-62.389656,48.989815,-18.031263,159.98227
3175000000,5.7987938,-140.93599,-66.914223,-31.323645,-67.741974,-34.386749,-18.045214,161.97018
3180000000,7.1225238,133.30678,-66.545456,-135.86246,-67.849449,-125.61919,-18.022665,162.86024
3185000000,9.0604992,35.347187,-70.343964,-175.81192,-67.572609,-178.43892,-18.153833,164.39548
3190000000,4.2916389,-55.334171,-63.663757,61.228153,-64.618141,59.086739,-18.32247,161.58531
3195000000,5.9320254,-174.01772,-64.838158,-130.47533,-65.644012,-132.70692,-18.577303,155.49438
3200000000,8.4432173,105.99194,-63.745815,132.06641,-62.058147,142.7332,-18.444283,152.87134
3205000000,6.4317045,8.4037066,-67.935478,73.261299,-67.3311,69.890793,-18.649864,158.75264
3210000000,6.7703285,-81.438156,-64.577026,-69.692108,-65.520653,-66.811028,-18.786686,158.92165
3215000000,7.9326954,160.28188,-68.535004,-146.6201,-68.348152,-148.1404,-18.423183,154.21999
3220000000,11.161251,83.610809,-72.020348,134.52342,-68.040321,148.43669,-17.494112,155.15221
3225000000,7.3029699,-19.551575,-64.829239,-47.910088,-65.081741,-63.297043,-17.653633,158.47731
3230000000,7.7746019,-124.2404,-64.144371,-153.27582,-63.884972,-153.71841,-18.520468,155.26031
3235000000,7.2933784,138.61305,-63.883213,119.04416,-64.816971,127.02864,-18.567793,153.18201
3240000000,11.140642,43.595875,-63.479149,21.009113,-60.70919,18.459206,-17.926414,157.4626
3245000000,6.3907452,-40.853878,-68.846397,-75.438866,-68.344498,-76.939728,-17.980652,158.82187
3250000000,7.5584798,-161.56929,-66.212852,172.65211,-66.480736,170.9541,-18.207153,155.20175
3255000000,9.2829342,121.70068,-62.557926,55.098,-62.407261,74.194321,-18.010277,152.52501
3260000000,9.5605164,12.061255,-65.648018,-27.903503,-64.359238,-45.081936,-17.870134,149.77022
3265000000,7.4009614,-69.3274,-67.019249,178.174,-66.357178,-179.15753,-17.794544,147.94365
3270000000,7.7189798,168.08551,-61.885403,90.482895,-62.953995,93.606049,-17.645788,151.67404
3275000000,11.421789,91.832458,-62.143154,-6.7155643,-59.208561,9.4426851,-17.643879,153.10759
3280000000,8.2218122,-13.272648,-62.416622,-70.684441,-62.875053,-82.711121,-17.577692,148.22133
3285000000,7.5598807,-100.83208,-62.531532,174.39047,-62.660126,176.67625,-17.128416,145.34802
3290000000,7.0908008,146.77377,-64.453896,13.50735,-66.390213,19.957687,-17.104473,146.52841
3295000000,12.415933,47.873886,-67.0336,-112.20306,-63.643837,-119.05703,-17.501392,143.82011
3300000000,7.3681879,-32.391972,-63.127811,162.00671,-64.373108,161.69351,-17.579916,142.2489
3305000000,8.5758572,-147.02473,-61.075573,66.61879,-60.830605,58.15329,-17.411448,144.20247
3310000000,9.2772789,125.42897,-61.878029,-0.68612003,-61.601311,17.443377,-17.421169,140.69237
3315000000,10.784196,18.68066,-67.547234,-92.112793,-65.089821,-108.31727,-16.924606,135.09137
3320000000,7.6839409,-52.976044,-67.136635,76.208817,-69.044662,75.377869,-16.8871,136.43367
3325000000,7.3774805,177.7326,-67.440697,-17.496325,-67.512993,-19.661556,-17.535229,135.11157
3330000000,10.471933,100.33138,-60.169697,-120.56783,-58.282684,-108.70448,-17.42462,128.02963
3335000000,9.0109978,-5.7718287,-61.863068,168.31425,-61.601391,155.74472,-16.674715,129.76625
3340000000,8.5543776,-86.560051,-59.725365,92.649017,-58.718338,98.190018,-16.847883,133.91708
3345000000,6.6593194,157.53296,-70.477333,-82.813828,-73.001572,-84.333145,-17.298826,128.30032
3350000000,12.999168,60.728394,-71.78907,167.40939,-66.039948,160.7339,-16.932419,121.36869
3355000000,7.7378917,-23.695417,-64.424423,79.638161,-65.342094,75.202606,-16.887146,123.22133
3360000000,8.6623163,-127.61102,-63.627502,-45.524197,-62.985374,-59.484051,-17.537584,123.10698
3365000000,8.2733707,134.11479,-65.756065,-87.440811,-65.597458,-74.53257,-17.754606,118.14804
3370000000,11.46977,27.243565,-63.009811,157.07074,-60.923908,138.16696,-17.653185,116.33913
3375000000,8.9782915,-46.275677,-67.170372,45.195827,-67.546356,41.819748,-17.511049,115.26569
3380000000,7.6782174,-165.87782,-66.931267,-64.840088,-66.908226,-68.774544,-17.330364,110.80508
3385000000,9.5183191,110.9066,-65.2481,-173.75728,-63.904358,-159.88008,-17.658058,108.79071
3390000000,9.5132027,-0.12408394,-67.134529,85.865486,-67.682312,65.369873,-18.177248,107.50564
3395000000,8.1997423,-70.561996,-64.649704,14.915931,-65.032539,26.35854,-18.147738,106.38089
3400000000,6.6630006,167.07953,-64.384842,-104.8132,-65.29567,-103.66325,-18.191477,106.63448
3405000000,12.426223,75.014832,-66.446419,152.24007,-63.271454,153.9465,-18.881556,107.06485
3410000000,8.7558947,-18.353666,-67.366913,6.9880958,-69.905899,4.4747806,-19.050583,101.38078
3415000000,10.231612,-112.2153,-62.746464,-99.065765,-60.913986,-105.2868,-19.035204,96.907578
3420000000,7.3834562,139.34274,-64.865517,174.12148,-65.396454,178.67192,-19.815376,96.805489
3425000000,11.666439,38.563869,-68.450058,80.210442,-66.899467,68.287231,-20.725655,94.016273
3430000000,8.8135738,-41.093376,-63.402756,-11.507438,-64.716934,-14.240178,-20.182606,89.180725
3435000000,8.7511587,-153.92381,-65.876625,-124.39439,-65.763817,-133.65321,-19.924213,90.34066
3440000000,8.5999479,118.88854,-66.666367,109.0976,-68.156235,127.76902,-20.53587,91.396355
3445000000,10.644853,4.2889023,-62.522583,9.4758501,-61.924896,-10.074057,-20.903811,86.126434
3450000000,8.9011841,-64.504204,-66.035973,-91.942566,-66.279228,-91.705482,-20.681341,83.459518
3455000000,7.0214782,173.62854,-65.463417,141.56078,-67.251549,138.69713,-21.473461,89.009827
3460000000,10.945831,83.274597,-64.988022,61.942104,-62.193737,67.191872,-22.770437,94.155571
3465000000,9.2293634,-15.749866,-60.836353,-49.347977,-61.795521,-61.296925,-23.514837,89.031059
3470000000,10.251707,-99.396156,-60.740662,-141.1899,-60.212212,-144.00513,-23.432953,84.820518
3475000000,7.2266169,147.82292,-63.993053,92.290344,-65.040375,94.522911,-24.040712,86.049835
3480000000,11.631599,46.708912,-66.852356,-11.103298,-64.637138,-20.707842,-24.941618,80.873512
3485000000,9.2821121,-38.018341,-64.598183,-123.50085,-65.90609,-131.99438,-24.619062,75.840599
3490000000,9.0187807,-137.39931,-68.704987,99.991013,-69.00853,93.965714,-24.54495,87.079964
3495000000,7.5244541,127.47764,-63.925175,34.829731,-64.072701,44.616646,-25.345419,98.72506
3500000000,11.206635,12.213579,-61.750031,-52.216866,-60.189785,-70.745827,-26.067522,94.143234
3505000000,8.6348066,-55.884216,-64.036583,-149.07066,-65.007301,-142.24304,-25.77582,87.693932
3510000000,7.8724008,-172.12334,-63.868118,96.046791,-64.630943,83.999344,-26.11511,96.264244
3515000000,9.307457,95.974434,-75.389755,-8.1194096,-72.27063,-3.6329281,-26.504324,102.81229
3520000000,9.0920477,-7.858418,-67.717545,-150.48106,-67.802055,-162.55202,-27.101658,108.28249
3525000000,9.7527895,-84.130203,-61.271988,135.0096,-60.322594,137.34944,-28.124195,118.99498
3530000000,6.6481242,160.65599,-62.560684,27.700935,-63.817856,29.139343,-29.215569,115.56475
3535000000,11.147441,64.131401,-62.613564,-66.277672,-59.806877,-62.504932,-27.473423,96.458992
3540000000,8.6468267,-30.043722,-61.724483,177.78209,-63.278942,166.18431,-26.823574,102.58703
3545000000,9.4085083,-117.10331,-67.345711,96.000275,-66.413116,93.670021,-27.846279,115.27364
3550000000,6.3557372,136.53534,-65.153168,-51.759853,-66.368568,-45.414356,-27.939404,108.20996
3555000000,10.49171,25.089607,-67.881378,-159.70993,-66.875412,-176.84109,-26.302557,108.21965
3560000000,7.9228759,-49.707279,-59.506222,123.26077,-61.404823,122.86813,-25.904949,118.47328
3565000000,8.2278223,-160.89297,-61.08638,5.1918478,-61.053997,-5.856946,-25.795286,111.95077
3570000000,8.1430559,107.19933,-66.918549,-90.407715,-65.810867,-80.121696,-24.426176,103.69246
3575000000,9.2931938,-3.6452298,-61.051273,178.66283,-61.08165,162.40901,-24.133347,120.03018
3580000000,8.8669691,-73.539421,-65.478325,44.046165,-65.989075,45.567329,-25.338066,135.51833
3585000000,6.6957154,171.41957,-64.84848,-46.30835,-65.829605,-46.119404,-26.943823,121.405
3590000000,9.1441011,80.740547,-62.263165,-172.211,-60.517109,-169.53081,-25.847277,111.97918
3595000000,8.7392235,-24.058197,-60.803967,98.258171,-61.709751,85.683578,-25.555494,120.38099
3600000000,9.4687729,-103.47697,-60.59906,-16.674648,-60.25827,-12.605437,-26.53965,106.1048
3605000000,6.1935244,146.55641,-63.43552,-106.12263,-64.365196,-106.64563,-25.357641,94.186302
3610000000,10.499372,44.666721,-71.234993,144.67917,-68.785156,149.20093,-24.641731,106.07183
3615000000,8.0366116,-43.189423,-62.902981,1.7528045,-64.297958,-1.017222,-24.66696,113.47996
3620000000,9.1852798,-142.36093,-61.540031,-103.54943,-60.957531,-110.7032,-24.4963,104.86361
3625000000,7.0628901,121.05767,-60.557251,155.07451,-60.835377,162.7812,-24.329128,108.90314
3630000000,10.125373,14.366173,-61.417187,70.022278,-60.337425,59.951843,-25.161097,111.33277
3635000000,8.5790663,-58.663288,-65.730247,-32.580612,-66.182541,-30.946102,-26.205725,99.529503
3640000000,7.4664116,-172.4043,-73.906906,-96.61721,-73.607071,-123.62078,-25.985132,97.185272
3645000000,7.9565392,99.496941,-65.022141,74.952499,-65.0466,87.709175,-25.909105,108.43561
3650000000,9.2445688,-12.999018,-63.511433,-37.948544,-63.916664,-55.850578,-26.247747,106.47792
3655000000,9.106904,-83.809631,-60.14666,-109.50934,-60.813427,-103.53928,-26.728989,97.873314
3660000000,6.5432229,161.21878,-62.816307,163.52531,-63.998169,158.36572,-27.225489,94.426361
3665000000,9.6762152,60.729542,-72.910248,80.765182,-69.728851,90.56739,-27.046747,87.884567
3670000000,7.8400073,-34.417469,-69.865189,9.0754728,-71.447517,7.8684149,-26.667994,86.323723
3675000000,9.6320314,-120.97268,-70.783005,162.32538,-70.44342,161.3591,-27.335306,99.102272
3680000000,6.4012761,134.21658,-67.089676,73.372955,-67.754944,71.898094,-28.106001,107.64228
3685000000,10.431938,28.610826,-62.437557,-16.429514,-61.643311,-28.113461,-28.511261,97.950027
3690000000,8.9255695,-55.929276,-64.218758,-96.17627,-65.316238,-95.210564,-28.549044,95.897934
3695000000,8.2579784,-156.5788,-68.08979,165.31424,-67.577591,158.71242,-30.344923,103.58788
3700000000,6.8072858,111.96848,-71.341286,100.14697,-70.82766,105.69869,-33.515156,97.092804
3705000000,9.9015627,-3.7555957,-83.35656,-173.02634,-83.481438,-165.01399,-34.000801,80.59803
3710000000,8.1367455,-72.62883,-63.764915,164.17041,-64.834915,167.60365,-32.273502,97.083397
3715000000,7.0294695,173.17067,-63.750362,77.257561,-63.465328,70.077095,-31.618549,105.95185
3720000000,8.7053404,77.338615,-64.38604,-5.4575434,-62.805168,1.9866468,-32.64957,104.55417
3725000000,8.4241247,-25.821413,-64.24646,-90.598724,-64.954834,-104.55213,-33.180595,102.3242
3730000000,9.6714592,-103.70912,-68.877594,158.56314,-68.110123,159.21161,-33.163017,113.67352
3735000000,5.935708,148.25406,-67.82592,38.305782,-68.695869,41.581314,-33.892521,121.78277
3740000000,9.4243212,49.619473,-62.427387,-83.381683,-60.921062,-85.711197,-31.949999,131.94609
3745000000,8.7389956,-43.731712,-64.245682,-175.28322,-65.00367,-179.33765,-29.302097,140.34203
3750000000,9.271224,-135.06186,-62.942631,81.959419,-61.802517,83.41349,-29.760014,154.0168
3755000000,5.9383559,125.77103,-66.292213,-10.880726,-67.530167,-0.67852479,-32.783577,158.8372
3760000000,10.323834,9.8614244,-67.505989,-121.95969,-65.819939,-140.42532,-32.737427,147.86337
3765000000,8.204915,-62.602722,-66.583542,130.67697,-68.822769,130.47392,-30.852663,150.99484
3770000000,8.2499933,-169.34248,-63.6828,11.905536,-64.489182,6.913352,-30.550743,159.72945
3775000000,7.5133138,95.444427,-63.932682,-76.228386,-63.430275,-66.09613,-29.584408,148.9397
3780000000,9.4371452,-18.166544,-63.450741,173.0643,-64.186905,158.55695,-27.247122,143.77603
3785000000,9.7853775,-83.619179,-68.539185,54.90583,-69.017548,69.326019,-26.573912,150.23634
3790000000,7.2997217,163.46109,-63.776455,-50.093273,-64.144676,-54.762733,-26.701553,154.80901
3795000000,8.7279415,72.177917,-64.054565,-135.06963,-62.844215,-131.39272,-26.104877,155.07288
3800000000,9.030962,-38.597767,-63.790375,122.06232,-64.860779,115.2648,-25.825584,159.50423
3805000000,9.751317,-115.87295,-63.516216,15.505023,-63.371998,23.627182,-25.557659,157.46358
3810000000,6.3209548,136.11218,-64.913521,-112.83032,-65.842018,-110.88623,-24.493437,152.06339
3815000000,10.780334,25.986626,-63.674889,154.72894,-61.186844,141.44945,-24.757229,155.15327
3820000000,8.4190187,-56.154465,-61.724312,38.627182,-63.548771,41.504555,-26.985352,153.15744
3825000000,9.8042803,-154.2742,-61.823765,-51.799961,-60.512432,-58.56649,-25.709019,135.97346
3830000000,6.0473361,109.90972,-64.167503,-155.57669,-64.603371,-142.39847,-23.339998,138.26361
3835000000,10.087922,-5.1962681,-65.660988,117.69711,-64.952293,99.506638,-23.442188,148.20076
3840000000,9.3524456,-76.705925,-65.54203,-17.493925,-66.36348,-11.234687,-24.27655,141.05568
3845000000,8.3379831,175.36253,-62.69791,-148.46341,-62.587818,-149.7738,-23.035831,131.4481
3850000000,8.2727051,86.188095,-64.085838,109.52009,-63.235222,115.57791,-22.739241,134.46378
3855000000,9.4513054,-29.904747,-58.681839,31.920166,-59.225288,22.458044,-23.479677,136.56554
3860000000,10.144725,-97.900826,-64.15564,-79.432114,-64.807732,-75.03199,-22.995905,129.86963
3865000000,6.466229,150.55257,-66.742409,-162.15111,-67.562538,-165.5864,-22.30146,130.41583
3870000000,9.3583689,49.869614,-64.414787,76.770203,-62.187469,84.312943,-22.53809,132.33685
3875000000,8.5846348,-51.136654,-64.091156,-62.98608,-66.230766,-61.977657,-22.446867,127.16499
3880000000,10.891013,-133.42302,-64.301231,-154.85696,-63.293175,-154.75749,-22.468924,121.63182
3885000000,6.151391,126.06242,-61.83305,112.98679,-63.095852,116.73676,-23.209938,118.4155
3890000000,10.284496,13.511349,-66.901047,11.61417,-65.079567,5.0289164,-22.416277,113.26115
3895000000,8.675107,-67.994171,-66.872894,-95.649338,-68.306137,-96.660889,-20.963161,114.74058
3900000000,9.6695929,-166.60938,-62.309708,158.41028,-61.008499,161.57716,-21.203892,119.44429
3905000000,7.3777542,98.117462,-64.727036,25.407322,-64.60038,32.782684,-22.080788,119.05323
3910000000,9.9206371,-19.974232,-62.308628,-63.51231,-61.960876,-76.559921,-21.999344,112.55616
3915000000,10.303946,-89.230209,-61.130459,-168.94592,-61.380459,-163.44557,-22.373272,109.95142
3920000000,7.7651529,160.68636,-64.960083,96.986862,-66.343132,85.041191,-23.148634,109.67905
3925000000,8.8455133,69.644066,-67.919327,-9.8414345,-66.908035,-0.521155,-23.0774,106.86647
3930000000,8.815176,-44.369583,-65.253189,-110.38384,-67.359879,-120.773,-22.962297,101.07909
3935000000,11.056316,-121.51132,-63.507095,117.03599,-62.986507,116.54906,-23.129047,92.26181
3940000000,6.684691,139.02359,-64.94812,21.646124,-65.655228,23.455664,-22.064291,90.16777
3945000000,10.10139,31.004105,-64.577583,-57.190655,-62.640064,-64.67186,-21.344193,93.398369
3950000000,9.5959158,-61.164948,-61.437092,-173.07808,-62.699726,-173.08043,-22.673223,97.052162
3955000000,10.546059,-153.40578,-66.603699,74.165291,-64.469742,74.951218,-24.12903,94.28009
3960000000,6.2404151,116.20424,-61.539906,-34.458546,-62.144077,-30.746729,-23.135931,89.30526
3965000000,9.5408354,-8.8867102,-62.775116,-148.18272,-62.087784,-159.67426,-22.678843,87.68557
3970000000,8.8172121,-79.448967,-66.530533,125.67514,-68.470772,129.22192,-24.127337,86.306709
3975000000,8.7312002,173.75903,-64.775627,6.9079094,-64.625603,0.26216349,-24.500776,79.195427
3980000000,7.9117708,85.210678,-63.97961,-77.433723,-63.205849,-66.251678,-23.754747,75.975304
3985000000,8.5357924,-34.289997,-63.14299,-165.40323,-64.537384,-177.85867,-24.525843,76.993446
3990000000,10.283916,-106.16274,-61.310062,56.135098,-61.477009,66.301338,-25.073196,76.940033
3995000000,6.7078047,150.54292,-65.908226,-53.114407,-66.442429,-53.154518,-23.613991,74.280815
4000000000,6.5422177,50.695923,-61.227455,-167.51582,-60.420197,-166.02254,-23.477509,74.96843
END

