!CSV A.01.01
!Keysight Technologies,N5247A,US56070710,A.10.64.09
!Date: Thursday, November 10, 2022 01:54:11
!Source: Standard

BEGIN CH1_DATA
Freq(Hz),S33(DB),S33(DEG),S34(DB),S34(DEG),S43(DB),S43(DEG),S44(DB),S44(DEG)
3000000000,6.0292273,24.544704,-63.152699,-25.161066,-62.229084,-33.614113,-16.067888,-138.45424
3005000000,5.2973976,-75.700317,-61.574337,-127.08183,-61.346447,-124.32288,-15.653277,-138.12773
3010000000,6.6023545,175.75076,-64.837708,126.81854,-64.981102,121.35374,-15.755565,-140.81119
3015000000,7.5357885,103.61994,-66.484375,37.839756,-65.380913,46.37122,-15.862005,-144.83746
3020000000,5.8541083,-7.0691113,-70.467224,-91.634293,-70.147865,-97.763992,-15.613226,-145.04311
3025000000,5.6438632,-104.59035,-63.486568,125.03208,-63.593475,127.00778,-15.401978,-146.40094
3030000000,6.449059,155.69542,-63.961647,27.572308,-65.2276,31.202438,-15.328646,-151.30336
3035000000,8.7165337,63.962948,-62.576092,-64.893784,-59.610119,-66.406685,-15.432152,-155.46043
3040000000,4.0011382,-30.823202,-62.152203,-162.56157,-62.975552,-165.72058,-15.495295,-160.08157
3045000000,6.6818261,-138.69928,-61.07674,100.14506,-61.150848,95.638519,-15.126525,-164.45721
3050000000,7.1993012,132.28278,-62.653751,1.2978349,-61.890808,11.905845,-15.0021,-163.45032
3055000000,6.897974,41.296234,-65.860992,-105.83049,-64.310936,-108.194,-15.43689,-162.86699
3060000000,5.1395664,-59.485374,-67.509911,147.45221,-66.902885,140.85541,-15.376562,-168.81413
3065000000,6.7107096,-170.18938,-67.969986,22.766884,-68.043488,21.047314,-14.851393,-172.87192
3070000000,7.6767664,114.0874,-63.797081,-75.814323,-62.728588,-65.620071,-15.192487,-171.55807
3075000000,6.2343082,6.4912004,-65.016243,-165.87453,-63.469154,-174.48347,-15.922884,-174.01154
3080000000,4.0289497,-92.949432,-62.980534,70.077744,-63.165432,72.6343,-15.994548,-178.04144
3085000000,5.8677869,163.3609,-60.853973,-26.146759,-61.85561,-27.301542,-15.815874,-177.97522
3090000000,8.7035551,82.497635,-62.009338,-126.23295,-59.873596,-118.27482,-16.065561,-178.38138
3095000000,4.693409,-13.881874,-61.350636,138.34576,-61.698006,134.18225,-15.994978,176.3308
3100000000,5.6630592,-122.47855,-63.069229,25.273098,-62.553646,24.101826,-15.906559,172.89819
3105000000,6.7323747,137.97438,-62.819374,-91.271461,-63.113056,-81.48378,-16.15465,172.50871
3110000000,7.7452388,53.565243,-61.87981,175.2932,-60.560417,173.56779,-16.501331,171.25317
3115000000,4.9675894,-42.185921,-62.905376,51.762379,-62.878632,53.674946,-16.476242,170.75262
3120000000,6.2692542,-157.04503,-62.22356,-48.759743,-62.013729,-47.968143,-16.460945,171.76355
3125000000,7.063962,123.46107,-62.24192,-159.47638,-62.649651,-145.52882,-16.518543,170.86108
3130000000,7.6545949,20.841642,-60.7393,108.60115,-59.131733,101.10802,-16.905005,167.09412
3135000000,4.009944,-73.442795,-60.66935,1.8261602,-61.403118,7.9115286,-17.440538,163.31934
3140000000,5.9489951,174.5347,-63.031803,-92.827919,-63.342175,-98.721558,-17.733267,161.56075
3145000000,9.0327272,94.441933,-62.480911,163.21739,-60.747486,176.58704,-17.613117,161.56651
3150000000,6.091342,1.470143,-63.017708,61.589401,-62.617054,55.395405,-17.429903,162.03821
3155000000,5.4561925,-100.98042,-64.762894,-61.86829,-64.161301,-59.578594,-17.200483,161.91991
3160000000,6.2677054,147.83066,-62.433754,-172.38052,-62.884068,-166.23653,-17.110186,159.94359
3165000000,8.567997,67.930603,-62.128025,92.767426,-60.352936,92.680695,-17.559929,158.52634
3170000000,5.262804,-25.92416,-61.196129,-23.124538,-61.193062,-30.469748,-18.040791,158.87599
3175000000,5.3339128,-136.04909,-59.240318,-114.41133,-59.285645,-115.69511,-18.058516,160.58096
3180000000,6.8142881,132.67305,-57.972816,146.45337,-58.553619,156.61598,-17.972851,161.46158
3185000000,9.0437956,32.380516,-59.934177,52.759628,-57.357372,45.606853,-18.067793,163.3943
3190000000,4.3766799,-53.975903,-60.802593,-60.599667,-61.255848,-59.573483,-18.323252,161.1765
3195000000,5.7993417,-174.35471,-61.910652,-167.2999,-62.160534,-175.04297,-18.713484,154.58229
3200000000,8.5243845,102.72952,-64.346252,80.116783,-62.518982,91.633949,-18.503939,150.79309
3205000000,6.8078489,8.0293455,-64.918686,-27.269316,-63.991577,-38.487728,-18.573772,156.84193
3210000000,6.6218948,-78.709724,-60.510998,-150.63997,-61.143494,-146.09659,-18.71965,157.92223
3215000000,7.4127374,157.42775,-60.695354,93.85083,-60.743664,95.352135,-18.433714,153.03032
3220000000,11.358388,79.385162,-60.763149,8.2787104,-58.332386,18.325502,-17.459291,153.70921
3225000000,7.8130188,-20.183836,-59.938534,-88.362755,-60.758892,-97.462906,-17.593479,157.43797
3230000000,7.2670364,-118.5209,-61.836704,169.91464,-60.47147,175.71362,-18.493103,154.24442
3235000000,6.7556343,138.5782,-62.073845,65.365616,-62.878666,72.58596,-18.53208,151.94673
3240000000,11.066999,39.51886,-63.959309,-45.60873,-60.802296,-48.962723,-17.897038,156.64204
3245000000,6.8759341,-40.804428,-64.628174,-164.0873,-65.283737,-165.45593,-18.00293,157.94279
3250000000,7.8960004,-159.02983,-63.610298,79.195305,-64.322968,69.418777,-18.228399,153.78246
3255000000,9.2184858,121.10237,-63.186573,-24.750771,-62.815536,-6.2462783,-17.993078,151.38161
3260000000,9.6772499,11.624435,-61.184303,-123.15565,-59.856873,-138.75627,-17.879045,148.60426
3265000000,7.3631248,-68.175362,-60.005108,139.77592,-60.555882,138.32585,-17.77511,146.24399
3270000000,7.0432463,166.56636,-60.903053,29.232492,-61.960632,34.543125,-17.581507,150.46996
3275000000,11.4203,88.592247,-64.221558,-61.748505,-61.107254,-52.597229,-17.62118,152.45662
3280000000,8.6457739,-14.062323,-63.660736,-156.20477,-64.018089,-170.41324,-17.618391,146.80869
3285000000,7.4208608,-94.392792,-63.054108,91.754822,-63.073837,95.458817,-17.117249,143.81319
3290000000,6.5689464,146.40703,-64.341293,-24.813412,-65.477821,-21.763189,-17.051371,145.57875
3295000000,12.019755,40.127747,-66.381195,-142.39067,-62.647736,-154.8868,-17.464394,142.43964
3300000000,7.4952769,-34.754227,-62.899044,111.10612,-63.924313,101.76808,-17.54118,140.7944
3305000000,8.6705971,-144.24579,-62.40086,-0.21993035,-62.177959,-6.8597813,-17.383572,143.74284
3310000000,8.7697163,125.09115,-63.180035,-95.58506,-62.06675,-80.583076,-17.447123,139.60165
3315000000,10.643321,18.63121,-62.228645,156.44583,-60.603767,141.49557,-16.930204,132.98889
3320000000,8.0667362,-52.072414,-63.676426,51.23542,-64.482872,56.215611,-16.811338,135.45447
3325000000,7.4850373,178.54028,-64.685738,-56.124271,-65.586067,-54.763805,-17.458588,134.6814
3330000000,10.828959,98.992561,-67.903519,-161.83359,-66.62851,-151.38481,-17.490211,126.27968
3335000000,9.4197006,-8.3127546,-70.589897,61.427055,-71.343918,46.085857,-16.737282,128.14117
3340000000,8.5663223,-83.532104,-66.837883,-58.776859,-65.282875,-54.610855,-16.702536,132.68304
3345000000,6.2393532,158.28416,-63.914371,-153.70358,-65.857643,-151.11873,-17.148079,126.79362
3350000000,12.774466,54.627514,-65.259453,91.476814,-61.80867,84.235703,-16.96928,120.79778
3355000000,8.1884041,-25.169546,-67.007416,0.2703535,-67.856857,-6.3763266,-16.871443,123.01074
3360000000,9.6247005,-123.48098,-65.169891,-95.544106,-64.480064,-104.51489,-17.475521,121.23222
3365000000,7.7639337,134.51115,-69.647881,156.66324,-69.555374,165.03099,-17.812752,116.80476
3370000000,10.971876,24.623644,-84.340492,13.973502,-86.11554,32.132229,-17.64069,116.34365
3375000000,9.0518999,-49.062508,-72.235413,171.84181,-74.8591,169.06644,-17.451904,113.53318
3380000000,7.3776951,-164.1734,-66.359489,74.152611,-67.804466,70.325851,-17.382006,108.73435
3385000000,9.0589027,112.07609,-65.819611,-28.395519,-64.777885,-16.308395,-17.609941,108.35026
3390000000,9.6212893,0.35502276,-68.29351,-117.85087,-68.215538,-135.63699,-18.008436,106.11572
3395000000,8.4741039,-66.453217,-69.13784,140.84972,-69.102646,155.70424,-18.159527,104.44216
3400000000,6.595643,169.2739,-69.1838,-6.2449183,-69.904877,-17.273821,-18.16065,106.43625
3405000000,12.421299,70.586014,-68.381119,-137.97176,-66.121689,-140.04039,-18.706945,106.28437
3410000000,9.0970888,-20.924372,-65.263962,91.725471,-66.73275,86.260742,-19.078566,99.686493
3415000000,10.909799,-111.47604,-61.904362,-13.951317,-60.03463,-18.412848,-19.114609,96.487717
3420000000,6.8229537,139.57913,-61.142361,-112.47052,-61.652027,-106.90488,-19.706408,96.129021
3425000000,11.104549,35.467915,-60.312534,155.78606,-57.914036,149.32133,-20.768127,91.897079
3430000000,9.1415691,-43.324791,-60.911827,47.423229,-62.170738,48.50856,-20.310888,88.019348
3435000000,9.2408333,-151.78374,-61.605278,-67.937263,-61.923111,-76.090141,-19.75811,89.050926
3440000000,8.3500385,121.27247,-61.528191,173.79745,-62.185284,-174.12083,-20.374645,89.38694
3445000000,10.505257,3.0280225,-61.082371,65.009087,-60.830189,46.282799,-20.95112,85.577309
3450000000,8.9571266,-64.993874,-59.486717,-50.882919,-60.099926,-46.761551,-20.565987,82.80748
3455000000,7.076643,175.37155,-58.420799,-163.90038,-59.487171,-169.84517,-21.239763,87.021156
3460000000,10.810282,82.33049,-58.674171,95.274681,-56.269516,101.54507,-22.713594,94.603745
3465000000,9.4416456,-15.742582,-57.399029,-1.8613497,-58.602493,-14.525098,-23.532724,90.448669
3470000000,10.677493,-96.320732,-58.088951,-110.17545,-57.376305,-110.54636,-23.491144,82.447334
3475000000,6.555675,150.57762,-59.855843,140.41957,-60.236763,144.49365,-24.19507,84.040543
3480000000,11.196482,44.319904,-59.943295,43.950993,-57.835308,31.339182,-24.864717,81.067039
3485000000,9.6012335,-41.286488,-60.202488,-80.903084,-61.057171,-87.90583,-24.427818,73.479187
3490000000,9.5314693,-135.12076,-59.195164,160.68828,-58.73312,160.37794,-24.621805,84.631554
3495000000,7.0040693,130.88216,-58.603027,52.855534,-59.067303,63.522583,-25.094145,98.649918
3500000000,10.431831,11.081306,-57.857174,-44.345009,-56.202869,-61.779022,-25.687611,92.052223
3505000000,8.4298878,-58.575397,-56.38789,-148.9922,-57.428265,-145.7317,-25.823309,85.961922
3510000000,8.1081553,-173.2493,-55.727474,105.01697,-56.555592,98.741028,-26.007305,97.814583
3515000000,9.3422842,95.294891,-58.022362,2.7562742,-56.490261,13.812295,-26.117716,101.19241
3520000000,9.2234287,-7.3853326,-57.170528,-98.814713,-57.863644,-113.72984,-27.182898,106.19927
3525000000,10.110663,-82.526543,-59.293633,148.515,-58.842216,147.9801,-27.931545,122.52657
3530000000,6.2556777,162.09619,-60.088097,34.734188,-61.300632,32.949413,-29.014715,114.83276
3535000000,10.792325,59.459782,-61.071121,-78.239555,-58.035084,-77.34317,-27.708944,90.824089
3540000000,8.9909582,-33.749817,-58.863892,165.46779,-60.551456,157.98714,-26.872377,102.70553
3545000000,10.22764,-115.77335,-57.926315,51.240292,-57.453014,56.423561,-27.217852,114.66651
3550000000,6.1494703,142.17728,-58.421181,-43.097336,-58.971291,-36.480747,-28.028372,103.2843
3555000000,9.757472,24.971416,-58.609829,-139.93802,-56.960827,-152.14346,-26.572052,108.04829
3560000000,7.8568759,-51.653755,-58.362873,120.02296,-60.187195,120.50283,-25.439209,118.21186
3565000000,8.8876839,-160.77495,-60.492416,16.451195,-60.197922,3.6740084,-25.688728,107.02296
3570000000,7.9955773,109.98454,-61.769638,-92.096916,-61.21587,-83.696808,-24.543989,102.27027
3575000000,9.0915451,-0.92778558,-63.179615,159.81126,-63.33688,143.77644,-23.512661,120.95467
3580000000,8.8486814,-72.583977,-63.924549,44.129612,-63.955887,46.962765,-25.068302,133.12679
3585000000,6.4650297,173.55865,-63.020355,-78.763199,-63.861614,-77.638153,-27.638126,122.55779
3590000000,8.9995928,80.603745,-64.098549,-164.88158,-63.069313,-160.09254,-25.871407,113.84074
3595000000,8.9646473,-25.766155,-61.901257,93.227654,-62.817635,82.1035,-25.333584,115.84003
3600000000,9.7215147,-100.94595,-62.027328,-16.035482,-61.42942,-8.4238911,-26.885386,102.16483
3605000000,5.7421484,150.04176,-63.554558,-115.12148,-64.353828,-114.81332,-25.414652,96.077789
3610000000,9.5510969,40.79607,-64.374641,158.03745,-62.276653,157.01527,-24.263191,103.51676
3615000000,7.965601,-46.410763,-66.443939,63.273109,-67.6278,62.005543,-24.839396,108.77201
3620000000,10.073318,-141.967,-66.663567,-45.508183,-66.304443,-55.868454,-24.318138,105.56746
3625000000,6.8428831,125.2795,-69.145012,-146.76176,-70.117966,-149.0374,-23.758085,109.30824
3630000000,9.3163004,17.669849,-67.430191,99.42498,-65.98085,95.983833,-25.304819,109.28989
3635000000,8.4338827,-59.699474,-65.597672,8.1881704,-66.046867,7.9716001,-26.577072,99.696373
3640000000,7.5545425,-173.16032,-64.445374,-95.287033,-64.922508,-105.5754,-25.637796,97.7099
3645000000,8.038063,100.58168,-64.525177,166.8577,-64.198547,-178.68805,-25.804018,105.09586
3650000000,9.4581041,-14.062328,-63.005245,67.597397,-62.830727,54.104267,-26.511564,105.67573
3655000000,9.4427052,-82.347198,-62.478802,-33.817471,-62.825169,-29.256802,-26.562376,99.684006
3660000000,6.4218369,163.98387,-62.870247,-135.16087,-64.219475,-138.01456,-27.081076,92.131462
3665000000,8.820179,56.526424,-64.383499,117.34664,-62.360043,118.13311,-27.299864,83.697388
3670000000,7.7362928,-37.011066,-63.284782,15.357942,-65.472458,8.6627531,-26.507803,85.445564
3675000000,10.377995,-120.31914,-62.644558,-98.272476,-61.600784,-98.883125,-26.627766,97.307999
3680000000,6.3937988,139.81755,-63.703678,159.70187,-64.331009,159.55872,-27.893188,106.42994
3685000000,9.7112856,31.487015,-61.208893,56.538254,-60.379276,51.974777,-28.76034,100.56354
3690000000,8.7606077,-58.266514,-61.091679,-50.99464,-61.991661,-51.787815,-28.335585,95.907021
3695000000,8.4706526,-157.1053,-60.540428,-153.07414,-60.418621,-155.56335,-30.062185,100.76189
3700000000,6.7981491,114.3242,-60.723858,102.81235,-61.241238,114.48346,-34.014133,100.90491
3705000000,9.6736565,-3.6829255,-60.519344,11.292992,-59.400387,-5.885952,-34.551311,81.897362
3710000000,8.1772079,-71.061127,-60.085667,-97.829811,-61.392658,-94.026321,-32.047966,90.335274
3715000000,7.2034612,176.17404,-60.265903,148.37669,-60.869461,142.29675,-31.576496,102.2388
3720000000,8.2277946,76.347374,-61.601902,43.814934,-60.283409,51.907143,-32.361763,105.86655
3725000000,8.4900303,-27.596294,-59.171402,-55.998634,-60.578682,-68.067902,-32.625362,99.147293
3730000000,10.351582,-104.80861,-59.006813,-171.77975,-58.32217,-171.65202,-33.026234,108.94164
3735000000,5.8770113,152.10828,-60.023026,85.076942,-60.538136,84.088028,-33.509548,121.34888
3740000000,8.5711994,49.087383,-58.295727,-11.047416,-56.939728,-12.259422,-31.196289,129.3732
3745000000,8.4916763,-48.148693,-57.961796,-116.32461,-58.645561,-120.01205,-28.933699,138.95412
3750000000,9.6341295,-136.71814,-58.533401,134.88794,-57.805698,134.34663,-29.50329,156.48346
3755000000,6.0099301,131.11594,-58.783787,33.729034,-60.153702,37.91898,-32.689949,159.54782
3760000000,9.9130726,13.499601,-58.799,-70.514732,-57.100258,-81.834549,-32.785343,143.9765
3765000000,8.1238317,-61.846542,-58.847973,176.86957,-60.40004,178.72505,-30.895695,151.39444
3770000000,8.676857,-168.06253,-59.061268,70.805458,-58.726231,60.248928,-30.723352,160.44746
3775000000,7.329761,96.381157,-59.572525,-39.845554,-59.191307,-29.608509,-29.776932,143.73213
3780000000,9.4050798,-18.585529,-57.395309,-140.1443,-57.880638,-155.75789,-27.084816,140.0182
3785000000,10.264887,-83.734756,-57.114529,113.25478,-57.566235,120.9407,-26.283482,148.94193
3790000000,7.377893,166.78488,-58.341919,8.0740108,-58.844963,5.8338604,-26.393049,152.55161
3795000000,7.7038746,72.982925,-57.905865,-86.951523,-56.589718,-79.672005,-25.827896,153.51216
3800000000,8.5662498,-42.624245,-57.704857,160.98215,-58.518673,153.80055,-25.675072,160.14012
3805000000,10.072063,-117.50271,-57.625271,53.855446,-57.557743,59.51392,-25.559608,156.6703
3810000000,6.5862412,141.02045,-57.943687,-52.818829,-59.427433,-52.194969,-24.37615,150.00029
3815000000,10.159122,29.303232,-58.201096,-150.64661,-55.95784,-160.57857,-24.648659,155.20967
3820000000,8.0166769,-57.17067,-56.993652,92.563591,-58.829201,93.415405,-27.199442,153.83513
3825000000,10.00403,-155.86488,-57.167053,-10.864066,-55.927902,-17.162264,-25.842751,132.50362
3830000000,5.9298911,111.46285,-57.430862,-108.24341,-57.895809,-101.65782,-23.255939,135.40506
3835000000,9.7274446,-3.9290812,-56.669041,152.16306,-55.583576,139.39638,-23.309431,146.71053
3840000000,9.4747572,-76.976326,-56.489098,44.248119,-57.512234,46.927193,-24.149057,139.54904
3845000000,8.4443226,178.03497,-57.651245,-65.172974,-57.605507,-70.489494,-22.93844,129.65504
3850000000,7.6838431,87.758278,-57.817074,-165.12273,-57.228893,-159.40396,-22.636681,133.00829
3855000000,9.2177753,-33.099178,-57.055107,86.823822,-57.795414,72.870399,-23.256765,135.52841
3860000000,10.677544,-100.23437,-56.52702,-23.048077,-56.444038,-15.439241,-22.851515,129.59694
3865000000,6.8979263,153.65633,-57.291729,-133.19722,-58.310345,-137.33464,-22.384441,130.09019
3870000000,8.1264524,51.727116,-57.187859,130.34415,-55.3671,132.89319,-22.606922,131.06078
3875000000,7.8730903,-53.973427,-56.117001,21.709034,-57.45475,17.006184,-22.3249,125.88624
3880000000,11.097562,-136.97891,-56.395248,-82.963303,-55.419548,-81.823753,-22.496799,121.23423
3885000000,6.449542,129.22272,-57.44072,174.64308,-58.669865,179.15366,-23.468912,116.89204
3890000000,9.7476139,18.7652,-56.82481,73.954239,-54.855038,68.207001,-22.410084,110.01362
3895000000,8.5130854,-68.716988,-56.509933,-34.803234,-58.259789,-33.975555,-20.715105,112.217
3900000000,9.7263298,-168.3,-57.680946,-145.68797,-56.836903,-148.17499,-20.946508,118.36094
3905000000,7.3242002,98.282372,-57.402798,111.88034,-57.199657,117.13478,-21.929535,119.03938
3910000000,9.5691223,-22.293869,-56.206997,7.7409277,-56.67635,-2.5966198,-21.977352,112.08887
3915000000,10.451835,-90.385849,-56.817455,-100.23985,-56.367439,-90.008553,-22.367498,108.83236
3920000000,8.218956,162.73456,-56.730644,158.39363,-57.540623,147.93282,-23.12048,108.97911
3925000000,7.7908888,72.232597,-56.577415,53.972332,-55.282116,66.357269,-23.096245,106.42482
3930000000,8.2912912,-46.707638,-56.101524,-49.36636,-57.14521,-57.980431,-23.045853,99.867142
3935000000,11.473442,-126.71066,-56.469139,-154.08897,-55.727596,-153.12535,-23.198381,90.464737
3940000000,7.1237311,140.43684,-56.686028,98.379333,-57.948402,99.696808,-22.053028,88.132111
3945000000,9.7131233,35.541206,-56.756042,-0.88509935,-55.071007,-5.7460332,-21.172268,91.192047
3950000000,9.1132813,-64.103287,-55.832661,-113.47356,-57.124062,-112.60526,-22.361509,95.806969
3955000000,10.353762,-156.4534,-56.731529,135.58597,-55.734715,132.46895,-23.965349,95.106644
3960000000,6.3325539,117.5409,-56.442875,34.976604,-57.413826,41.990116,-23.245512,89.338402
3965000000,9.0754347,-8.7795715,-55.999958,-65.364014,-55.091915,-76.69754,-22.73505,86.094826
3970000000,8.8351212,-80.246368,-55.770954,-172.99469,-57.326237,-166.48665,-24.068787,84.687759
3975000000,9.2007761,173.46538,-56.704273,77.660301,-57.011616,69.715546,-24.415714,78.396065
3980000000,7.5232062,87.854927,-56.807449,-19.71228,-55.964836,-13.226718,-23.691187,75.237373
3985000000,7.8639646,-36.066792,-55.59988,-126.16913,-56.522366,-133.72916,-24.574408,76.232323
3990000000,10.481282,-110.00982,-56.197903,123.52881,-56.028152,131.46024,-25.227543,75.340851
3995000000,7.2054324,152.00752,-57.100445,19.971598,-57.547844,17.070978,-23.519983,71.916656
4000000000,5.9239869,58.815353,-55.090813,-82.283302,-54.157913,-80.502678,-23.211155,73.60817
END

