!CSV A.01.01
!Keysight Technologies,N5247A,US56070710,A.10.64.09
!Date: Saturday, November 19, 2022 00:25:46
!Source: Standard

BEGIN CH1_DATA
Freq(Hz),S33(DB),S33(DEG),S34(DB),S34(DEG),S43(DB),S43(DEG),S44(DB),S44(DEG)
3000000000,-2.2524657,-107.26752,-69.073036,-88.940445,-69.303673,-99.046852,-13.553095,-146.28468
3005000000,-6.9122505,-114.98573,-69.39077,-176.81432,-69.070679,-178.9626,-17.012558,-150.41388
3010000000,-4.269731,-108.29195,-66.244461,97.95388,-66.390465,96.614258,-16.818499,168.21385
3015000000,-4.1678963,-121.98351,-68.875336,5.0929732,-69.98835,3.3360882,-11.87993,-152.2529
3020000000,-6.3780742,-93.70874,-69.422539,-60.608913,-69.527527,-59.073578,-23.265137,-162.26996
3025000000,-3.6739998,-119.31248,-68.934006,-130.62968,-69.063911,-128.82324,-12.101926,-179.01154
3030000000,-5.4294963,-104.56797,-70.150253,144.05597,-69.698715,146.1815,-16.041843,-162.54828
3035000000,-4.6275053,-105.74142,-75.980125,56.200233,-75.195793,70.219925,-20.229736,-169.60764
3040000000,-3.9739175,-135.93686,-72.357475,-1.697552,-72.735741,-8.9740629,-11.524635,170.30582
3045000000,-5.4992867,-93.094162,-71.163773,-70.603737,-72.692505,-75.686752,-19.614056,-160.35355
3050000000,-4.5804005,-118.97705,-76.936195,-140.71773,-77.674812,-137.59596,-13.8162,156.5838
3055000000,-5.559041,-116.72392,-83.368507,-161.52222,-89.605743,-176.61131,-13.779971,179.06198
3060000000,-3.4223006,-105.38551,-75.339539,122.34576,-74.429237,112.47515,-16.020929,-174.60532
3065000000,-6.2741284,-142.62761,-77.859558,38.350021,-75.688354,59.571564,-14.126335,142.55695
3070000000,-3.7726841,-101.51271,-70.888039,-19.41959,-70.664757,-30.783731,-14.476492,-160.83215
3075000000,-5.6694727,-126.45493,-71.410767,-73.03701,-71.016327,-77.216957,-16.282309,142.18723
3080000000,-6.9872565,-119.74756,-67.965897,-176.59624,-67.852768,179.72101,-14.182756,151.36607
3085000000,-1.9419768,-112.48129,-67.697601,96.34623,-67.637779,92.137207,-15.43738,-177.2327
3090000000,-9.2947121,-140.00272,-68.376801,33.131725,-68.48275,31.96155,-16.50799,124.75238
3095000000,-3.048455,-113.83171,-67.529678,-63.272285,-68.94117,-67.314247,-12.264711,167.22301
3100000000,-6.0733857,-131.00078,-69.439209,-144.27734,-68.443672,-149.49576,-19.043875,141.28322
3105000000,-7.2401671,-107.53525,-67.239906,110.52059,-66.83754,102.41048,-17.441881,149.68628
3110000000,-2.5853345,-128.48628,-74.155952,51.516449,-75.643433,45.017879,-12.520853,155.81351
3115000000,-6.9476728,-107.7791,-79.989693,-62.075951,-77.259247,-76.842033,-27.450935,120.20282
3120000000,-4.4410753,-134.46268,-85.019875,109.77536,-86.421021,83.16317,-13.051718,135.2841
3125000000,-5.1743712,-130.60533,-85.117355,-12.690634,-89.957527,-56.017059,-17.214163,162.05078
3130000000,-8.1051168,-98.263817,-68.953293,-142.67227,-69.934448,-145.34435,-17.848034,131.39832
3135000000,-3.236119,-135.13943,-69.505119,138.02042,-68.562904,134.12958,-13.522393,131.38164
3140000000,-5.8562961,-118.12459,-66.747749,42.164295,-66.840584,37.800156,-19.66498,-172.58028
3145000000,-5.1204958,-127.61887,-68.546867,-42.976776,-67.97522,-48.998474,-14.143646,123.53085
3150000000,-6.2812319,-151.12643,-66.29808,-129.72687,-65.626442,-136.11517,-17.289494,144.23083
3155000000,-5.6791663,-100.02498,-66.239494,129.62309,-66.726601,129.54681,-20.281294,160.39844
3160000000,-5.0326538,-139.57256,-72.783249,59.494118,-71.848076,52.034145,-15.06683,110.01951
3165000000,-6.071661,-122.50559,-72.735413,-40.397152,-72.519569,-36.824333,-15.154696,160.37822
3170000000,-4.0287466,-136.03575,-78.865616,-98.372398,-80.635658,-82.148315,-18.297707,105.74139
3175000000,-10.496471,-145.92247,-76.912666,77.522186,-76.921173,93.010895,-16.723728,139.843
3180000000,-3.8861156,-117.24258,-78.431381,-145.19867,-77.867691,-126.67005,-14.094163,153.08194
3185000000,-9.8829861,-143.82016,-76.284126,130.76495,-76.291145,145.24315,-22.178345,79.075172
3190000000,-4.8312693,-123.68838,-71.984634,66.145416,-72.193039,56.973251,-13.665818,151.17891
3195000000,-4.4090929,-140.31578,-71.577682,-0.28567427,-71.784393,-6.4397044,-26.072227,128.84799
3200000000,-12.873909,-152.63048,-68.791481,-104.79675,-68.645134,-105.78597,-16.139803,119.51451
3205000000,-4.7101984,-138.13885,-69.427643,-167.89319,-69.630371,-177.64944,-16.515589,134.48871
3210000000,-8.9286203,-115.15431,-71.449867,84.961868,-71.54377,87.236801,-25.914083,153.34647
3215000000,-5.0786223,-130.17038,-70.407257,20.04987,-70.236771,20.888535,-13.100828,119.6531
3220000000,-5.0528545,-155.35371,-72.579842,-80.076691,-71.531776,-88.712624,-19.851696,148.93761
3225000000,-11.303434,-127.38083,-70.368935,-168.78021,-70.55069,-170.44847,-20.206106,139.63557
3230000000,-6.9734192,-139.92236,-84.561394,141.53577,-93.481575,57.054653,-14.938091,119.83189
3235000000,-8.0827122,-139.06569,-82.702881,-7.6308489,-82.800728,17.497242,-19.449308,167.32918
3240000000,-7.8411636,-117.20475,-75.79731,172.2346,-74.660347,162.92705,-16.098873,98.079247
3245000000,-4.719213,-161.31448,-79.866821,26.592062,-76.361786,41.986603,-16.943214,153.90282
3250000000,-9.2750835,-122.7679,-72.641907,-23.459652,-70.318863,-34.784412,-17.180563,126.84737
3255000000,-7.7706079,-163.39355,-68.766144,-127.8086,-67.675652,-123.63068,-17.731457,91.868019
3260000000,-12.598224,-119.93381,-69.767441,129.87463,-70.09655,133.14809,-13.563281,151.29776
3265000000,-4.7531734,-121.45139,-67.494041,53.468952,-67.043884,53.82254,-20.676111,102.10317
3270000000,-7.5086961,176.17911,-69.034653,-41.315022,-67.85463,-42.788937,-15.593389,126.85275
3275000000,-7.7922015,-127.00518,-66.267677,-117.63844,-67.363998,-127.3553,-17.91176,126.38541
3280000000,-9.6376743,-171.20795,-70.573898,138.18047,-69.894363,131.49425,-21.228596,118.44838
3285000000,-13.728334,-118.40263,-71.161835,64.373787,-72.798416,65.284332,-12.721234,115.79829
3290000000,-4.594532,-130.90829,-73.68644,-34.313404,-73.07357,-52.455074,-21.923758,128.4984
3295000000,-13.602532,-172.84839,-78.366707,163.79652,-77.137619,155.25662,-16.232351,119.33749
3300000000,-8.0508785,-150.27284,-79.384148,41.561424,-75.160263,19.239956,-13.981568,112.61791
3305000000,-12.326721,-154.02049,-69.996712,-88.444763,-68.78199,-87.372375,-19.51903,150.43468
3310000000,-15.925667,-121.90472,-69.702866,-166.10143,-68.910812,-172.47432,-14.238785,95.419403
3315000000,-6.5802083,-144.89546,-66.326218,85.518074,-66.361374,81.431839,-17.216324,150.32092
3320000000,-14.958049,-143.54132,-65.00322,8.5073013,-65.14949,6.2572446,-15.599904,96.323509
3325000000,-8.1125917,-145.21034,-63.179058,-100.03638,-64.081734,-99.46244,-17.572304,88.271347
3330000000,-11.824472,-171.83815,-65.880226,-178.23601,-65.548927,178.23305,-13.494983,129.70918
3335000000,-13.932025,-70.168533,-66.191231,84.558067,-66.045769,83.580505,-17.187773,74.568192
3340000000,-7.9689097,-160.15666,-68.201447,-8.3241482,-67.776894,-10.981359,-13.480969,117.17971
3345000000,-14.034225,-111.13271,-70.051605,-93.642525,-69.527344,-92.590378,-19.407644,116.15007
3350000000,-10.438601,-145.94374,-74.932114,120.23618,-74.171967,124.89978,-17.428913,86.368347
3355000000,-12.294134,156.38486,-73.61084,-56.395252,-75.578392,-51.127811,-13.94065,111.55166
3360000000,-9.0519381,-97.312241,-71.099342,-166.12978,-71.322197,-156.46007,-22.582857,49.138786
3365000000,-15.043918,156.32492,-67.06617,96.929817,-66.470276,96.260223,-13.695049,96.221565
3370000000,-9.5254145,-100.37582,-65.149796,13.156837,-65.441589,7.967515,-15.432756,92.773071
3375000000,-10.994105,-165.98674,-65.561981,-92.429764,-64.524796,-94.604652,-22.207962,93.238632
3380000000,-22.328955,155.26891,-64.632675,174.4978,-64.080101,171.46307,-12.630741,88.318756
3385000000,-10.752519,-134.81924,-65.557365,77.09713,-65.679054,75.525047,-23.945402,124.1841
3390000000,-19.439407,-40.932472,-68.52774,-0.38357905,-69.081909,-9.1708212,-15.009782,74.465172
3395000000,-11.027182,-132.99821,-71.211533,-86.246552,-71.11496,-84.866302,-17.074841,82.438492
3400000000,-11.168147,-137.07524,-83.99231,-138.24768,-89.145111,-156.2859,-20.748188,119.49461
3405000000,-23.89222,-69.513435,-80.81675,-146.38171,-79.071838,-165.42654,-13.135912,49.868938
3410000000,-15.046082,-153.96393,-70.98938,155.62485,-73.22924,154.77493,-17.861341,120.00499
3415000000,-13.704811,-55.95644,-73.971573,44.027786,-71.830353,45.676544,-16.546627,61.977554
3420000000,-13.930615,-97.493645,-70.242737,-27.117491,-71.240082,-29.443911,-18.728304,64.344955
3425000000,-10.059822,-157.28722,-70.414116,-123.46675,-70.309189,-130.50174,-16.11076,106.56899
3430000000,-16.151726,-32.369312,-70.829048,171.20894,-71.776176,171.48218,-18.325094,15.880611
3435000000,-14.054591,-139.51537,-75.020683,93.218842,-73.976738,76.856506,-16.144445,100.68265
3440000000,-14.8099,-44.427692,-79.661522,56.954739,-76.965302,58.897221,-20.063416,35.661316
3445000000,-9.6668644,-96.35714,-80.196495,6.0620894,-79.160797,-18.588974,-21.442413,60.2756
3450000000,-18.608946,141.23305,-72.275436,-83.726524,-73.298782,-73.783112,-15.236866,75.516106
3455000000,-9.1811848,-82.770973,-68.864769,-167.05937,-68.941093,-164.10316,-32.615746,-25.979664
3460000000,-20.593151,160.17076,-69.064255,120.92856,-68.583588,117.92972,-14.945371,69.727989
3465000000,-10.669548,-50.514744,-67.614929,27.161833,-67.988144,30.592978,-25.973259,90.241631
3470000000,-10.032342,-114.88422,-68.690361,-58.079948,-68.015625,-60.080093,-28.154593,60.73864
3475000000,-20.796818,9.1820583,-72.572632,-158.00049,-71.728195,-162.4716,-17.766193,59.615307
3480000000,-8.8681202,-93.644875,-71.025574,117.30199,-70.795799,111.2393,-39.013226,175.45802
3485000000,-21.526457,-43.590492,-76.283226,37.401115,-74.774597,17.108505,-17.637756,48.704205
3490000000,-15.092765,-82.51194,-80.046326,106.22664,-83.305275,99.401558,-25.198032,67.382477
3495000000,-13.703395,-93.689857,-75.237801,61.207687,-76.036163,58.650608,-22.149086,97.029953
3500000000,-12.710074,-40.327381,-69.140419,-41.957745,-71.015144,-41.151756,-18.715729,28.973747
3505000000,-10.746325,-112.3889,-67.941574,-142.36018,-67.980339,-148.15648,-18.352095,135.67207
3510000000,-14.126592,-74.601456,-67.811691,128.34016,-67.701172,133.15863,-22.923767,23.802618
3515000000,-15.822641,-52.868923,-65.433517,38.177189,-66.219177,36.887806,-30.057659,100.79311
3520000000,-13.832942,-120.33179,-65.869316,-53.437077,-65.708435,-47.923176,-20.861935,79.748367
3525000000,-8.397377,-45.32925,-68.426826,-139.51982,-66.709488,-143.08749,-26.660278,-30.833389
3530000000,-9.4941435,-109.84923,-70.585091,139.35213,-71.227501,129.21257,-16.084352,86.061546
3535000000,-16.686138,-79.575661,-71.548492,43.294369,-69.900124,36.028748,-45.507664,51.123405
3540000000,-9.5878878,-72.283737,-76.061852,-98.547333,-76.50441,-108.88382,-21.797489,101.82697
3545000000,-31.350872,115.43853,-100.52457,-138.04233,-86.395988,-126.43114,-21.278297,75.335388
3550000000,-5.1869793,-57.331429,-69.457779,-14.318838,-70.279457,-19.221069,-24.341951,177.18217
3555000000,-11.68186,-131.35948,-70.04615,-116.26502,-69.403488,-117.14342,-20.003866,60.000431
3560000000,-12.131458,-67.173248,-67.13102,167.9958,-68.120529,163.3154,-29.955008,128.92546
3565000000,-10.675316,-109.86771,-67.20063,75.786751,-66.299812,64.770096,-23.288921,99.656364
3570000000,-11.410978,-6.5166998,-65.713463,-22.743959,-65.436707,-30.844599,-20.343653,31.056301
3575000000,-7.1521077,-89.549057,-65.44886,-118.11131,-65.438507,-122.18023,-16.662622,128.56256
3580000000,-10.301991,-85.814468,-65.628372,157.82387,-65.056892,155.02554,-22.50823,17.692392
3585000000,-13.563684,-72.941399,-67.424545,66.263908,-68.260635,64.454536,-18.796019,122.92987
3590000000,-9.8390055,-119.08185,-70.869568,-27.690517,-69.794998,-36.296494,-24.631165,80.25206
3595000000,-10.223547,-20.600101,-72.009354,-129.54637,-72.218643,-141.65588,-32.289574,32.159637
3600000000,-7.9088469,-77.909058,-81.464005,122.97207,-83.266808,106.77856,-17.83736,102.28244
3605000000,-8.6011848,-92.853867,-74.818893,-64.623886,-73.280174,-66.952454,-29.180756,-12.007908
3610000000,-11.871428,-66.487732,-71.252678,-174.87424,-71.442047,179.09056,-20.372417,77.03685
3615000000,-12.317936,-137.04771,-69.041306,89.391846,-68.091156,86.144547,-19.296591,82.511078
3620000000,-9.0904131,-28.72603,-67.222649,-0.33581167,-66.680115,-5.5662007,-30.240124,172.25623
3625000000,-5.852006,-81.42939,-65.727943,-93.230774,-64.69265,-98.183037,-15.422436,69.951332
3630000000,-17.937361,-131.96104,-64.16571,172.63573,-63.824287,164.44737,-25.733793,-152.00729
3635000000,-4.8897333,-81.527603,-66.129738,84.385468,-65.206177,82.973824,-18.064901,84.777878
3640000000,-21.551062,-176.63983,-66.849709,-2.9517975,-66.362923,-12.84035,-26.332287,35.51984
3645000000,-6.1855145,-54.619778,-66.814247,-94.107437,-67.245842,-98.497963,-23.314108,144.53532
3650000000,-10.066269,-102.9712,-69.519218,162.44048,-70.439842,162.02768,-18.014086,25.959017
3655000000,-9.2498703,-35.706127,-77.915512,74.102295,-76.780502,62.334396,-21.660595,124.95403
3660000000,-4.2191367,-100.0929,-85.10006,-51.90279,-84.193085,-88.167999,-20.840038,53.473328
3665000000,-21.39439,80.673195,-76.358727,95.629005,-74.82267,87.281197,-29.469172,-4.3658419
3670000000,-8.0338631,-63.92947,-73.243034,20.94334,-73.575409,9.4801474,-15.204437,107.62513
3675000000,-9.7130327,-79.690414,-72.809227,-75.340958,-71.580368,-76.093956,-19.978876,-41.571949
3680000000,-8.2056389,-63.31839,-69.070084,-174.65137,-68.47908,-179.31091,-18.804434,113.05986
3685000000,-7.2631245,-106.03952,-69.76487,98.058876,-68.810654,100.80773,-25.916553,-0.69793767
3690000000,-18.143406,-48.935493,-70.655258,24.229408,-68.900047,19.410444,-34.770947,67.325043
3695000000,-8.1465816,-51.046753,-72.351257,-56.383926,-71.962509,-51.189861,-17.589222,56.712128
3700000000,-8.3918896,-102.12445,-72.94738,-132.43974,-73.767677,-137.74902,-23.881058,-138.99857
3705000000,-7.4171972,-43.105675,-74.418098,137.44849,-73.937256,149.66599,-17.620489,66.51178
3710000000,-6.9610972,-120.3837,-73.250656,72.199043,-73.933128,68.786118,-35.747589,14.748693
3715000000,-10.597507,-30.996248,-75.294106,-2.5803089,-74.534355,1.361524,-24.934856,146.54204
3720000000,-6.2654085,-75.664566,-76.250221,-70.20536,-73.029602,-74.362495,-22.426008,40.019417
3725000000,-17.223497,-125.16206,-81.944656,-146.63368,-82.272774,179.45206,-26.955687,163.66899
3730000000,-4.1770139,-53.108601,-80.14476,-172.36617,-78.514931,171.08434,-23.160894,38.522266
3735000000,-10.719697,-124.65203,-78.401558,158.27692,-81.146873,144.72618,-31.260744,126.71301
3740000000,-8.152627,-51.406834,-76.511238,38.273743,-77.987961,64.931602,-20.154591,119.46005
3745000000,-6.7356448,-89.493935,-75.335213,-29.341322,-74.258209,-24.81529,-21.894957,-24.332159
3750000000,-17.752829,-11.082514,-70.514626,-92.790741,-70.983826,-100.93324,-18.186327,137.9196
3755000000,-4.7250662,-77.173874,-70.684975,169.4384,-71.417953,167.29251,-28.463928,44.429951
3760000000,-11.389476,-67.396034,-70.380806,84.506058,-71.728821,89.968903,-27.176294,179.91728
3765000000,-6.6732574,-73.276924,-71.140358,7.0378118,-71.160446,4.2866259,-22.908747,80.115372
3770000000,-8.5667,-103.28587,-72.313408,-61.219902,-73.116028,-71.918213,-24.581339,-129.0302
3775000000,-9.2723351,-15.385423,-70.905128,-165.00011,-71.631775,-165.25046,-16.644802,84.338661
3780000000,-5.0245481,-80.939171,-77.335541,105.66767,-81.578392,120.49891,-28.434303,-126.83522
3785000000,-9.1750975,-76.558792,-80.281639,60.726326,-80.342392,39.682175,-21.173292,128.43604
3790000000,-7.7289915,-61.2057,-85.704651,7.1118331,-85.251915,19.111197,-21.169415,77.453407
3795000000,-6.8756342,-109.15672,-82.307777,30.876892,-89.66172,0.84709996,-19.910244,172.94742
3800000000,-8.0337076,-21.949898,-80.638115,-70.74192,-77.145607,-97.658775,-23.884008,68.801941
3805000000,-4.6455417,-76.39743,-72.502457,-149.27956,-74.459099,-147.04272,-22.964783,165.70471
3810000000,-11.216869,-90.578575,-73.269379,135.22975,-73.026588,131.28439,-19.551901,101.74967
3815000000,-3.3261991,-63.763203,-71.265282,41.9809,-72.267303,42.772583,-27.929092,-26.310627
3820000000,-11.970391,-153.79286,-69.024078,-46.878849,-69.329582,-43.507771,-15.271409,125.32861
3825000000,-3.1803398,-43.619011,-70.317741,-115.28138,-68.862717,-121.06152,-24.309713,47.423199
3830000000,-6.8903794,-99.053223,-69.580902,137.75633,-68.18586,134.07529,-16.958147,131.75795
3835000000,-8.425786,-56.545139,-69.972588,47.554993,-69.295967,48.519932,-23.824028,126.55656
3840000000,-3.9176891,-83.758148,-70.139984,-40.701393,-69.090065,-40.63596,-25.966249,175.67113
3845000000,-16.450022,-69.939384,-75.94928,-131.56059,-74.83445,-135.69586,-16.787109,87.98661
3850000000,-3.6453872,-68.36908,-74.352882,114.41028,-76.587456,110.63412,-28.233591,-136.55203
3855000000,-7.8872733,-89.589142,-80.334335,-17.904934,-82.605637,-18.301119,-19.32283,99.779922
3860000000,-6.4686823,-57.657364,-78.275055,-134.1134,-77.078255,-139.41997,-18.24547,70.705017
3865000000,-4.7506723,-85.292908,-74.251617,108.09061,-72.759758,96.279724,-21.336683,138.52399
3870000000,-9.4585114,-66.921516,-71.837181,-1.86022,-71.074585,-3.8801076,-17.192312,79.487213
3875000000,-4.5346055,-72.102303,-67.399269,-84.313034,-68.609306,-90.94381,-20.293581,145.06656
3880000000,-7.8476086,-100.95922,-68.436752,-177.01108,-68.456718,177.34703,-18.348721,90.423409
3885000000,-5.0116515,-44.724979,-69.242149,93.658127,-68.840073,82.357101,-26.937826,45.356544
3890000000,-2.6317477,-98.979202,-68.112167,-15.696609,-67.420341,-16.603016,-15.94432,138.82878
3895000000,-10.412636,-57.239788,-69.61602,-107.78523,-68.48822,-108.24351,-15.574567,19.391088
3900000000,-2.6097145,-75.041298,-70.295639,152.92531,-70.8825,154.22812,-16.577478,124.6992
3905000000,-8.9546871,-98.752632,-73.691437,56.76038,-73.497604,50.848511,-20.002886,58.019794
3910000000,-3.9658556,-51.450207,-74.360733,-60.775673,-76.02565,-66.898163,-22.865637,94.363609
3915000000,-3.9568119,-103.41445,-75.111687,-173.16821,-74.4272,-178.04462,-14.969022,88.687065
3920000000,-5.3385587,-51.522934,-74.340813,70.916656,-73.256584,54.477612,-29.331881,-43.904289
3925000000,-3.3528228,-92.684853,-71.357819,-43.760796,-71.850243,-33.447319,-15.579915,103.52996
3930000000,-12.522504,-79.037003,-70.218513,-153.93636,-70.342522,-146.46509,-20.616451,35.481617
3935000000,-1.8981422,-71.947754,-70.059555,133.34354,-70.004242,123.28899,-29.641304,104.70431
3940000000,-8.8300323,-93.626167,-68.878082,31.217627,-69.576561,33.946259,-14.484902,62.308277
3945000000,-2.9332821,-75.438385,-67.557014,-63.216736,-68.258415,-67.187195,-26.65033,155.76077
3950000000,-4.7522564,-95.298561,-71.111839,-161.14615,-71.705627,-163.91985,-14.39301,62.687477
3955000000,-8.5582323,-72.60936,-71.35627,105.76134,-71.260635,103.24301,-54.589645,163.258
3960000000,-3.4519539,-76.4935,-73.318069,7.7402344,-73.74511,5.8199863,-17.419676,95.231888
3965000000,-5.8146257,-91.840149,-73.506577,-96.359612,-74.673866,-97.877037,-19.606598,32.803299
3970000000,-4.5460439,-74.460938,-73.053001,140.46384,-74.479179,153.82462,-27.090124,131.63664
3975000000,-2.0464056,-105.50378,-76.806412,43.506554,-76.351807,26.78384,-18.909155,44.722622
3980000000,-9.9466276,-47.855999,-75.502464,-83.511192,-73.13385,-80.744278,-25.345871,45.355804
3985000000,-2.0572836,-86.60656,-71.195938,-174.53723,-70.309853,-171.00055,-17.15617,74.725449
3990000000,-6.7736664,-88.835617,-69.647079,72.64373,-70.135551,77.327934,-24.079889,-27.938643
3995000000,-3.0017295,-78.268265,-70.847595,-14.207222,-68.975677,-4.9321628,-17.342037,98.545769
4000000000,-3.4106224,-120.98583,-66.548836,-114.04803,-66.580429,-119.97015,-19.187307,17.079552
END

