!CSV A.01.01
!Keysight Technologies,N5247A,US56070710,A.10.64.09
!Date: Thursday, November 10, 2022 00:15:14
!Source: Standard

BEGIN CH1_DATA
Freq(Hz),S33(DB),S33(DEG),S34(DB),S34(DEG),S43(DB),S43(DEG),S44(DB),S44(DEG)
3000000000,5.1851091,16.418859,-58.201637,70.205933,-57.294834,60.355724,-16.005758,-135.13036
3005000000,5.6639481,-81.826981,-55.62302,-27.206181,-55.919308,-27.015869,-15.610963,-134.92613
3010000000,6.8214822,176.75372,-56.504971,-74.840561,-57.081024,-75.134277,-15.737768,-137.59859
3015000000,6.7309198,99.853073,-55.069195,154.05931,-54.257111,164.19328,-15.881239,-141.93991
3020000000,4.9183564,-15.697179,-59.636589,92.187073,-59.506874,85.884384,-15.549994,-142.46556
3025000000,6.5293031,-112.26732,-61.645699,-16.217443,-61.521954,-11.400877,-15.284939,-143.38309
3030000000,6.1655979,155.32005,-62.358379,-175.2903,-63.621822,-172.21838,-15.282916,-148.09476
3035000000,7.2806511,63.409634,-64.593689,19.742168,-62.623497,21.090548,-15.357724,-152.71785
3040000000,3.5427935,-41.503078,-56.50626,-25.488365,-57.488766,-30.492191,-15.309823,-156.68773
3045000000,6.9850183,-143.62935,-56.136364,-123.80254,-55.882183,-127.74803,-15.061375,-160.05321
3050000000,7.1006265,134.50523,-57.0121,139.00836,-56.521626,150.02327,-15.106132,-159.65852
3055000000,6.0545387,35.188656,-59.673397,75.248314,-58.856842,69.97226,-15.477634,-160.27516
3060000000,5.1788092,-68.687164,-62.844429,-68.903641,-62.547291,-73.775246,-15.275276,-165.89195
3065000000,7.1040378,-172.58896,-71.105232,-59.015614,-71.243118,-54.070919,-14.819204,-169.33218
3070000000,6.9329257,113.2394,-62.082706,54.220474,-61.00256,65.888321,-15.223436,-168.48511
3075000000,5.4623704,2.9871809,-57.375366,-55.186821,-56.855896,-64.645538,-15.865796,-171.31317
3080000000,5.6622715,-97.567604,-56.276657,-159.85776,-56.321712,-154.43793,-15.863257,-174.8855
3085000000,6.2724471,164.3221,-55.248348,127.69659,-56.109547,126.03301,-15.67458,-174.44937
3090000000,7.7615809,82.813477,-60.718521,55.885891,-58.431679,62.974304,-15.917443,-174.29706
3095000000,3.7898862,-25.541569,-61.473129,-24.059999,-62.009323,-26.710955,-15.985151,-178.99632
3100000000,6.4378338,-129.7352,-72.637207,87.698639,-71.974693,89.776947,-16.049362,176.89975
3105000000,7.220839,142.74246,-68.40625,6.7451186,-69.568306,11.849281,-16.240208,175.52129
3110000000,6.6915855,51.692638,-57.021282,-85.012589,-55.629189,-86.646896,-16.466272,174.60239
3115000000,4.0814543,-51.488899,-56.255184,-162.03946,-56.565788,-163.83189,-16.496279,174.71538
3120000000,7.2033911,-161.37764,-54.943405,103.6203,-54.726162,106.08647,-16.568018,175.073
3125000000,6.853992,122.34493,-59.222565,9.6172009,-59.26561,19.782461,-16.537182,173.35031
3130000000,6.5057745,19.567896,-65.843857,-21.05735,-63.961826,-26.875635,-16.80934,169.93645
3135000000,4.6291275,-82.490166,-65.637505,97.963646,-67.375793,97.072266,-17.339386,166.71564
3140000000,6.3398538,172.6244,-60.19595,-46.493572,-60.783222,-48.229076,-17.600784,165.15729
3145000000,8.3427258,96.207275,-57.338028,-102.61106,-55.71706,-92.926086,-17.473194,165.90195
3150000000,4.8539639,-7.9047332,-56.859848,-170.92636,-57.212101,-176.3233,-17.394871,166.83871
3155000000,5.9868393,-113.93048,-59.135166,91.935371,-58.860313,90.419548,-17.266661,166.13979
3160000000,6.9937654,149.98349,-61.297009,-18.897585,-61.85891,-16.515114,-17.186867,163.61874
3165000000,8.1123018,67.819618,-71.704353,-175.28113,-70.996742,179.92462,-17.613508,162.08237
3170000000,4.1429267,-34.9333,-66.085609,66.423782,-66.297264,64.046936,-18.020187,162.39049
3175000000,6.3729315,-146.01801,-66.481842,-53.722332,-66.232262,-57.00061,-17.986364,164.64752
3180000000,7.096427,132.28381,-60.908627,-116.08736,-61.287792,-108.82841,-18.044304,166.13316
3185000000,8.1214018,32.759659,-57.542133,138.6413,-55.476643,130.86281,-18.253687,166.72485
3190000000,4.2775555,-64.790413,-55.035656,62.536427,-55.546642,61.877697,-18.26972,162.95033
3195000000,6.6357365,-178.45131,-58.871544,-35.424416,-58.924908,-40.483128,-18.378092,158.28436
3200000000,8.5021915,106.18237,-66.616493,175.67537,-65.702316,-176.92905,-18.391867,156.85159
3205000000,5.5956631,4.5276999,-64.769188,-10.541767,-64.321838,-22.93873,-18.709227,162.17267
3210000000,6.7513571,-91.393509,-59.859791,-34.03397,-59.63763,-30.923906,-18.846743,161.73491
3215000000,8.1779156,156.56093,-59.942661,-145.34415,-60.10619,-145.0282,-18.459032,157.10345
3220000000,10.673528,78.961151,-59.801178,113.47168,-57.363689,118.11303,-17.518152,157.79221
3225000000,6.3843741,-23.471569,-56.183769,6.8737111,-57.180325,-1.5684452,-17.672731,161.09579
3230000000,8.2163382,-130.22765,-59.923779,-85.449036,-59.234936,-81.314499,-18.586367,158.15382
3235000000,7.7047949,137.35817,-62.2374,165.76624,-63.322639,173.761,-18.648975,155.66632
3240000000,10.845168,41.717346,-64.457039,18.397886,-60.974232,14.27978,-17.934595,159.41554
3245000000,6.0866799,-48.322269,-61.424408,-82.889946,-62.424973,-82.375435,-17.931055,161.00873
3250000000,7.7559986,-170.53693,-57.214481,171.15933,-57.456566,163.64307,-18.135803,157.81688
3255000000,9.5493679,118.10255,-58.39188,82.888359,-57.287956,100.24802,-17.924036,155.19748
3260000000,8.9550009,7.2383733,-61.954685,15.634988,-60.993484,0.48855731,-17.82159,152.76642
3265000000,7.2708802,-79.097931,-60.415794,-113.1597,-60.106636,-113.41197,-17.828655,151.24655
3270000000,7.9947362,163.35483,-65.426804,155.92334,-66.540443,155.56483,-17.681644,154.49496
3275000000,11.054711,88.016693,-70.276466,10.416083,-67.326233,27.357121,-17.607538,155.50162
3280000000,7.2795839,-17.683914,-59.81675,-126.19467,-60.566162,-139.30991,-17.52647,151.2372
3285000000,7.7539639,-113.73998,-58.46677,132.07388,-58.21748,140.87465,-17.157913,148.8526
3290000000,7.354166,142.43208,-56.970615,51.687012,-58.466454,57.179764,-17.177084,149.56873
3295000000,11.990722,45.821579,-61.650658,-30.066292,-57.816372,-41.623562,-17.604538,146.49979
3300000000,6.7720914,-39.16634,-63.02602,-137.5995,-64.155106,-140.51704,-17.723581,145.06573
3305000000,8.2441807,-157.89555,-64.256104,90.784454,-64.185654,87.626083,-17.500887,146.43697
3310000000,9.4493122,121.58708,-64.248123,-48.260654,-63.368664,-31.74048,-17.394505,142.45805
3315000000,10.056353,14.927203,-61.932484,-138.51782,-61.007053,-156.40886,-16.942638,137.73543
3320000000,7.0970168,-61.83337,-56.787807,99.76429,-57.751934,101.76346,-16.977516,139.21544
3325000000,7.4837823,170.80324,-58.031345,23.739859,-58.222298,17.231995,-17.512129,136.69524
3330000000,10.583964,98.044151,-60.387714,-54.470482,-58.833202,-44.31451,-17.296066,130.37021
3335000000,8.59233,-7.5893016,-68.575935,-156.0936,-68.387917,-170.18642,-16.654673,133.82643
3340000000,8.5526953,-97.269135,-71.916893,-41.944794,-71.676743,-32.221367,-16.913059,137.50829
3345000000,6.852859,151.8282,-58.446751,-89.611061,-60.489204,-89.490913,-17.444368,130.53339
3350000000,12.929465,58.914459,-60.411533,166.2527,-55.701843,163.97305,-17.082344,123.95267
3355000000,7.4018307,-28.602747,-56.712971,112.06506,-58.088989,107.46088,-16.906013,125.84361
3360000000,8.386632,-138.75275,-59.417095,0.96434897,-59.228046,-9.7108984,-17.526072,125.13781
3365000000,8.9599123,131.8821,-64.306061,-127.0105,-63.906303,-115.2201,-17.897938,121.02512
3370000000,11.318708,24.554085,-71.933189,174.91806,-69.314133,165.41888,-17.714729,119.21123
3375000000,8.3188782,-51.030746,-61.26442,-32.645008,-62.066368,-32.508572,-17.405989,117.29964
3380000000,7.5150409,-173.71593,-59.781536,-154.03183,-60.030865,-155.14632,-17.400993,114.00185
3385000000,9.8944035,106.5991,-60.322346,142.49387,-58.998081,154.18044,-17.89547,112.52663
3390000000,9.2029009,-3.9802799,-57.483566,59.291111,-57.48975,42.592819,-18.281616,109.45625
3395000000,7.9800925,-81.535606,-69.028389,-40.105392,-68.145538,-25.469755,-18.226921,108.35629
3400000000,6.5969682,159.43779,-74.703415,98.66468,-75.894028,94.945641,-18.395777,109.77956
3405000000,12.280475,70.254448,-58.710136,14.614161,-55.318848,13.542552,-18.979681,109.2727
3410000000,8.0019608,-23.860395,-59.812912,-98.340973,-61.230293,-105.89797,-19.056591,103.1687
3415000000,9.1070824,-124.98142,-61.491776,-178.40685,-59.757267,-178.31657,-19.2565,99.560265
3420000000,7.8669338,133.47775,-58.504196,108.58638,-59.059376,115.66375,-20.001467,98.772774
3425000000,11.701856,32.727276,-77.110886,11.268776,-73.416267,0.99700594,-20.555464,95.609192
3430000000,8.1210909,-47.010487,-71.531471,-69.137596,-73.008926,-81.080307,-20.195522,92.583099
3435000000,8.2276478,-163.65933,-61.10751,32.341373,-61.222973,24.804659,-20.237696,93.897614
3440000000,9.0820875,113.56438,-59.079655,-50.949211,-58.877296,-36.492847,-20.629257,93.42366
3445000000,10.395776,1.3173397,-62.084663,-111.71158,-61.459595,-132.41063,-20.882467,88.261322
3450000000,8.7655649,-71.252579,-61.514801,147.27574,-62.723217,152.62012,-20.986761,86.677437
3455000000,7.2318726,165.35396,-66.225235,70.691826,-68.897781,65.624268,-21.744293,91.944214
3460000000,11.632021,78.47625,-74.57383,-12.127804,-72.593803,-5.8969507,-22.840027,95.362389
3465000000,8.8435383,-20.176867,-78.92691,112.95174,-80.310371,98.106644,-23.710976,90.334602
3470000000,9.356286,-107.25761,-63.618587,-2.8942909,-63.418301,-1.6748396,-23.493616,88.064079
3475000000,7.4955902,143.03981,-72.149178,-114.66213,-71.970291,-113.07114,-23.873119,90.063164
3480000000,11.900774,43.733753,-64.302765,-164.39432,-61.223373,-176.4129,-25.344204,84.214462
3485000000,9.0510807,-40.619774,-69.623169,119.32355,-70.122101,112.77271,-25.287466,78.821205
3490000000,8.7691269,-145.64221,-66.907417,80.754089,-65.44445,76.295212,-24.637066,90.74308
3495000000,8.0237055,122.18939,-80.791214,-94.354286,-81.227219,-68.48085,-25.60866,101.51502
3500000000,11.141787,8.6684942,-66.963165,-10.254175,-66.061455,-24.894344,-27.010565,97.425049
3505000000,8.290247,-61.04948,-79.665497,-103.32192,-82.487129,-61.023731,-26.175529,90.18779
3510000000,7.5410886,-179.67738,-65.764053,-149.40773,-66.562469,-149.95055,-26.185457,96.662491
3515000000,10.010351,91.128204,-68.396141,150.08589,-66.914001,157.74937,-27.166092,104.28815
3520000000,9.0558233,-12.792729,-65.269814,109.7616,-65.081345,97.940514,-27.463972,111.57054
3525000000,9.4033012,-92.177986,-62.290737,11.925053,-61.740162,13.881591,-27.888559,117.56578
3530000000,6.9123034,153.06395,-61.212143,-22.644772,-62.496216,-21.257914,-29.197018,114.92258
3535000000,11.527527,56.700821,-68.703476,-98.711601,-64.896873,-106.65115,-27.523237,103.13844
3540000000,8.2069941,-33.970108,-71.323006,-163.15462,-71.897377,179.43149,-26.605465,107.94922
3545000000,9.2057571,-127.6124,-78.232071,173.97336,-81.587357,165.53577,-28.124418,117.0127
3550000000,7.0625744,128.52414,-62.208549,168.51782,-62.772835,178.6237,-28.212027,113.88011
3555000000,10.841449,19.644251,-62.581333,106.75244,-60.740585,87.681541,-26.051245,114.97272
3560000000,7.7454205,-54.7197,-59.943584,35.018818,-61.926628,36.718273,-26.07859,122.66251
3565000000,7.610539,-169.16658,-64.206543,-74.039009,-64.207726,-79.949089,-26.505693,117.39243
3570000000,8.6765079,101.47115,-66.505348,-178.80682,-65.66449,-166.93018,-24.888565,109.18504
3575000000,9.0888529,-7.8396254,-73.257858,46.51247,-74.068344,34.26125,-24.585598,121.62678
3580000000,8.485074,-79.186165,-64.244041,-95.85376,-65.11586,-94.125023,-26.048777,135.45326
3585000000,6.9183607,161.87988,-61.521587,139.24065,-62.209839,137.43407,-26.649282,123.89615
3590000000,9.8848658,73.323929,-60.735985,54.402504,-58.738594,60.258785,-25.374908,116.56391
3595000000,8.5138941,-26.678108,-57.589718,-14.711666,-58.805412,-28.019283,-25.788198,123.94156
3600000000,9.1376867,-110.85667,-67.698616,-102.10457,-67.329514,-95.350357,-27.080341,111.64524
3605000000,6.3582892,137.72815,-73.422752,100.02251,-75.896736,101.45378,-25.51058,99.235931
3610000000,11.018428,36.946754,-62.960648,-55.450268,-61.268017,-62.464451,-24.844803,107.84258
3615000000,8.1093369,-49.001995,-61.191814,-153.48552,-62.97414,-153.61615,-25.098425,117.84573
3620000000,8.6485758,-152.99225,-59.374084,122.88583,-59.436989,116.17702,-24.875,110.67924
3625000000,7.6452074,113.47488,-62.704582,39.003292,-62.475998,46.825912,-24.800587,109.43935
3630000000,10.367863,5.3626218,-63.889767,-69.696312,-62.822899,-86.459442,-25.597488,110.23385
3635000000,8.4703264,-66.659302,-61.089127,-159.07216,-62.173138,-158.11748,-26.131325,103.95415
3640000000,7.4609499,175.82304,-77.942329,2.1054807,-75.398026,17.585737,-26.015211,100.64868
3645000000,9.0726032,90.655983,-64.662621,-110.91055,-64.06971,-101.43529,-26.277658,108.24805
3650000000,9.1911154,-19.809746,-59.835342,153.61047,-59.863407,141.25702,-26.266586,109.82055
3655000000,9.0368481,-94.040276,-58.711418,84.15918,-58.869022,88.801392,-26.554905,102.65014
3660000000,6.8447418,149.8342,-59.833889,12.410324,-61.041969,11.108341,-27.185028,95.30397
3665000000,10.663262,53.90802,-63.911034,-80.98423,-61.808323,-77.841934,-27.050282,93.208023
3670000000,7.9417753,-39.263908,-75.657684,158.86711,-77.300072,150.57256,-26.969109,96.186218
3675000000,9.2153797,-131.38614,-65.819038,9.9354744,-64.244141,11.756804,-28.190516,103.89915
3680000000,6.871438,125.17989,-63.175793,-101.96402,-63.907864,-96.393669,-29.081688,109.16299
3685000000,10.911352,21.27598,-61.822441,139.14926,-60.798798,129.04994,-28.900808,102.80091
3690000000,8.7645082,-60.287811,-56.940102,54.547092,-57.660778,56.559269,-29.078623,99.451248
3695000000,7.8751464,-166.30124,-58.479832,-31.849228,-58.085079,-34.719067,-31.357077,102.43176
3700000000,7.4876204,102.64238,-61.692211,-96.757454,-61.721745,-85.15889,-34.189583,97.5467
3705000000,9.9894533,-10.483264,-66.531189,152.97023,-65.572975,132.517,-33.944836,84.332367
3710000000,8.0099802,-80.247276,-75.457047,-49.56012,-74.690964,-40.661034,-32.332512,97.909813
3715000000,6.616529,162.97682,-64.995689,-151.71025,-65.166039,-151.96281,-32.046082,110.45217
3720000000,9.378273,69.992996,-61.178936,117.49969,-59.325947,121.39194,-32.946815,110.60915
3725000000,8.2749157,-31.142988,-60.025921,32.268044,-61.274906,23.27812,-33.172447,103.05251
3730000000,9.0656013,-112.22025,-59.327873,-52.806961,-58.783245,-52.224426,-33.109619,118.09597
3735000000,6.0051465,136.65065,-61.1703,-118.81098,-62.241135,-118.72244,-33.79649,134.61906
3740000000,10.088277,39.43716,-74.41169,151.0025,-70.422928,149.52951,-32.475853,139.41322
3745000000,8.6890049,-49.802982,-72.922234,-5.1051006,-75.044556,-18.423805,-29.898062,142.62158
3750000000,8.8183174,-145.87889,-61.179783,174.19492,-60.468174,172.41965,-29.653425,157.70949
3755000000,6.3836842,115.54588,-60.005047,103.92231,-62.021675,111.28489,-32.236179,165.02599
3760000000,10.440057,2.3836992,-57.481804,23.922426,-55.879509,8.9614172,-33.172173,154.05815
3765000000,8.1633968,-68.917549,-60.186687,-46.389168,-61.724453,-43.755913,-31.19001,155.26286
3770000000,7.897521,178.72717,-59.678162,-153.03387,-59.730618,-159.42238,-30.05127,162.87723
3775000000,8.6842928,87.30632,-69.43338,107.89605,-68.801819,130.23701,-29.038019,155.03044
3780000000,9.5563793,-25.089933,-73.062263,-105.1364,-75.558067,-143.44412,-27.417524,152.04253
3785000000,9.4307442,-92.015144,-61.73904,161.29909,-61.802017,164.38618,-26.994682,157.10712
3790000000,7.1329961,150.32489,-60.996059,72.47921,-61.24078,67.525177,-27.038876,158.29108
3795000000,10.108191,60.415974,-56.232227,11.139661,-55.021954,15.899292,-26.302906,157.64336
3800000000,9.1528893,-44.211235,-56.239857,-75.626343,-57.158268,-85.914589,-25.807617,162.87547
3805000000,9.3631783,-124.88501,-60.827713,-147.23743,-60.640461,-141.00548,-25.36227,161.45302
3810000000,6.3676286,124.9785,-75.188713,-164.37024,-78.678902,-174.84929,-24.587688,156.63416
3815000000,11.197047,17.093292,-68.393158,-139.96986,-66.024895,-152.21191,-25.112837,158.61946
3820000000,8.5420647,-61.65723,-63.246174,140.5519,-65.307365,145.47244,-26.909817,154.81688
3825000000,9.1283035,-164.65567,-57.905624,83.914413,-56.920444,77.315842,-25.427256,140.83656
3830000000,6.9153905,99.818489,-57.787224,1.9590167,-57.97168,12.25331,-23.613411,143.39603
3835000000,10.473036,-14.140423,-60.731243,-76.169518,-59.775436,-89.709587,-23.828285,151.20331
3840000000,9.0455532,-82.573189,-62.30851,178.10872,-62.926685,-178.04922,-24.251219,142.91714
3845000000,7.5967674,164.93604,-81.057877,47.286701,-80.769302,62.692005,-23.049023,134.69624
3850000000,8.9670782,74.060234,-76.644958,18.816563,-74.712257,21.860189,-22.91143,137.24088
3855000000,9.3557844,-36.751884,-59.804073,134.33423,-60.494465,121.55848,-23.429558,138.99695
3860000000,9.7960958,-106.82285,-58.635761,52.122398,-58.739853,59.547535,-22.877705,133.17715
3865000000,6.1674027,138.59113,-57.56741,-27.832624,-58.393093,-29.978294,-22.253817,133.70604
3870000000,10.257173,39.576813,-58.881927,-107.56052,-56.771297,-108.17899,-22.382988,136.63132
3875000000,8.664567,-55.837296,-62.189846,-168.03273,-64.087852,-174.80722,-22.500923,132.65303
3880000000,9.9872265,-142.7365,-69.275833,52.502728,-67.599205,52.697323,-22.764387,124.87122
3885000000,6.115942,114.79221,-70.676056,-107.64445,-72.501495,-109.94077,-23.159121,121.5424
3890000000,10.694226,3.6558332,-64.37027,137.10704,-62.600353,127.93323,-22.495022,119.94654
3895000000,8.524189,-72.002167,-62.134888,26.138184,-63.873837,26.896101,-21.619293,119.61002
3900000000,8.9749527,-174.94493,-59.158752,-61.38903,-58.083588,-64.689293,-21.847759,119.83664
3905000000,7.8621979,87.577293,-62.130062,-116.57573,-62.140842,-113.53757,-22.161985,119.15526
3910000000,10.167558,-25.42082,-61.784512,137.15688,-61.147999,129.93611,-21.983955,114.64771
3915000000,10.121403,-93.946114,-63.074856,47.152386,-63.124016,59.171616,-22.390516,111.04372
3920000000,7.1147566,152.41345,-72.691673,-157.40865,-74.465622,-167.91997,-22.915394,111.70439
3925000000,10.054679,59.068233,-67.182098,90.164124,-65.44355,106.79014,-22.919905,111.28661
3930000000,9.0337973,-49.318207,-62.969601,12.62755,-63.525944,3.7073145,-22.92943,104.60571
3935000000,10.654981,-127.60928,-59.257462,-78.891899,-58.838581,-77.453461,-23.019688,96.81485
3940000000,6.7192101,127.41561,-61.094841,-167.02565,-61.714344,-163.60484,-22.331678,96.67469
3945000000,10.821081,16.13513,-57.342983,123.36167,-55.902203,113.27959,-21.924217,97.494904
3950000000,9.7287979,-66.642632,-70.568901,70.074715,-70.862221,69.159996,-23.135021,98.045105
3955000000,9.9561968,-162.18108,-72.412231,2.4572725,-72.21228,-4.9132514,-24.361525,95.694344
3960000000,6.703228,103.72603,-66.672997,62.821449,-67.016914,63.845966,-23.26734,91.140732
3965000000,10.377298,-18.715559,-60.889141,-25.790251,-60.457047,-43.930813,-22.566679,89.198853
3970000000,9.1109848,-85.139572,-59.000916,-92.712318,-60.250927,-84.798363,-24.0392,89.866432
3975000000,7.8766012,165.57991,-58.457413,162.66875,-59.312832,156.5177,-24.810204,83.271706
3980000000,8.6480589,72.188019,-63.409302,99.619949,-61.873264,105.43098,-23.817526,77.853355
3985000000,9.1497021,-41.726635,-63.254654,41.647804,-64.985863,32.554943,-24.312742,80.347931
3990000000,10.631878,-113.48511,-68.917862,-5.2643871,-69.144279,-2.5435147,-25.229328,83.704697
3995000000,6.6062055,139.69917,-64.433205,-8.7289324,-64.596405,-7.4802918,-24.112236,79.543831
4000000000,7.7209935,38.421234,-56.575211,-43.457653,-55.63707,-44.978817,-24.004812,77.843269
END

