!CSV A.01.01
!Keysight Technologies,N5247A,US56070710,A.10.64.09
!Date: Thursday, November 10, 2022 00:14:30
!Source: Standard

BEGIN CH1_DATA
Freq(Hz),S33(DB),S33(DEG),S34(DB),S34(DEG),S43(DB),S43(DEG),S44(DB),S44(DEG)
3000000000,5.1581578,16.146732,-58.192444,67.049179,-57.395855,59.426178,-16.011597,-134.88213
3005000000,5.5716314,-81.837784,-55.954849,-26.17528,-56.085403,-26.335791,-15.612197,-134.83484
3010000000,6.7954206,176.5786,-56.733341,-76.30043,-57.17728,-74.929604,-15.727846,-137.42421
3015000000,6.7354941,99.719826,-55.088661,153.88445,-54.300335,161.96902,-15.88693,-141.68112
3020000000,4.9029288,-15.468204,-60.115322,91.748703,-59.929478,83.635376,-15.555675,-142.35754
3025000000,6.4766383,-112.44923,-62.846073,-17.150246,-61.882149,-12.782541,-15.274166,-143.28978
3030000000,6.1516657,155.00781,-62.643753,-175.4662,-63.594967,-171.98009,-15.281192,-147.85095
3035000000,7.2747536,63.242916,-64.409157,17.88406,-61.998024,21.266727,-15.367068,-152.56145
3040000000,3.4612553,-41.303814,-56.69455,-29.373796,-57.415241,-31.274084,-15.301739,-156.59331
3045000000,6.931325,-143.66322,-56.403339,-124.12111,-56.071869,-128.33414,-15.056869,-159.82597
3050000000,7.0990896,134.20273,-57.444569,138.34908,-57.005287,148.80998,-15.120053,-159.42261
3055000000,6.022737,35.215664,-60.162472,74.443581,-58.891609,73.086113,-15.477236,-160.17856
3060000000,5.0826735,-68.427071,-63.134563,-72.651596,-63.4175,-77.268303,-15.26471,-165.70898
3065000000,7.0718279,-172.64124,-70.143097,-35.420292,-70.373276,-38.410458,-14.826309,-169.06004
3070000000,6.940774,113.07217,-61.804008,49.450008,-61.425838,62.038685,-15.228305,-168.34456
3075000000,5.4630022,3.172492,-57.786972,-58.637859,-57.122753,-65.688805,-15.855164,-171.20778
3080000000,5.5691819,-97.690559,-56.487614,-160.57523,-56.567429,-155.66357,-15.864188,-174.65689
3085000000,6.2194996,164.25366,-55.3381,128.84535,-56.46545,127.43552,-15.680344,-174.2805
3090000000,7.8008442,82.983643,-60.784271,56.668026,-58.937386,62.153561,-15.905693,-174.16803
3095000000,3.805326,-25.415522,-61.712811,-18.82967,-62.161942,-21.849155,-15.981518,-178.76408
3100000000,6.3422723,-129.96111,-69.725395,67.958755,-70.366997,75.137604,-16.063541,177.13252
3105000000,7.1745358,142.62202,-68.244987,-2.984777,-68.287086,5.5204897,-16.244625,175.62143
3110000000,6.7601194,51.917103,-57.238277,-86.099007,-55.657536,-88.303375,-16.456879,174.75558
3115000000,4.0729513,-51.4529,-56.555775,-165.45631,-56.725864,-168.19676,-16.502649,174.94983
3120000000,7.1184411,-161.66774,-55.112705,102.78275,-54.883289,103.81114,-16.576445,175.25287
3125000000,6.836977,122.16437,-59.603424,10.11015,-60.364105,17.348331,-16.531462,173.43283
3130000000,6.5186892,19.782238,-65.974571,-13.215139,-64.214409,-18.622986,-16.808897,170.13
3135000000,4.5681577,-82.299805,-67.388466,86.625999,-66.951241,91.584969,-17.346737,166.90433
3140000000,6.2809329,172.49918,-59.95031,-50.218956,-60.743992,-54.44664,-17.593609,165.25896
3145000000,8.3557262,96.12767,-57.529217,-102.85801,-55.979012,-93.675568,-17.457975,166.11913
3150000000,4.8795562,-7.5911202,-57.489948,-170.56163,-57.607647,-177.12701,-17.398975,167.17154
3155000000,5.9262905,-113.80486,-60.072472,91.606064,-59.193592,88.421989,-17.273241,166.33107
3160000000,6.9703574,149.72177,-62.433224,-21.107275,-62.944283,-17.677187,-17.183924,163.75916
3165000000,8.1289892,67.595909,-73.239143,165.87123,-71.566765,161.02066,-17.615614,162.3409
3170000000,4.134006,-34.675205,-65.891068,57.047794,-66.83625,52.490646,-18.029108,162.59993
3175000000,6.296051,-145.98526,-66.079384,-60.834637,-65.921867,-65.566956,-17.98476,164.77509
3180000000,7.0761657,131.96094,-61.608612,-120.75292,-62.147896,-113.32549,-18.041613,166.38416
3185000000,8.1344194,32.928619,-58.30666,133.7415,-56.108906,129.00873,-18.271477,166.95532
3190000000,4.2956257,-64.218727,-55.568779,61.136021,-56.089314,62.665264,-18.27445,162.94563
3195000000,6.6225138,-178.7776,-59.262665,-37.963417,-60.026485,-40.052925,-18.361506,158.40308
3200000000,8.4902439,105.48143,-68.736115,160.31853,-67.447678,-176.65094,-18.389097,157.2247
3205000000,5.5917363,4.6739979,-63.601814,-20.110819,-62.849834,-29.769178,-18.727125,162.38402
3210000000,6.6822839,-91.047859,-60.063396,-38.647743,-60.842037,-35.732029,-18.851772,161.80934
3215000000,8.1351919,156.38998,-60.91449,-151.68918,-61.681355,-148.51003,-18.454662,157.40587
3220000000,10.697446,78.748596,-61.038025,108.16089,-58.467148,115.67474,-17.530266,158.00951
3225000000,6.3968496,-23.592569,-56.98637,4.5865064,-57.888252,-3.8440795,-17.681673,161.13652
3230000000,8.1108809,-130.2639,-61.351135,-89.290749,-60.956871,-81.968872,-18.574444,158.41313
3235000000,7.6675224,137.19055,-63.617386,166.31868,-65.020432,170.57794,-18.657013,155.95807
3240000000,10.837781,41.493011,-65.820526,5.2108059,-63.071484,0.16228747,-17.944191,159.42651
3245000000,6.0848122,-48.093052,-62.459698,-95.679787,-63.097992,-90.362282,-17.914312,161.15999
3250000000,7.6915207,-170.68396,-57.931244,166.16699,-57.982121,160.31541,-18.126707,158.22281
3255000000,9.5063744,117.69615,-59.415737,79.639511,-58.582829,99.672096,-17.937376,155.29529
3260000000,8.9683599,7.2349439,-64.619392,17.813263,-62.922962,3.660887,-17.82583,152.87079
3265000000,7.2424302,-78.914917,-62.069092,-113.98612,-62.478367,-113.6002,-17.823641,151.68724
3270000000,7.910552,163.1629,-70.864464,159.24896,-71.794601,169.47148,-17.693546,154.64865
3275000000,11.03524,87.793762,-76.130165,-21.502922,-71.094864,-9.3759813,-17.623661,155.44977
3280000000,7.3002315,-17.639935,-60.49934,-137.11792,-60.946236,-150.41936,-17.514065,151.6006
3285000000,7.6803975,-113.50757,-59.179329,126.34885,-59.78072,131.39169,-17.14723,149.14938
3290000000,7.3122573,142.24878,-58.358654,48.460617,-59.637547,54.887783,-17.196039,149.51276
3295000000,11.956137,45.527283,-64.35965,-27.385679,-60.146313,-34.898483,-17.616045,146.79306
3300000000,6.7737226,-38.823185,-68.799263,-137.60425,-68.433434,-141.22902,-17.698999,145.47916
3305000000,8.2079697,-157.76277,-70.32975,87.338676,-70.45092,81.542053,-17.511599,146.28815
3310000000,9.4063463,121.28107,-66.904617,-71.764877,-66.360298,-57.636066,-17.419769,142.57198
3315000000,10.077567,14.946478,-64.452667,-153.32982,-63.544113,-170.61954,-16.921551,138.31264
3320000000,7.1300912,-61.670464,-57.938042,89.698639,-58.805519,94.749641,-16.966534,139.20427
3325000000,7.4324493,170.59624,-60.023636,22.383301,-60.379292,16.979912,-17.565134,136.58315
3330000000,10.5402,97.592148,-63.328293,-44.894012,-61.063793,-34.903145,-17.286882,131.00356
3335000000,8.5884695,-7.6070757,-74.105156,-94.887924,-74.310699,-114.83216,-16.604031,134.00247
3340000000,8.5563936,-96.743187,-67.142235,-87.449013,-66.373077,-76.927574,-16.976238,137.35403
3345000000,6.8455615,151.71243,-60.642292,-106.24014,-62.634785,-103.15973,-17.485956,131.16568
3350000000,12.890268,57.996101,-62.710613,151.41615,-58.355621,148.97816,-17.020107,124.3024
3355000000,7.3797426,-28.655676,-59.581017,118.24657,-60.880829,112.84858,-16.928068,125.44778
3360000000,8.3317709,-138.46674,-63.937164,8.5533342,-63.542591,-6.7934093,-17.589296,125.59796
3365000000,8.9072657,131.62714,-71.761063,-120.14564,-71.867622,-100.67867,-17.818289,121.66861
3370000000,11.325339,24.259985,-68.975685,-97.547073,-67.795807,-109.50661,-17.70027,118.81143
3375000000,8.3032789,-51.333336,-64.907097,-59.092373,-65.317703,-62.707024,-17.494434,117.4218
3380000000,7.3815417,-173.62671,-62.106308,-172.30505,-63.052101,-179.28505,-17.362671,114.79694
3385000000,9.8375883,106.60664,-65.122223,142.57201,-63.567719,153.8221,-17.835333,112.44333
3390000000,9.2186689,-4.3568325,-59.632923,73.385391,-59.726982,56.049515,-18.376371,109.22477
3395000000,7.942265,-81.673447,-68.753853,39.983768,-68.533554,47.933678,-18.255758,109.07399
3400000000,6.4956241,159.52226,-70.267143,8.6393938,-71.049591,1.9772886,-18.311909,109.95879
3405000000,12.223518,70.123375,-61.359806,6.172863,-57.729336,2.8922842,-19.038826,108.76233
3410000000,8.034318,-23.913551,-62.894825,-111.43974,-63.739437,-119.4265,-19.147949,103.59358
3415000000,9.1043882,-125.07664,-65.764832,-164.75035,-65.096992,-165.33427,-19.166355,100.27378
3420000000,7.7851076,133.2038,-60.167091,119.65664,-60.928257,131.55746,-19.962568,98.227081
3425000000,11.672915,32.581554,-72.414597,80.087013,-68.395523,81.858894,-20.695063,95.499443
3430000000,8.1404047,-47.113922,-67.154388,-26.9715,-67.977463,-33.0354,-20.160524,93.674507
3435000000,8.172492,-163.38023,-62.725311,16.055145,-63.405548,9.7605066,-20.123966,93.890717
3440000000,9.0613308,113.46815,-61.330372,-47.27058,-61.309826,-35.553707,-20.771252,92.926392
3445000000,10.383412,0.76337457,-63.918694,-97.357117,-63.098415,-115.67992,-20.960514,89.281349
3450000000,8.722826,-71.419846,-61.737896,166.46379,-62.165165,171.77892,-20.827822,87.230461
3455000000,7.1712575,165.61073,-65.037971,92.795815,-66.009407,84.691399,-21.824062,90.893394
3460000000,11.59606,78.1259,-71.276489,11.176546,-67.55481,5.3780603,-23.043882,96.062614
3465000000,8.8325815,-20.466694,-77.857002,-123.33685,-79.905418,-132.2343,-23.490292,91.51355
3470000000,9.3224468,-107.21249,-64.802864,7.1111445,-63.992908,2.2114294,-23.401434,86.836899
3475000000,7.4263182,143.0676,-74.255569,-77.109703,-76.268883,-65.236801,-24.165134,90.120262
3480000000,11.871446,43.406082,-62.824032,-148.8568,-60.573395,-160.46964,-25.218578,86.506783
3485000000,9.0192451,-40.925732,-67.066574,129.99332,-66.065788,123.66353,-25.019598,78.300613
3490000000,8.7005978,-145.22891,-63.275402,66.222229,-63.311916,63.225674,-24.983931,89.924393
3495000000,7.9818501,122.2315,-72.056786,-85.9487,-72.982635,-66.47171,-25.60541,103.86237
3500000000,11.092731,8.1890068,-71.442223,-11.218878,-71.820351,-21.301117,-26.616611,96.989403
3505000000,8.2422943,-60.922501,-72.829277,11.036046,-74.334198,29.518776,-26.448597,88.292946
3510000000,7.5388346,-179.16794,-63.7957,-122.34708,-65.252151,-127.564,-26.422945,98.601913
3515000000,9.9818468,90.663597,-65.042099,163.13556,-62.763901,173.92316,-26.714928,104.51099
3520000000,9.0030155,-13.037138,-61.547256,99.346161,-62.410339,84.057816,-27.657675,109.20421
3525000000,9.3781452,-91.964348,-60.364079,-2.2002158,-59.935387,-2.335974,-28.275043,119.96286
3530000000,6.8440909,153.27965,-63.288784,-39.711105,-64.822708,-35.8923,-28.639357,115.941
3535000000,11.458544,56.721596,-80.134399,-126.43109,-77.142738,-148.14922,-27.364389,100.85606
3540000000,8.2337379,-34.065357,-77.599777,-90.217072,-79.197487,-89.118828,-27.069611,108.94957
3545000000,9.2004175,-127.70479,-67.588081,-154.75433,-68.024864,-148.91853,-27.830933,119.05061
3550000000,6.9916019,128.4902,-60.4263,154.71896,-61.233891,160.65494,-27.935312,111.41492
3555000000,10.793833,19.590145,-62.450367,81.196991,-60.854492,63.853996,-26.449411,115.22758
3560000000,7.7592325,-54.661625,-63.956116,23.208889,-65.717972,26.360516,-25.988194,124.869
3565000000,7.6409063,-168.91605,-69.828552,-90.171837,-70.630081,-100.52452,-26.206799,116.18494
3570000000,8.6565504,101.23244,-75.179993,175.0602,-72.751793,-176.05122,-25.124891,108.49926
3575000000,9.0719442,-8.2449045,-71.908264,-51.013634,-72.235191,-73.369034,-24.694078,123.48516
3580000000,8.4731903,-79.446106,-65.507568,-127.48007,-65.543701,-121.77793,-25.830933,134.45517
3585000000,6.8458319,162.26115,-62.214886,117.54337,-62.251904,117.88072,-26.754543,122.37886
3590000000,9.8655291,73.498711,-61.4272,45.485344,-60.168373,50.189018,-25.543924,118.04503
3595000000,8.5437126,-27.149326,-59.539143,-12.871893,-60.690395,-25.951385,-25.587948,124.47385
3600000000,9.090519,-111.30375,-71.072823,-77.272743,-69.568481,-67.129929,-26.990059,110.19209
3605000000,6.2667069,137.88808,-85.69886,116.89052,-91.333244,104.827,-25.738102,99.560646
3610000000,10.982946,37.106377,-64.603706,-60.916721,-61.98333,-68.373299,-24.83145,109.00181
3615000000,8.1517153,-49.12661,-62.392178,-155.41718,-63.339806,-159.10207,-24.992167,117.14426
3620000000,8.6802168,-153.29135,-59.831783,125.63363,-59.929798,119.68873,-25.022856,110.60921
3625000000,7.5751576,112.97691,-62.198181,41.098263,-62.978786,50.671413,-24.893633,110.40033
3630000000,10.285692,5.2673888,-63.7425,-67.701843,-62.580677,-81.916183,-25.48156,109.96329
3635000000,8.4929819,-66.604027,-60.471706,-159.22023,-61.757515,-161.01256,-26.11117,103.20345
3640000000,7.4550886,176.00764,-73.396881,19.322437,-73.154762,14.55667,-26.153572,101.30363
3645000000,9.0480499,90.530472,-64.622498,-105.55511,-64.083382,-91.733414,-26.231712,109.01292
3650000000,9.1645203,-20.243839,-58.761772,160.42169,-59.062553,148.93877,-26.183611,109.0892
3655000000,9.027421,-94.001686,-57.491581,83.639114,-57.691849,86.745544,-26.663946,102.63693
3660000000,6.8386059,150.01566,-59.516743,6.7704844,-60.801315,2.8467944,-27.239775,96.594505
3665000000,10.623398,53.47921,-63.267941,-94.247559,-60.875072,-91.650742,-26.878973,93.166801
3670000000,7.9323812,-39.338871,-71.598228,116.43135,-72.2854,115.72895,-27.01832,95.861053
3675000000,9.2702904,-131.45006,-63.603489,1.469998,-62.999046,0.012527467,-28.364874,105.47697
3680000000,6.8309546,124.96421,-61.821392,-108.83014,-62.640713,-100.25093,-29.021265,109.18453
3685000000,10.834914,21.036175,-60.525932,133.23077,-59.551762,124.07848,-28.868971,101.47737
3690000000,8.7889938,-60.364597,-56.333824,51.226479,-57.271141,52.188705,-29.233643,100.14209
3695000000,7.9097104,-166.17708,-58.317242,-36.714413,-58.203827,-40.325714,-31.395111,103.43316
3700000000,7.4795771,102.39912,-62.551556,-103.61359,-62.97031,-92.739304,-33.953533,95.537025
3705000000,9.9330835,-11.128583,-66.695038,135.80132,-65.435318,120.80363,-34.019314,84.1427
3710000000,7.9848661,-80.280586,-69.560226,-51.528854,-70.809013,-42.680157,-32.446259,100.1405
3715000000,6.6343856,163.2141,-62.965446,-153.98007,-63.576218,-159.96269,-31.920076,109.86794
3720000000,9.352149,69.560181,-60.170456,113.35732,-58.160061,118.86746,-32.989841,109.68307
3725000000,8.2489462,-31.416447,-59.386414,26.231836,-60.452236,17.76683,-33.387188,105.18607
3730000000,9.0843973,-112.39439,-58.599232,-60.635208,-58.435505,-60.250309,-33.093792,118.34954
3735000000,5.9545503,136.59712,-61.666264,-128.92598,-62.364182,-128.41698,-33.913071,133.22444
3740000000,10.034978,39.198925,-74.977127,115.35126,-74.173416,119.25586,-32.549854,141.03038
3745000000,8.6944199,-50.206814,-69.422829,-47.554405,-70.587357,-37.999557,-29.925901,143.36224
3750000000,8.7818441,-145.92766,-59.327358,175.6338,-58.873867,172.37013,-29.794724,156.78386
3755000000,6.3041849,115.69064,-59.464539,99.748405,-61.055588,106.87389,-32.261955,165.015
3760000000,10.414031,2.0010629,-56.780163,20.887873,-55.546379,3.5721409,-33.081516,155.52858
3765000000,8.1670876,-69.204964,-60.758453,-51.722153,-62.555157,-53.275085,-31.260363,154.75711
3770000000,7.8919978,178.85818,-60.03883,-159.74071,-60.119518,-164.78616,-30.079613,162.34106
3775000000,8.6104574,87.03875,-72.254005,88.807518,-70.348991,95.8367,-28.940945,156.12062
3780000000,9.5122128,-25.166092,-67.52314,-113.12554,-70.362022,-122.09037,-27.440741,152.73157
3785000000,9.4745655,-92.144882,-60.417267,154.89211,-60.409271,161.47481,-27.081381,156.93506
3790000000,7.0986943,150.38998,-59.626446,67.647018,-60.082577,66.94838,-27.029781,158.76549
3795000000,10.035302,60.374401,-55.908066,6.9345727,-54.545113,12.571834,-26.318922,158.2872
3800000000,9.1539164,-44.585835,-56.270618,-79.63253,-57.217857,-89.285568,-25.890957,162.74251
3805000000,9.3497238,-124.97601,-61.844196,-152.0513,-62.128387,-148.25211,-25.363739,161.35922
3810000000,6.3165016,125.33801,-81.964165,-117.19666,-79.384804,-126.81419,-24.56953,157.10524
3815000000,11.177466,16.885254,-66.394409,-132.59464,-63.296268,-151.24785,-25.14698,158.74907
3820000000,8.5513334,-61.940201,-61.93375,135.95242,-64.202385,138.46489,-26.889666,154.50688
3825000000,9.1695232,-164.82582,-57.431602,78.560097,-56.851418,72.697449,-25.378004,141.33516
3830000000,6.849607,99.526596,-57.957203,-3.6017454,-57.779633,5.5189533,-23.634155,143.97504
3835000000,10.389372,-14.23896,-61.841179,-84.652153,-60.581821,-97.7491,-23.84939,151.2672
3840000000,9.0902882,-82.715508,-63.322826,173.60745,-63.981216,178.02216,-24.235029,143.11322
3845000000,7.6014171,164.75621,-77.746635,-28.973616,-80.143677,-24.120714,-23.077875,135.21754
3850000000,8.8807974,73.706726,-95.516685,-77.520119,-96.884506,-47.226963,-22.95643,137.41205
3855000000,9.3049278,-37.03854,-58.788807,132.9557,-59.596355,118.31779,-23.430199,138.98598
3860000000,9.7966909,-106.85329,-58.158413,46.964088,-58.058968,53.767937,-22.895809,133.48064
3865000000,6.1546583,138.85345,-57.429276,-32.804775,-58.364574,-35.776546,-22.29285,133.92679
3870000000,10.171722,39.104389,-59.364838,-112.72105,-57.294022,-113.76288,-22.369854,136.62193
3875000000,8.6287241,-55.982552,-63.918034,-169.54095,-65.791794,179.42908,-22.483168,132.83627
3880000000,10.058916,-142.6752,-70.839241,33.997219,-71.925117,39.797905,-22.795534,125.21516
3885000000,6.0621285,114.67953,-69.355309,-124.05513,-70.159843,-136.22711,-23.148489,121.73746
3890000000,10.542273,3.6152632,-64.128807,124.92486,-62.094028,117.9473,-22.454817,120.23486
3895000000,8.5340986,-71.923515,-61.039818,18.241573,-62.910061,20.692017,-21.661961,120.091
3900000000,9.0466747,-174.96353,-59.043999,-66.385742,-58.115814,-69.194489,-21.922213,120.05878
3905000000,7.8154097,87.541,-63.057159,-128.14136,-62.944618,-121.73479,-22.157911,119.00512
3910000000,10.080256,-25.568163,-61.720634,136.11612,-61.961617,125.62505,-21.973591,114.72024
3915000000,10.145786,-93.805336,-65.065376,43.82822,-65.657112,54.724785,-22.436899,111.26469
3920000000,7.203083,152.49966,-69.546638,-179.53282,-70.596893,170.63133,-22.907167,111.72485
3925000000,10.011797,58.218266,-66.486443,83.041641,-64.357414,95.668892,-22.865992,111.32311
3930000000,8.938508,-49.496967,-62.05801,1.2544172,-63.203102,-7.5502191,-22.955095,104.91669
3935000000,10.693738,-127.19489,-58.926025,-85.931404,-58.879383,-87.298264,-23.042475,97.121376
3940000000,6.7411289,127.75874,-61.323673,-172.32066,-62.296074,-166.68762,-22.282883,96.983063
3945000000,10.79861,16.069344,-57.969246,118.60265,-56.358055,107.44597,-21.956102,97.837669
3950000000,9.7341928,-67.190948,-77.341492,90.731697,-74.856308,77.213852,-23.235655,98.277054
3955000000,9.922924,-162.44565,-73.076286,32.565441,-71.920776,30.814838,-24.337635,95.612732
3960000000,6.6187806,104.11373,-64.958809,48.054039,-66.067558,57.928215,-23.219185,91.168579
3965000000,10.31119,-18.737732,-60.307907,-32.974552,-59.440533,-48.417778,-22.616047,89.437279
3970000000,9.1105385,-85.31691,-59.126579,-97.463821,-60.384361,-89.035973,-24.045753,90.088554
3975000000,7.9283218,165.7822,-59.023285,158.41061,-59.275253,150.64572,-24.734116,83.467049
3980000000,8.6046295,72.167702,-64.645088,94.397194,-63.432346,98.600456,-23.863874,78.02594
3985000000,9.0841246,-41.984661,-64.432823,43.760628,-65.550652,34.44997,-24.374575,80.452415
3990000000,10.651278,-113.46909,-69.030167,4.5718899,-69.615166,19.168932,-25.13826,83.89666
3995000000,6.6424861,139.91962,-63.192207,-6.7483139,-63.572392,-8.247118,-24.106703,79.871376
4000000000,7.6436749,38.528717,-56.421875,-46.960926,-55.094177,-47.395294,-24.130558,77.968765
END

